GTPPLOT creates from ieee13_pv_l2c2b1t1.pl4,999,1999                            
21,21A, 0D
  1,SBUS A          V-node,A, , V,  .939059019088745, -.328125        , 0.0,-99999, 99999,1.0,1.0,P
  2,SBUS B          V-node,B, , V,  .939259052276611, -.94140625      , 0.0,-99999, 99999,1.0,1.0,P
  3,SBUS C          V-node,C, , V,  .939179182052612, -.3203125       , 0.0,-99999, 99999,1.0,1.0,P
  4,SBUS A 22   A I-branch,A, , A,  .164350800333E-3, 1.30023431777954, 0.0,-99999, 99999,1.0,1.0,P
  5,SBUS B 22   B I-branch,B, , A,  .167316044099E-3, .123909950256348, 0.0,-99999, 99999,1.0,1.0,P
  6,SBUS C 22   C I-branch,C, , A,  .196727691218E-3, -.37414932250977, 0.0,-99999, 99999,1.0,1.0,P
  7,TACS   PV001V I-branch,S, , A,  .001382754417136, 138.274063110352, 0.0,-99999, 99999,1.0,1.0,P
  8,TACS   PV001I I-branch,S, , A,  .133546331199E-3, 13.3544998168945, 0.0,-99999, 99999,1.0,1.0,P
  9,TACS   PV001W I-branch,S, , A,  .002319967607036, 231.994445800781, 0.0,-99999, 99999,1.0,1.0,P
 10,TACS   PV002V I-branch,S, , A,  .002515684813261, 251.565963745117, 0.0,-99999, 99999,1.0,1.0,P
 11,TACS   PV002I I-branch,S, , A,  .002004720037803, 200.470001220703, 0.0,-99999, 99999,1.0,1.0,P
 12,TACS   PV002W I-branch,S, , A,  .889012822881E-3, 366.479949951172, 0.0,-99999, 99999,1.0,1.0,P
 13,TACS   ST001V I-branch,S, , A,  .002515684813261, 251.565963745117, 0.0,-99999, 99999,1.0,1.0,P
 14,TACS   ST001I I-branch,S, , A,  .668256659992E-3, 66.8249969482422, 0.0,-99999, 99999,1.0,1.0,P
 15,TACS   ST001W I-branch,S, , A,  .889012822881E-3, 366.479949951172, 0.0,-99999, 99999,1.0,1.0,P
 16,TACS   ST002V I-branch,S, , A,  .001382754417136, 138.274063110352, 0.0,-99999, 99999,1.0,1.0,P
 17,TACS   ST002I I-branch,S, , A,  .133546331199E-3, 13.3544998168945, 0.0,-99999, 99999,1.0,1.0,P
 18,TACS   ST002W I-branch,S, , A,  .002319967607036, 231.994445800781, 0.0,-99999, 99999,1.0,1.0,P
 19,TACS   ST003V I-branch,S, , A,  .002515684813261, 251.565963745117, 0.0,-99999, 99999,1.0,1.0,P
 20,TACS   ST003I I-branch,S, , A,  .668256659992E-3, 66.8249969482422, 0.0,-99999, 99999,1.0,1.0,P
 21,TACS   ST003W I-branch,S, , A,  .889012822881E-3, 366.479949951172, 0.0,-99999, 99999,1.0,1.0,P
 50
1
     20000,  12001
18/12/2022,22:55:50.000000
18/12/2022,22:55:50.000000
ASCII 
    1.000000
         1,             0,   86592,     -12,  -86569,   99998,  -27325,  -65640,  -99999,  -99999,  -99999,  -99999,  -99999,   11823,  -99999,  -99999,   11823,  -99999,  -99999,  -99999,  -99999,  -99999,   11823
         2,            50,   85635,    1872,  -87496,   99809,  -25172,  -67312,  -99983,  -97530,   62499,   90803,  -98222,   11823,   90803,  -97777,   11823,  -99983,  -97530,   62499,   90803,  -98222,   11823
         3,           100,   84647,    3756,  -88393,   99543,  -23011,  -68928,  -99650,  -92653,   62499,   90823,  -94710,   11820,   90823,  -93388,   11820,  -99650,  -92653,   62499,   90823,  -94710,   11820
         4,           150,   83630,    5638,  -89258,   99150,  -20845,  -70442,  -98947,  -87896,   62307,   90907,  -91287,   11817,   90907,  -89109,   11817,  -98947,  -87896,   62307,   90907,  -91287,   11817
         5,           200,   82582,    7518,  -90091,   98653,  -18672,  -71875,  -98235,  -83257,   62013,   91029,  -87949,   11818,   91029,  -84937,   11818,  -98235,  -83257,   62013,   91029,  -87950,   11818
         6,           250,   81505,    9396,  -90891,   98102,  -16497,  -73265,  -97531,  -78732,   61820,   91171,  -84697,   11818,   91171,  -80872,   11818,  -97531,  -78732,   61820,   91171,  -84697,   11818
         7,           300,   80399,   11270,  -91660,   97511,  -14323,  -74620,  -96853,  -74319,   61645,   91315,  -81527,   11819,   91315,  -76910,   11819,  -96853,  -74319,   61645,   91315,  -81528,   11819
         8,           350,   79265,   13140,  -92396,   96882,  -12152,  -75941,  -96206,  -70015,   61478,   91458,  -78439,   11820,   91458,  -73049,   11820,  -96206,  -70015,   61478,   91458,  -78439,   11820
         9,           400,   78102,   15006,  -93099,   96213,   -9983,  -77227,  -95589,  -65817,   61318,   91599,  -75429,   11822,   91599,  -69287,   11822,  -95589,  -65817,   61318,   91599,  -75430,   11822
        10,           450,   76912,   16866,  -93769,   95503,   -7818,  -78475,  -95002,  -61723,   61162,   91738,  -72496,   11824,   91738,  -65621,   11824,  -95002,  -61723,   61162,   91738,  -72497,   11824
        11,           500,   75694,   18720,  -94406,   94751,   -5657,  -79685,  -94444,  -57730,   61011,   91874,  -69638,   11826,   91874,  -62049,   11826,  -94444,  -57730,   61011,   91874,  -69639,   11826
        12,           550,   74449,   20568,  -95009,   93956,   -3501,  -80854,  -93917,  -53835,   60865,   92008,  -66854,   11828,   92008,  -58568,   11828,  -93917,  -53835,   60865,   92008,  -66855,   11828
        13,           600,   73178,   22408,  -95578,   93119,   -1351,  -81984,  -93419,  -50037,   60724,   92140,  -64140,   11831,   92140,  -55176,   11831,  -93419,  -50037,   60724,   92140,  -64141,   11831
        14,           650,   71881,   24240,  -96114,   92240,     792,  -83072,  -92950,  -46332,   60587,   92270,  -61496,   11834,   92270,  -51871,   11834,  -92950,  -46332,   60587,   92270,  -61497,   11834
        15,           700,   70558,   26064,  -96615,   91320,    2927,  -84119,  -92511,  -42719,   60456,   92398,  -58919,   11838,   92398,  -48651,   11838,  -92511,  -42719,   60456,   92398,  -58920,   11838
        16,           750,   69211,   27878,  -97082,   90361,    5051,  -85124,  -92101,  -39195,   60330,   92524,  -56409,   11841,   92524,  -45513,   11841,  -92101,  -39195,   60330,   92524,  -56410,   11841
        17,           800,   67838,   29683,  -97515,   89363,    7165,  -86089,  -91720,  -35758,   60210,   92649,  -53963,   11845,   92649,  -42455,   11845,  -91720,  -35758,   60210,   92649,  -53964,   11845
        18,           850,   66442,   31477,  -97913,   88329,    9267,  -87012,  -91369,  -32406,   60096,   92772,  -51579,   11849,   92772,  -39475,   11849,  -91369,  -32406,   60096,   92772,  -51580,   11849
        19,           900,   65022,   33259,  -98276,   87261,   11354,  -87895,  -91046,  -29137,   59988,   92894,  -49257,   11853,   92894,  -36572,   11853,  -91046,  -29137,   59988,   92894,  -49258,   11853
        20,           950,   63579,   35030,  -98604,   86162,   13426,  -88739,  -90751,  -25949,   59887,   93013,  -46994,   11858,   93013,  -33744,   11858,  -90751,  -25949,   59887,   93013,  -46995,   11858
        21,          1000,   62113,   36789,  -98897,   85034,   15482,  -89545,  -90486,  -22839,   59793,   93132,  -44789,   11862,   93132,  -30988,   11862,  -90486,  -22839,   59793,   93132,  -44790,   11862
        22,          1050,   60625,   38534,  -99155,   83878,   17519,  -90312,  -90248,  -19806,   59707,   93248,  -42640,   11867,   93248,  -28302,   11867,  -90248,  -19806,   59707,   93248,  -42642,   11867
        23,          1100,   59116,   40266,  -99377,   82699,   19537,  -91044,  -90039,  -16848,   59630,   93363,  -40547,   11872,   93363,  -25686,   11872,  -90039,  -16848,   59630,   93363,  -40549,   11872
        24,          1150,   57585,   41984,  -99565,   81499,   21535,  -91740,  -89857,  -13962,   59562,   93477,  -38508,   11878,   93477,  -23137,   11878,  -89857,  -13962,   59562,   93477,  -38509,   11878
        25,          1200,   56034,   43686,  -99717,   80279,   23511,  -92401,  -89703,  -11149,   59504,   93588,  -36521,   11883,   93588,  -20653,   11883,  -89703,  -11149,   59504,   93588,  -36522,   11883
        26,          1250,   54464,   45373,  -99833,   79043,   25464,  -93030,  -89577,   -8404,   59456,   93698,  -34585,   11889,   93698,  -18233,   11889,  -89577,   -8404,   59456,   93698,  -34586,   11889
        27,          1300,   52873,   47044,  -99915,   77792,   27395,  -93627,  -89477,   -5728,   59420,   93807,  -32698,   11894,   93807,  -15875,   11894,  -89477,   -5728,   59420,   93807,  -32700,   11894
        28,          1350,   51264,   48698,  -99960,   76529,   29302,  -94193,  -89405,   -3117,   59397,   93913,  -30861,   11901,   93913,  -13578,   11901,  -89405,   -3117,   59397,   93913,  -30862,   11901
        29,          1400,   49637,   50335,  -99970,   75254,   31185,  -94730,  -89359,    -571,   59388,   94018,  -29070,   11907,   94018,  -11340,   11907,  -89359,    -571,   59388,   94018,  -29072,   11907
        30,          1450,   47992,   51954,  -99945,   73971,   33043,  -95238,  -89339,    1912,   59393,   94122,  -27326,   11913,   94122,   -9160,   11913,  -89339,    1912,   59393,   94122,  -27328,   11913
        31,          1500,   46331,   53555,  -99884,   72679,   34876,  -95719,  -89344,    4334,   59416,   94224,  -25627,   11920,   94224,   -7036,   11920,  -89344,    4334,   59416,   94224,  -25628,   11920
        32,          1550,   44652,   55136,  -99787,   71381,   36685,  -96172,  -89375,    6696,   59457,   94324,  -23971,   11927,   94324,   -4966,   11927,  -89375,    6696,   59457,   94324,  -23973,   11927
        33,          1600,   42958,   56698,  -99655,   70076,   38469,  -96600,  -89431,    9000,   59519,   94422,  -22358,   11934,   94422,   -2950,   11934,  -89431,    9000,   59519,   94422,  -22360,   11934
        34,          1650,   41248,   58240,  -99488,   68766,   40229,  -97001,  -89511,   11247,   59603,   94519,  -20787,   11941,   94519,    -986,   11941,  -89511,   11247,   59603,   94519,  -20789,   11941
        35,          1700,   39524,   59761,  -99285,   67450,   41964,  -97378,  -89615,   13438,   59713,   94615,  -19256,   11948,   94615,     928,   11948,  -89615,   13438,   59713,   94615,  -19258,   11948
        36,          1750,   37786,   61261,  -99047,   66129,   43675,  -97730,  -89741,   15575,   59851,   94709,  -17764,   11955,   94709,    2792,   11955,  -89741,   15575,   59851,   94709,  -17766,   11955
        37,          1800,   36035,   62739,  -98774,   64803,   45362,  -98057,  -89890,   17660,   60021,   94801,  -16312,   11963,   94801,    4608,   11963,  -89890,   17660,   60021,   94801,  -16314,   11963
        38,          1850,   34270,   64195,  -98466,   63471,   47026,  -98359,  -90060,   19693,   60228,   94892,  -14896,   11971,   94892,    6377,   11971,  -90060,   19693,   60228,   94892,  -14898,   11971
        39,          1900,   32494,   65628,  -98123,   62134,   48667,  -98637,  -90250,   21676,   60477,   94982,  -13517,   11979,   94982,    8100,   11979,  -90250,   21676,   60477,   94982,  -13520,   11979
        40,          1950,   30705,   67037,  -97744,   60789,   50285,  -98891,  -90459,   23610,   60774,   95070,  -12174,   11987,   95070,    9779,   11987,  -90459,   23610,   60774,   95070,  -12176,   11987
        41,          2000,   28906,   68423,  -97332,   59438,   51881,  -99119,  -90685,   25496,   61126,   95157,  -10866,   11995,   95157,   11415,   11995,  -90685,   25496,   61126,   95157,  -10868,   11995
        42,          2050,   27097,   69785,  -96884,   58078,   53456,  -99322,  -90928,   27335,   61544,   95242,   -9591,   12003,   95242,   13008,   12003,  -90928,   27335,   61544,   95242,   -9593,   12003
        43,          2100,   25278,   71121,  -96402,   56710,   55009,  -99500,  -91184,   29130,   62037,   95327,   -8350,   12011,   95327,   14560,   12011,  -91184,   29130,   62037,   95327,   -8352,   12011
        44,          2150,   23450,   72433,  -95886,   55332,   56540,  -99651,  -91450,   30879,   62620,   95410,   -7140,   12019,   95410,   16072,   12019,  -91450,   30879,   62620,   95410,   -7142,   12019
        45,          2200,   21614,   73718,  -95336,   53944,   58050,  -99776,  -91724,   32586,   63310,   95492,   -5962,   12027,   95492,   17544,   12027,  -91724,   32586,   63310,   95492,   -5964,   12027
        46,          2250,   19770,   74978,  -94752,   52546,   59539,  -99874,  -92001,   34251,   64130,   95573,   -4814,   12035,   95573,   18979,   12035,  -92001,   34251,   64130,   95573,   -4817,   12035
        47,          2300,   17919,   76211,  -94134,   51137,   61006,  -99944,  -92274,   35874,   65107,   95653,   -3697,   12043,   95653,   20376,   12043,  -92274,   35874,   65107,   95653,   -3699,   12043
        48,          2350,   16062,   77417,  -93483,   49716,   62450,  -99986,  -92534,   37457,   66274,   95731,   -2608,   12051,   95731,   21737,   12051,  -92534,   37457,   66274,   95731,   -2610,   12051
        49,          2400,   14199,   78595,  -92799,   48285,   63872,  -99999,  -92770,   39002,   67671,   95809,   -1547,   12059,   95809,   23063,   12059,  -92770,   39002,   67671,   95809,   -1550,   12059
        50,          2450,   12331,   79745,  -92082,   46843,   65269,  -99983,  -92965,   40508,   69343,   95886,    -514,   12067,   95886,   24354,   12067,  -92965,   40508,   69343,   95886,    -517,   12067
        51,          2500,   10459,   80867,  -91331,   45391,   66640,  -99936,  -93098,   41977,   71332,   95962,     492,   12074,   95962,   25612,   12074,  -93098,   41977,   71332,   95962,     489,   12074
        52,          2550,    8583,   81961,  -90549,   43929,   67985,  -99859,  -93141,   43409,   73658,   96037,    1472,   12082,   96037,   26837,   12082,  -93141,   43409,   73658,   96037,    1469,   12082
        53,          2600,    6704,   83025,  -89734,   42457,   69302,  -99750,  -93064,   44806,   76297,   96111,    2426,   12090,   96111,   28030,   12090,  -93064,   44806,   76297,   96111,    2424,   12090
        54,          2650,    4822,   84059,  -88888,   40976,   70592,  -99609,  -92840,   46169,   79151,   96184,    3356,   12097,   96184,   29192,   12097,  -92840,   46169,   79151,   96184,    3353,   12097
        55,          2700,    2939,   85064,  -88010,   39483,   71855,  -99436,  -92457,   47498,   82050,   96257,    4261,   12105,   96257,   30323,   12105,  -92457,   47498,   82050,   96257,    4259,   12105
        56,          2750,    1055,   86039,  -87100,   37977,   73092,  -99229,  -91927,   48795,   84802,   96329,    5143,   12112,   96329,   31425,   12112,  -91927,   48795,   84802,   96329,    5140,   12112
        57,          2800,    -830,   86983,  -86160,   36455,   74304,  -98990,  -91279,   50059,   87262,   96400,    6002,   12119,   96400,   32499,   12119,  -91279,   50059,   87262,   96400,    5999,   12119
        58,          2850,   -2714,   87896,  -85189,   34919,   75493,  -98716,  -90551,   51292,   89371,   96470,    6838,   12126,   96470,   33544,   12126,  -90551,   51292,   89371,   96470,    6835,   12126
        59,          2900,   -4598,   88778,  -84188,   33366,   76656,  -98409,  -89770,   52495,   91143,   96540,    7652,   12133,   96540,   34562,   12133,  -89770,   52495,   91143,   96540,    7650,   12133
        60,          2950,   -6479,   89628,  -83157,   31800,   77794,  -98068,  -88953,   53668,   92623,   96609,    8445,   12139,   96609,   35553,   12139,  -88953,   53668,   92623,   96609,    8443,   12139
        61,          3000,   -8359,   90447,  -82096,   30220,   78905,  -97693,  -88110,   54812,   93864,   96677,    9218,   12145,   96677,   36519,   12145,  -88110,   54812,   93864,   96677,    9215,   12145
        62,          3050,  -10235,   91233,  -81007,   28627,   79988,  -97284,  -87242,   55927,   94909,   96744,    9970,   12151,   96744,   37459,   12151,  -87242,   55927,   94909,   96744,    9967,   12151
        63,          3100,  -12108,   91987,  -79888,   27022,   81043,  -96841,  -86350,   57015,   95793,   96811,   10702,   12157,   96811,   38374,   12157,  -86350,   57015,   95793,   96811,   10699,   12157
        64,          3150,  -13977,   92708,  -78741,   25407,   82070,  -96364,  -85436,   58077,   96542,   96876,   11415,   12163,   96876,   39265,   12163,  -85436,   58077,   96542,   96876,   11412,   12163
        65,          3200,  -15840,   93396,  -77566,   23780,   83068,  -95854,  -84500,   59112,   97178,   96942,   12109,   12168,   96942,   40133,   12168,  -84500,   59112,   97178,   96942,   12106,   12168
        66,          3250,  -17698,   94052,  -76364,   22142,   84037,  -95310,  -83543,   60121,   97718,   97006,   12785,   12173,   97006,   40978,   12173,  -83543,   60121,   97718,   97006,   12782,   12173
        67,          3300,  -19550,   94673,  -75134,   20494,   84979,  -94734,  -82567,   61106,   98175,   97069,   13443,   12178,   97069,   41801,   12178,  -82567,   61106,   98175,   97069,   13441,   12178
        68,          3350,  -21394,   95261,  -73878,   18836,   85892,  -94125,  -81571,   62066,   98561,   97132,   14084,   12183,   97132,   42602,   12183,  -81571,   62066,   98561,   97132,   14081,   12183
        69,          3400,  -23231,   95816,  -72595,   17168,   86777,  -93485,  -80558,   63003,   98885,   97194,   14708,   12188,   97194,   43382,   12188,  -80558,   63003,   98885,   97194,   14705,   12188
        70,          3450,  -25060,   96336,  -71287,   15490,   87635,  -92813,  -79529,   63916,   99155,   97255,   15316,   12192,   97255,   44141,   12192,  -79529,   63916,   99155,   97255,   15313,   12192
        71,          3500,  -26880,   96822,  -69953,   13802,   88466,  -92110,  -78484,   64807,   99377,   97315,   15907,   12196,   97315,   44880,   12196,  -78484,   64807,   99377,   97315,   15904,   12196
        72,          3550,  -28691,   97273,  -68594,   12105,   89270,  -91376,  -77425,   65676,   99558,   97374,   16483,   12200,   97374,   45600,   12200,  -77425,   65676,   99558,   97374,   16480,   12200
        73,          3600,  -30491,   97690,  -67211,   10400,   90047,  -90612,  -76353,   66524,   99702,   97433,   17043,   12204,   97433,   46300,   12204,  -76353,   66524,   99702,   97433,   17040,   12204
        74,          3650,  -32280,   98072,  -65805,    8686,   90798,  -89818,  -75268,   67350,   99814,   97490,   17589,   12207,   97490,   46983,   12207,  -75268,   67350,   99814,   97490,   17586,   12207
        75,          3700,  -34058,   98420,  -64374,    6964,   91522,  -88995,  -74172,   68156,   99896,   97547,   18120,   12211,   97547,   47647,   12211,  -74172,   68156,   99896,   97547,   18117,   12211
        76,          3750,  -35824,   98732,  -62921,    5234,   92219,  -88143,  -73066,   68943,   99952,   97602,   18637,   12214,   97602,   48293,   12214,  -73066,   68943,   99952,   97602,   18634,   12214
        77,          3800,  -37577,   99010,  -61446,    3498,   92890,  -87263,  -71951,   69709,   99986,   97657,   19141,   12217,   97657,   48922,   12217,  -71951,   69709,   99986,   97657,   19138,   12217
        78,          3850,  -39316,   99252,  -59949,    1755,   93534,  -86356,  -70828,   70457,   99999,   97710,   19631,   12219,   97710,   49535,   12219,  -70828,   70457,   99999,   97710,   19628,   12219
        79,          3900,  -41042,   99459,  -58430,       8,   94151,  -85420,  -69698,   71187,   99993,   97763,   20108,   12222,   97763,   50131,   12222,  -69698,   71187,   99993,   97763,   20105,   12222
        80,          3950,  -42753,   99630,  -56891,   -1745,   94741,  -84458,  -68561,   71898,   99970,   97814,   20572,   12224,   97814,   50711,   12224,  -68561,   71898,   99970,   97814,   20569,   12224
        81,          4000,  -44449,   99767,  -55331,   -3501,   95303,  -83468,  -67418,   72592,   99932,   97865,   21024,   12226,   97865,   51276,   12226,  -67418,   72592,   99932,   97865,   21021,   12226
