GTPPLOT creates from ieee13_pv_l1c1b4t1.pl4,999,1999                            
21,21A, 0D
  1,SBUS A          V-node,A, , V,  .93895149230957 , 0.0             , 0.0,-99999, 99999,1.0,1.0,P
  2,SBUS B          V-node,B, , V,  .938967406749725, 0.0             , 0.0,-99999, 99999,1.0,1.0,P
  3,SBUS C          V-node,C, , V,  .938949346542358, -.18359375      , 0.0,-99999, 99999,1.0,1.0,P
  4,SBUS A 22   A I-branch,A, , A,  .91242029157E-4 , .325063228607178, 0.0,-99999, 99999,1.0,1.0,P
  5,SBUS B 22   B I-branch,B, , A,  .982266719802E-4, .001625061035156, 0.0,-99999, 99999,1.0,1.0,P
  6,SBUS C 22   C I-branch,C, , A,  .115758914035E-3, -.04007577896118, 0.0,-99999, 99999,1.0,1.0,P
  7,TACS   PV001V I-branch,S, , A,  .001395472674631, 139.545867919922, 0.0,-99999, 99999,1.0,1.0,P
  8,TACS   PV001I I-branch,S, , A,  .110815213702E-3, 11.08141040802  , 0.0,-99999, 99999,1.0,1.0,P
  9,TACS   PV001W I-branch,S, , A,  .002324556233361, 232.453308105469, 0.0,-99999, 99999,1.0,1.0,P
 10,TACS   PV002V I-branch,S, , A,  .00255189766176 , 255.187210083008, 0.0,-99999, 99999,1.0,1.0,P
 11,TACS   PV002I I-branch,S, , A,  .272249570116E-3, 27.2246856689453, 0.0,-99999, 99999,1.0,1.0,P
 12,TACS   PV002W I-branch,S, , A,  .3915139132E-5  , 377.216491699219, 0.0,-99999, 99999,1.0,1.0,P
 13,TACS   ST001V I-branch,S, , A,  .00255189766176 , 255.187210083008, 0.0,-99999, 99999,1.0,1.0,P
 14,TACS   ST001I I-branch,S, , A,  .567186623812E-3, 56.7180938720703, 0.0,-99999, 99999,1.0,1.0,P
 15,TACS   ST001W I-branch,S, , A,  .3915139132E-5  , 377.216491699219, 0.0,-99999, 99999,1.0,1.0,P
 16,TACS   ST002V I-branch,S, , A,  .001395472674631, 139.545867919922, 0.0,-99999, 99999,1.0,1.0,P
 17,TACS   ST002I I-branch,S, , A,  .133463705424E-3, 13.3462371826172, 0.0,-99999, 99999,1.0,1.0,P
 18,TACS   ST002W I-branch,S, , A,  .002324556233361, 232.453308105469, 0.0,-99999, 99999,1.0,1.0,P
 19,TACS   ST003V I-branch,S, , A,  .00255189766176 , 255.187210083008, 0.0,-99999, 99999,1.0,1.0,P
 20,TACS   ST003I I-branch,S, , A,  .656957854517E-3, 65.6951293945313, 0.0,-99999, 99999,1.0,1.0,P
 21,TACS   ST003W I-branch,S, , A,  .924592837691E-3, 285.149658203125, 0.0,-99999, 99999,1.0,1.0,P
 50
1
     20000,  12001
18/12/2022,22:55:38.000000
18/12/2022,22:55:38.000000
ASCII 
    1.000000
         1,             0,   86604,      -8,  -86598,   99998,    1623,  -82674,  -99999,  -99999,  -99999,  -99999,  -99999,  -57573,  -99999,  -99999,  -57573,  -99999,  -99999,  -99999,  -99999,  -99999,   99331
         2,            50,   85646,    1877,  -87525,   99401,    3716,  -83979,  -99983,  -97024,   62178,   88096,  -97381,  -57573,   88096,  -97381,  -57573,  -99983,  -97529,   62178,   88096,  -98191,   99331
         3,           100,   84659,    3761,  -88421,   98713,    5807,  -85211,  -99652,  -91146,   62178,   88143,  -92210,  -57253,   88143,  -92210,  -57253,  -99652,  -92649,   62178,   88143,  -94620,   99333
         4,           150,   83641,    5644,  -89286,   97876,    7899,  -86327,  -98948,  -85414,   61984,   88280,  -87170,  -55905,   88280,  -87170,  -55905,  -98948,  -87889,   61984,   88280,  -91138,   99338
         5,           200,   82593,    7525,  -90119,   96947,    9990,  -87368,  -98231,  -79823,   61689,   88444,  -82258,  -53878,   88444,  -82258,  -53878,  -98231,  -83247,   61689,   88444,  -87746,   99347
         6,           250,   81516,    9403,  -90920,   95984,   12072,  -88376,  -97527,  -74370,   61499,   88616,  -77472,  -51898,   88616,  -77472,  -51898,  -97527,  -78719,   61499,   88616,  -84440,   99355
         7,           300,   80409,   11278,  -91689,   94988,   14141,  -89347,  -96856,  -69051,   61327,   88784,  -72808,  -49918,   88784,  -72808,  -49918,  -96856,  -74303,   61327,   88784,  -81219,   99364
         8,           350,   79275,   13148,  -92425,   93953,   16200,  -90278,  -96215,  -63864,   61162,   88949,  -68265,  -47930,   88949,  -68265,  -47930,  -96215,  -69996,   61162,   88949,  -78081,   99372
         9,           400,   78112,   15015,  -93128,   92879,   18248,  -91169,  -95605,  -58805,   61003,   89110,  -63838,  -45943,   89110,  -63838,  -45943,  -95605,  -65796,   61003,   89110,  -75024,   99381
        10,           450,   76921,   16875,  -93798,   91765,   20283,  -92018,  -95025,  -53871,   60849,   89269,  -59525,  -43963,   89269,  -59525,  -43963,  -95025,  -61699,   60849,   89269,  -72045,   99389
        11,           500,   75703,   18730,  -94435,   90608,   22307,  -92823,  -94475,  -49059,   60700,   89425,  -55323,  -41975,   89425,  -55323,  -41975,  -94475,  -57704,   60700,   89425,  -69142,   99397
        12,           550,   74458,   20578,  -95038,   89409,   24317,  -93584,  -93955,  -44366,   60555,   89578,  -51229,  -39995,   89578,  -51229,  -39995,  -93955,  -53807,   60555,   89578,  -66314,   99406
        13,           600,   73187,   22419,  -95608,   88168,   26312,  -94299,  -93464,  -39788,   60415,   89728,  -47240,  -38023,   89728,  -47240,  -38023,  -93464,  -50006,   60415,   89728,  -63559,   99414
        14,           650,   71889,   24252,  -96143,   86885,   28293,  -94969,  -93004,  -35324,   60280,   89876,  -43353,  -36051,   89876,  -43353,  -36051,  -93004,  -46299,   60280,   89876,  -60875,   99422
        15,           700,   70566,   26076,  -96645,   85563,   30256,  -95592,  -92573,  -30969,   60151,   90022,  -39567,  -34087,   90022,  -39567,  -34087,  -92573,  -42684,   60151,   90022,  -58260,   99431
        16,           750,   69218,   27891,  -97112,   84202,   32202,  -96170,  -92171,  -26723,   60026,   90165,  -35878,  -32123,   90165,  -35878,  -32123,  -92171,  -39158,   60026,   90165,  -55712,   99439
        17,           800,   67846,   29696,  -97544,   82804,   34128,  -96703,  -91799,  -22581,   59908,   90306,  -32284,  -30166,   90306,  -32284,  -30166,  -91799,  -35719,   59908,   90306,  -53229,   99447
        18,           850,   66449,   31491,  -97942,   81372,   36033,  -97191,  -91456,  -18541,   59795,   90445,  -28782,  -28210,   90445,  -28782,  -28210,  -91456,  -32364,   59795,   90445,  -50811,   99456
        19,           900,   65029,   33274,  -98305,   79909,   37915,  -97634,  -91142,  -14601,   59690,   90581,  -25371,  -26261,   90581,  -25371,  -26261,  -91142,  -29093,   59690,   90581,  -48455,   99464
        20,           950,   63585,   35046,  -98633,   78417,   39773,  -98035,  -90856,  -10759,   59591,   90715,  -22047,  -24312,   90715,  -22047,  -24312,  -90856,  -25903,   59591,   90715,  -46159,   99472
        21,          1000,   62119,   36805,  -98926,   76900,   41605,  -98394,  -90600,   -7011,   59500,   90847,  -18810,  -22364,   90847,  -18810,  -22364,  -90600,  -22791,   59500,   90847,  -43923,   99480
        22,          1050,   60631,   38551,  -99184,   75361,   43410,  -98713,  -90371,   -3356,   59417,   90977,  -15655,  -20415,   90977,  -15655,  -20415,  -90371,  -19756,   59417,   90977,  -41744,   99489
        23,          1100,   59122,   40283,  -99407,   73803,   45186,  -98992,  -90171,     209,   59342,   91104,  -12582,  -18458,   91104,  -12582,  -18458,  -90171,  -16796,   59342,   91104,  -39622,   99497
        24,          1150,   57591,   42001,  -99594,   72229,   46933,  -99233,  -89999,    3686,   59277,   91230,   -9589,  -16494,   91230,   -9589,  -16494,  -89999,  -13909,   59277,   91230,  -37554,   99505
        25,          1200,   56040,   43704,  -99746,   70643,   48648,  -99439,  -89855,    7077,   59223,   91354,   -6672,  -14530,   91354,   -6672,  -14530,  -89855,  -11094,   59223,   91354,  -35540,   99514
        26,          1250,   54469,   45392,  -99863,   69047,   50332,  -99610,  -89738,   10384,   59179,   91475,   -3831,  -12550,   91475,   -3831,  -12550,  -89738,   -8348,   59179,   91475,  -33578,   99522
        27,          1300,   52878,   47063,  -99944,   67445,   51983,  -99747,  -89648,   13610,   59148,   91594,   -1064,  -10562,   91594,   -1064,  -10562,  -89648,   -5669,   59148,   91594,  -31666,   99530
        28,          1350,   51269,   48718,  -99990,   65839,   53600,  -99854,  -89585,   16756,   59129,   91712,    1632,   -8559,   91712,    1632,   -8559,  -89585,   -3057,   59129,   91712,  -29804,   99539
        29,          1400,   49642,   50356,  -99999,   64231,   55184,  -99931,  -89549,   19824,   59125,   91827,    4259,   -6548,   91827,    4259,   -6548,  -89549,    -510,   59125,   91827,  -27990,   99547
        30,          1450,   47997,   51975,  -99974,   62624,   56733,  -99979,  -89538,   22817,   59137,   91941,    6818,   -4514,   91941,    6818,   -4514,  -89538,    1975,   59137,   91941,  -26223,   99556
        31,          1500,   46334,   53576,  -99913,   61019,   58249,  -99999,  -89554,   25736,   59167,   92052,    9310,   -2471,   92052,    9310,   -2471,  -89554,    4399,   59167,   92052,  -24501,   99565
        32,          1550,   44656,   55158,  -99816,   59418,   59730,  -99994,  -89594,   28582,   59215,   92162,   11738,    -406,   92162,   11738,    -406,  -89594,    6762,   59215,   92162,  -22825,   99573
        33,          1600,   42961,   56721,  -99684,   57822,   61177,  -99964,  -89659,   31359,   59286,   92270,   14103,    1668,   92270,   14103,    1668,  -89659,    9067,   59286,   92270,  -21191,   99582
        34,          1650,   41252,   58263,  -99517,   56231,   62591,  -99910,  -89749,   34066,   59380,   92376,   16407,    3764,   92376,   16407,    3764,  -89749,   11316,   59380,   92376,  -19600,   99591
        35,          1700,   39527,   59784,  -99314,   54647,   63971,  -99833,  -89861,   36707,   59502,   92480,   18651,    5869,   92480,   18651,    5869,  -89861,   13508,   59502,   92480,  -18050,   99600
        36,          1750,   37789,   61285,  -99076,   53069,   65319,  -99732,  -89997,   39283,   59653,   92583,   20837,    7997,   92583,   20837,    7997,  -89997,   15647,   59653,   92583,  -16540,   99609
        37,          1800,   36037,   62763,  -98803,   51497,   66634,  -99610,  -90155,   41795,   59840,   92684,   22966,   10133,   92684,   22966,   10133,  -90155,   17733,   59840,   92684,  -15069,   99618
        38,          1850,   34272,   64219,  -98494,   49931,   67918,  -99465,  -90334,   44245,   60065,   92783,   25040,   12284,   92783,   25040,   12284,  -90334,   19767,   60065,   92783,  -13637,   99627
        39,          1900,   32495,   65653,  -98151,   48371,   69171,  -99298,  -90533,   46635,   60336,   92881,   27060,   14435,   92881,   27060,   14435,  -90533,   21751,   60336,   92881,  -12242,   99636
        40,          1950,   30707,   67063,  -97772,   46814,   70394,  -99109,  -90750,   48965,   60659,   92977,   29028,   16602,   92977,   29028,   16602,  -90750,   23686,   60659,   92977,  -10883,   99645
        41,          2000,   28908,   68449,  -97359,   45262,   71588,  -98898,  -90985,   51238,   61043,   93072,   30945,   18777,   93072,   30945,   18777,  -90985,   25574,   61043,   93072,   -9559,   99655
        42,          2050,   27098,   69811,  -96912,   43711,   72752,  -98664,  -91235,   53455,   61499,   93165,   32811,   20952,   93165,   32811,   20952,  -91235,   27414,   61499,   93165,   -8269,   99664
        43,          2100,   25279,   71148,  -96430,   42163,   73888,  -98407,  -91498,   55617,   62040,   93257,   34630,   23127,   93257,   34630,   23127,  -91498,   29210,   62040,   93257,   -7013,   99673
        44,          2150,   23451,   72460,  -95913,   40615,   74995,  -98127,  -91771,   57726,   62682,   93348,   36401,   25294,   93348,   36401,   25294,  -91771,   30961,   62682,   93348,   -5790,   99682
        45,          2200,   21614,   73746,  -95363,   39066,   76074,  -97822,  -92050,   59783,   63447,   93438,   38126,   27460,   93438,   38126,   27460,  -92050,   32668,   63447,   93438,   -4599,   99691
        46,          2250,   19770,   75006,  -94779,   37517,   77125,  -97493,  -92329,   61789,   64361,   93526,   39806,   29620,   93526,   39806,   29620,  -92329,   34334,   64361,   93526,   -3439,   99700
        47,          2300,   17919,   76239,  -94161,   35967,   78146,  -97137,  -92601,   63745,   65459,   93613,   41442,   31771,   93613,   41442,   31771,  -92601,   35958,   65459,   93613,   -2309,   99710
        48,          2350,   16061,   77445,  -93510,   34416,   79137,  -96755,  -92855,   65653,   66782,   93699,   43035,   33915,   93699,   43035,   33915,  -92855,   37542,   66782,   93699,   -1208,   99719
        49,          2400,   14198,   78624,  -92825,   32864,   80095,  -96346,  -93076,   67514,   68380,   93784,   44587,   36042,   93784,   44587,   36042,  -93076,   39088,   68380,   93784,    -136,   99728
        50,          2450,   12330,   79775,  -92107,   31314,   81020,  -95908,  -93243,   69329,   70304,   93869,   46098,   38155,   93869,   46098,   38155,  -93243,   40595,   70304,   93869,     908,   99737
        51,          2500,   10457,   80897,  -91357,   29765,   81908,  -95441,  -93329,   71100,   72593,   93952,   47570,   40259,   93952,   47570,   40259,  -93329,   42064,   72593,   93952,    1924,   99746
        52,          2550,    8581,   81991,  -90574,   28217,   82759,  -94944,  -93300,   72826,   75243,   94034,   49004,   42348,   94034,   49004,   42348,  -93300,   43498,   75243,   94034,    2914,   99754
        53,          2600,    6701,   83055,  -89759,   26670,   83574,  -94415,  -93124,   74510,   78169,   94116,   50399,   44422,   94116,   50399,   44422,  -93124,   44896,   78169,   94116,    3878,   99763
        54,          2650,    4820,   84090,  -88913,   25120,   84354,  -93855,  -92782,   76152,   81193,   94197,   51759,   46487,   94197,   51759,   46487,  -92782,   46260,   81193,   94197,    4817,   99772
        55,          2700,    2936,   85095,  -88034,   23562,   85103,  -93263,  -92282,   77754,   84091,   94277,   53082,   48522,   94277,   53082,   48522,  -92282,   47590,   84091,   94277,    5731,   99781
        56,          2750,    1052,   86070,  -87125,   21992,   85824,  -92637,  -91656,   79316,   86686,   94357,   54371,   50525,   94357,   54371,   50525,  -91656,   48887,   86686,   94357,    6621,   99789
        57,          2800,    -833,   87014,  -86184,   20408,   86519,  -91979,  -90944,   80840,   88905,   94436,   55626,   52497,   94436,   55626,   52497,  -90944,   50152,   88905,   94436,    7488,   99797
        58,          2850,   -2718,   87928,  -85213,   18812,   87186,  -91286,  -90180,   82326,   90763,   94514,   56848,   54423,   94514,   56848,   54423,  -90180,   51386,   90763,   94514,    8332,   99806
        59,          2900,   -4602,   88810,  -84211,   17204,   87824,  -90560,  -89381,   83775,   92313,   94591,   58037,   56301,   94591,   58037,   56301,  -89381,   52589,   92313,   94591,    9154,   99813
        60,          2950,   -6484,   89660,  -83180,   15587,   88431,  -89801,  -88552,   85189,   93611,   94668,   59196,   58141,   94668,   59196,   58141,  -88552,   53763,   93611,   94668,    9954,   99821
        61,          3000,   -8363,   90479,  -82119,   13961,   89007,  -89008,  -87697,   86567,   94703,   94744,   60323,   59933,   94744,   60323,   59933,  -87697,   54907,   94703,   94744,   10733,   99829
        62,          3050,  -10240,   91266,  -81029,   12327,   89550,  -88181,  -86817,   87912,   95626,   94819,   61421,   61687,   94819,   61421,   61687,  -86817,   56024,   95626,   94819,   11491,   99836
        63,          3100,  -12113,   92020,  -79910,   10686,   90062,  -87322,  -85913,   89223,   96408,   94894,   62490,   63394,   94894,   62490,   63394,  -85913,   57113,   96408,   94894,   12229,   99844
        64,          3150,  -13982,   92741,  -78762,    9038,   90543,  -86431,  -84985,   90502,   97071,   94968,   63531,   65070,   94968,   63531,   65070,  -84985,   58175,   97071,   94968,   12948,   99851
        65,          3200,  -15846,   93430,  -77587,    7382,   90993,  -85508,  -84035,   91750,   97633,   95041,   64544,   66699,   95041,   64544,   66699,  -84035,   59210,   97633,   95041,   13648,   99857
        66,          3250,  -17704,   94085,  -76384,    5719,   91415,  -84555,  -83064,   92966,   98108,   95114,   65530,   68282,   95114,   65530,   68282,  -83064,   60221,   98108,   95114,   14329,   99864
        67,          3300,  -19556,   94707,  -75154,    4048,   91808,  -83571,  -82074,   94153,   98509,   95186,   66489,   69817,   95186,   66489,   69817,  -82074,   61206,   98509,   95186,   14991,   99871
        68,          3350,  -21401,   95295,  -73897,    2370,   92174,  -82559,  -81065,   95310,   98845,   95257,   67424,   71314,   95257,   67424,   71314,  -81065,   62167,   98845,   95257,   15637,   99877
        69,          3400,  -23238,   95849,  -72614,     684,   92514,  -81518,  -80039,   96439,   99124,   95328,   68333,   72764,   95328,   68333,   72764,  -80039,   63104,   99124,   95328,   16265,   99883
        70,          3450,  -25067,   96370,  -71305,   -1010,   92829,  -80451,  -78997,   97540,   99355,   95398,   69218,   74167,   95398,   69218,   74167,  -78997,   64018,   99355,   95398,   16876,   99889
        71,          3500,  -26887,   96856,  -69971,   -2712,   93120,  -79357,  -77940,   98533,   99542,   95467,   70080,   75531,   95467,   70079,   75531,  -77940,   64909,   99542,   95467,   17471,   99895
        72,          3550,  -28698,   97307,  -68612,   -4420,   93388,  -78237,  -76869,   99288,   99691,   95535,   70918,   76840,   95535,   70918,   76840,  -76869,   65779,   99691,   95535,   18050,   99900
        73,          3600,  -30498,   97724,  -67229,   -6135,   93634,  -77094,  -75786,   99766,   99806,   95602,   71734,   78111,   95602,   71734,   78111,  -75786,   66627,   99806,   95602,   18614,   99906
        74,          3650,  -32288,   98107,  -65822,   -7857,   93858,  -75927,  -74692,   99995,   99891,   95669,   72528,   79327,   95669,   72528,   79327,  -74692,   67454,   99891,   95669,   19162,   99911
        75,          3700,  -34066,   98454,  -64391,   -9584,   94061,  -74738,  -73589,   99998,   99950,   95734,   73301,   80512,   95734,   73301,   80512,  -73589,   68260,   99950,   95734,   19696,   99916
        76,          3750,  -35832,   98767,  -62937,  -11315,   94242,  -73527,  -72479,   99799,   99985,   95799,   74053,   81642,   95799,   74053,   81642,  -72479,   69047,   99985,   95799,   20215,   99921
        77,          3800,  -37585,   99044,  -61462,  -13051,   94403,  -72296,  -71362,   99417,   99999,   95863,   74785,   82733,   95863,   74785,   82733,  -71362,   69814,   99999,   95863,   20721,   99925
        78,          3850,  -39325,   99286,  -59964,  -14789,   94543,  -71044,  -70238,   98869,   99993,   95926,   75497,   83785,   95926,   75497,   83785,  -70238,   70563,   99993,   95926,   21213,   99930
        79,          3900,  -41051,   99493,  -58445,  -16528,   94661,  -69773,  -69109,   98172,   99971,   95989,   76190,   84799,   95989,   76190,   84799,  -69109,   71293,   99971,   95989,   21691,   99934
        80,          3950,  -42763,   99665,  -56905,  -18268,   94757,  -68484,  -67975,   97341,   99934,   96050,   76864,   85765,   96050,   76864,   85765,  -67975,   72005,   99934,   96050,   22157,   99938
        81,          4000,  -44459,   99801,  -55345,  -20006,   94830,  -67176,  -66837,   96389,   99883,   96111,   77520,   86701,   96111,   77520,   86701,  -66837,   72699,   99883,   96111,   22610,   99942
