GTPPLOT creates from ieee13_pv_l2c1b4t1.pl4,999,1999                            
21,21A, 0D
  1,SBUS A          V-node,A, , V,  .938907563686371, 0.0             , 0.0,-99999, 99999,1.0,1.0,P
  2,SBUS B          V-node,B, , V,  .93892514705658 , -.00390625      , 0.0,-99999, 99999,1.0,1.0,P
  3,SBUS C          V-node,C, , V,  .938895642757416, -.140625        , 0.0,-99999, 99999,1.0,1.0,P
  4,SBUS A 22   A I-branch,A, , A,  .172671556356E-3, .468166351318359, 0.0,-99999, 99999,1.0,1.0,P
  5,SBUS B 22   B I-branch,B, , A,  .185016862815E-3, .003513336181641, 0.0,-99999, 99999,1.0,1.0,P
  6,SBUS C 22   C I-branch,C, , A,  .210555459489E-3, -.00507545471191, 0.0,-99999, 99999,1.0,1.0,P
  7,TACS   PV001V I-branch,S, , A,  .001372324186377, 137.231048583984, 0.0,-99999, 99999,1.0,1.0,P
  8,TACS   PV001I I-branch,S, , A,  .111261309939E-3, 11.1260194778442, 0.0,-99999, 99999,1.0,1.0,P
  9,TACS   PV001W I-branch,S, , A,  .002319718012586, 231.969482421875, 0.0,-99999, 99999,1.0,1.0,P
 10,TACS   PV002V I-branch,S, , A,  .002501925919205, 250.190093994141, 0.0,-99999, 99999,1.0,1.0,P
 11,TACS   PV002I I-branch,S, , A,  .277619925328E-3, 27.7617149353027, 0.0,-99999, 99999,1.0,1.0,P
 12,TACS   PV002W I-branch,S, , A,  .165178039424E-5, 376.986083984375, 0.0,-99999, 99999,1.0,1.0,P
 13,TACS   ST001V I-branch,S, , A,  .002501925919205, 250.190093994141, 0.0,-99999, 99999,1.0,1.0,P
 14,TACS   ST001I I-branch,S, , A,  .578374834731E-3, 57.8369064331055, 0.0,-99999, 99999,1.0,1.0,P
 15,TACS   ST001W I-branch,S, , A,  .165178039424E-5, 376.986083984375, 0.0,-99999, 99999,1.0,1.0,P
 16,TACS   ST002V I-branch,S, , A,  .001372324186377, 137.231048583984, 0.0,-99999, 99999,1.0,1.0,P
 17,TACS   ST002I I-branch,S, , A,  .133473411552E-3, 13.3472080230713, 0.0,-99999, 99999,1.0,1.0,P
 18,TACS   ST002W I-branch,S, , A,  .002319718012586, 231.969482421875, 0.0,-99999, 99999,1.0,1.0,P
 19,TACS   ST003V I-branch,S, , A,  .002501925919205, 250.190093994141, 0.0,-99999, 99999,1.0,1.0,P
 20,TACS   ST003I I-branch,S, , A,  .658100529108E-3, 65.8093948364258, 0.0,-99999, 99999,1.0,1.0,P
 21,TACS   ST003W I-branch,S, , A,  .918769568671E-3, 285.275238037109, 0.0,-99999, 99999,1.0,1.0,P
 50
1
     20000,  12001
18/12/2022,22:55:42.000000
18/12/2022,22:55:42.000000
ASCII 
    1.000000
         1,             0,   86606,     -13,  -86596,   99999,  -24060,  -63082,  -99999,  -99999,  -99999,  -99999,  -99999,    3020,  -99999,  -99999,    3020,  -99999,  -99999,  -99999,  -99999,  -99999,   99824
         2,            50,   85648,    1872,  -87523,   99818,  -22113,  -64645,  -99983,  -97036,   62516,   91853,  -97432,    3020,   91853,  -97432,    3020,  -99983,  -97529,   62516,   91853,  -98194,   99824
         3,           100,   84660,    3756,  -88419,   99581,  -20158,  -66168,  -99647,  -91182,   62516,   91873,  -92361,    1468,   91873,  -92361,    1468,  -99647,  -92649,   62516,   91873,  -94629,   99821
         4,           150,   83643,    5639,  -89284,   99260,  -18195,  -67630,  -98939,  -85472,   62325,   91950,  -87416,     120,   91950,  -87416,     120,  -98939,  -87890,   62325,   91950,  -91152,   99819
         5,           200,   82595,    7520,  -90117,   98867,  -16226,  -69038,  -98222,  -79903,   62031,   92053,  -82596,     489,   92053,  -82596,     489,  -98222,  -83248,   62031,   92053,  -87763,   99820
         6,           250,   81518,    9398,  -90918,   98430,  -14251,  -70415,  -97513,  -74472,   61838,   92167,  -77897,     877,   92167,  -77897,     877,  -97513,  -78720,   61838,   92167,  -84460,   99820
         7,           300,   80412,   11273,  -91687,   97955,  -12275,  -71762,  -96832,  -69175,   61663,   92283,  -73318,    1376,   92283,  -73318,    1376,  -96832,  -74305,   61663,   92283,  -81240,   99821
         8,           350,   79277,   13144,  -92423,   97443,  -10297,  -73080,  -96180,  -64009,   61496,   92397,  -68855,    1967,   92397,  -68855,    1967,  -96180,  -69998,   61496,   92397,  -78102,   99822
         9,           400,   78114,   15010,  -93127,   96894,   -8319,  -74368,  -95559,  -58970,   61336,   92510,  -64505,    2688,   92510,  -64505,    2688,  -95559,  -65798,   61336,   92510,  -75044,   99824
        10,           450,   76923,   16871,  -93797,   96308,   -6341,  -75625,  -94969,  -54056,   61181,   92621,  -60266,    3519,   92621,  -60266,    3519,  -94969,  -61702,   61181,   92621,  -72063,   99825
        11,           500,   75705,   18725,  -94434,   95682,   -4363,  -76850,  -94408,  -49263,   61030,   92731,  -56134,    4443,   92731,  -56134,    4443,  -94408,  -57707,   61030,   92731,  -69158,   99827
        12,           550,   74460,   20574,  -95037,   95019,   -2387,  -78043,  -93877,  -44589,   60884,   92840,  -52107,    5478,   92840,  -52107,    5478,  -93877,  -53810,   60884,   92840,  -66327,   99829
        13,           600,   73189,   22414,  -95607,   94317,    -412,  -79202,  -93376,  -40030,   60743,   92948,  -48182,    6586,   92948,  -48182,    6586,  -93376,  -50009,   60743,   92948,  -63568,   99831
        14,           650,   71892,   24247,  -96142,   93576,    1559,  -80327,  -92905,  -35583,   60606,   93054,  -44357,    7787,   93054,  -44357,    7787,  -92905,  -46303,   60606,   93054,  -60878,   99833
        15,           700,   70569,   26072,  -96644,   92798,    3527,  -81418,  -92464,  -31246,   60475,   93159,  -40630,    9043,   93159,  -40630,    9043,  -92464,  -42688,   60475,   93159,  -58257,   99835
        16,           750,   69221,   27887,  -97111,   91983,    5490,  -82475,  -92052,  -27016,   60349,   93263,  -36997,   10374,   93263,  -36997,   10374,  -92052,  -39162,   60349,   93263,  -55703,   99837
        17,           800,   67848,   29692,  -97543,   91133,    7447,  -83497,  -91670,  -22891,   60229,   93366,  -33456,   11759,   93366,  -33456,   11759,  -91670,  -35723,   60229,   93366,  -53214,   99840
        18,           850,   66452,   31486,  -97941,   90248,    9397,  -84485,  -91316,  -18868,   60115,   93468,  -30006,   13200,   93468,  -30006,   13200,  -91316,  -32369,   60115,   93468,  -50788,   99842
        19,           900,   65031,   33270,  -98304,   89329,   11339,  -85438,  -90992,  -14944,   60007,   93569,  -26643,   14697,   93569,  -26643,   14697,  -90992,  -29098,   60007,   93569,  -48424,   99845
        20,           950,   63588,   35041,  -98633,   88379,   13272,  -86357,  -90697,  -11117,   59906,   93669,  -23367,   16249,   93669,  -23367,   16249,  -90697,  -25908,   59906,   93669,  -46120,   99848
        21,          1000,   62122,   36800,  -98926,   87398,   15195,  -87243,  -90430,   -7384,   59813,   93768,  -20173,   17838,   93768,  -20173,   17838,  -90430,  -22797,   59813,   93768,  -43875,   99851
        22,          1050,   60634,   38546,  -99184,   86388,   17107,  -88094,  -90191,   -3743,   59727,   93865,  -17061,   19464,   93865,  -17061,   19464,  -90191,  -19762,   59727,   93865,  -41687,   99854
        23,          1100,   59124,   40279,  -99407,   85351,   19006,  -88913,  -89981,    -193,   59650,   93962,  -14029,   21145,   93962,  -14029,   21145,  -89981,  -16802,   59650,   93962,  -39555,   99857
        24,          1150,   57594,   41997,  -99594,   84288,   20892,  -89698,  -89799,    3270,   59582,   94058,  -11074,   22863,   94058,  -11074,   22863,  -89799,  -13915,   59582,   94058,  -37477,   99860
        25,          1200,   56043,   43700,  -99746,   83201,   22764,  -90451,  -89645,    6648,   59524,   94153,   -8194,   24637,   94153,   -8194,   24637,  -89645,  -11100,   59524,   94153,  -35453,   99863
        26,          1250,   54472,   45388,  -99863,   82091,   24620,  -91172,  -89518,    9942,   59477,   94246,   -5388,   26429,   94246,   -5388,   26429,  -89518,   -8354,   59477,   94246,  -33480,   99866
        27,          1300,   52881,   47059,  -99944,   80960,   26461,  -91862,  -89418,   13154,   59441,   94339,   -2654,   28276,   94339,   -2654,   28276,  -89418,   -5676,   59441,   94339,  -31557,   99870
        28,          1350,   51272,   48714,  -99989,   79808,   28285,  -92521,  -89345,   16288,   59417,   94431,      11,   30161,   94431,      11,   30161,  -89345,   -3064,   59417,   94431,  -29684,   99873
        29,          1400,   49645,   50351,  -99999,   78638,   30092,  -93148,  -89299,   19344,   59408,   94521,    2607,   32101,   94521,    2607,   32101,  -89299,    -517,   59408,   94521,  -27859,   99876
        30,          1450,   48000,   51971,  -99974,   77449,   31881,  -93746,  -89279,   22324,   59414,   94611,    5137,   34059,   94611,    5137,   34059,  -89279,    1968,   59414,   94611,  -26080,   99880
        31,          1500,   46337,   53572,  -99913,   76243,   33652,  -94313,  -89284,   25231,   59436,   94699,    7602,   36073,   94699,    7602,   36073,  -89284,    4391,   59436,   94699,  -24347,   99884
        32,          1550,   44659,   55154,  -99817,   75021,   35405,  -94851,  -89315,   28067,   59477,   94787,   10004,   38105,   94787,   10004,   38105,  -89315,    6754,   59477,   94787,  -22658,   99887
        33,          1600,   42964,   56716,  -99685,   73784,   37138,  -95360,  -89370,   30832,   59538,   94873,   12344,   40175,   94873,   12344,   40175,  -89370,    9059,   59538,   94873,  -21013,   99891
        34,          1650,   41255,   58259,  -99517,   72531,   38853,  -95839,  -89450,   33529,   59622,   94959,   14624,   42281,   94959,   14624,   42281,  -89450,   11308,   59622,   94959,  -19409,   99895
        35,          1700,   39530,   59780,  -99315,   71264,   40548,  -96288,  -89553,   36159,   59731,   95043,   16846,   44406,   95043,   16846,   44406,  -89553,   13500,   59731,   95043,  -17847,   99899
        36,          1750,   37792,   61281,  -99077,   69982,   42223,  -96709,  -89680,   38724,   59868,   95126,   19011,   46549,   95126,   19011,   46549,  -89680,   15639,   59868,   95126,  -16325,   99902
        37,          1800,   36040,   62759,  -98803,   68685,   43878,  -97101,  -89828,   41227,   60037,   95209,   21120,   48729,   95209,   21120,   48729,  -89828,   17724,   60037,   95209,  -14842,   99906
        38,          1850,   34276,   64216,  -98495,   67375,   45514,  -97464,  -89998,   43667,   60243,   95290,   23175,   50909,   95290,   23175,   50909,  -89998,   19758,   60243,   95290,  -13397,   99910
        39,          1900,   32499,   65649,  -98152,   66051,   47130,  -97797,  -90188,   46047,   60490,   95371,   25177,   53089,   95371,   25177,   53089,  -90188,   21742,   60490,   95371,  -11990,   99914
        40,          1950,   30710,   67059,  -97773,   64712,   48725,  -98101,  -90397,   48368,   60785,   95450,   27128,   55269,   95450,   27128,   55269,  -90397,   23677,   60785,   95450,  -10618,   99918
        41,          2000,   28911,   68446,  -97361,   63359,   50300,  -98376,  -90624,   50632,   61135,   95529,   29028,   57449,   95529,   29028,   57449,  -90624,   25564,   61135,   95529,   -9282,   99922
        42,          2050,   27102,   69807,  -96913,   61992,   51855,  -98621,  -90866,   52840,   61550,   95607,   30880,   59629,   95607,   30880,   59629,  -90866,   27405,   61550,   95607,   -7980,   99926
        43,          2100,   25283,   71145,  -96431,   60610,   53390,  -98836,  -91122,   54993,   62039,   95684,   32684,   61773,   95684,   32684,   61773,  -91122,   29200,   62039,   95684,   -6712,   99930
        44,          2150,   23454,   72457,  -95915,   59213,   54904,  -99021,  -91389,   57094,   62618,   95760,   34441,   63916,   95760,   34441,   63916,  -91389,   30951,   62618,   95760,   -5477,   99934
        45,          2200,   21618,   73743,  -95365,   57803,   56396,  -99176,  -91664,   59142,   63304,   95835,   36153,   66022,   95835,   36153,   66022,  -91664,   32659,   63304,   95835,   -4273,   99937
        46,          2250,   19774,   75003,  -94780,   56377,   57868,  -99300,  -91941,   61140,   64118,   95910,   37821,   68091,   95910,   37821,   68091,  -91941,   34324,   64118,   95910,   -3100,   99941
        47,          2300,   17923,   76236,  -94163,   54938,   59317,  -99393,  -92215,   63089,   65087,   95983,   39445,   70124,   95983,   39445,   70124,  -92215,   35948,   65087,   95983,   -1958,   99945
        48,          2350,   16065,   77442,  -93511,   53485,   60743,  -99454,  -92477,   64989,   66244,   96056,   41028,   72119,   96056,   41028,   72119,  -92477,   37532,   66244,   96056,    -845,   99948
        49,          2400,   14202,   78621,  -92827,   52019,   62145,  -99484,  -92715,   66843,   67631,   96128,   42570,   74077,   96128,   42570,   74077,  -92715,   39078,   67631,   96128,     239,   99952
        50,          2450,   12334,   79772,  -92109,   50540,   63523,  -99482,  -92912,   68650,   69289,   96200,   44072,   75980,   96200,   44072,   75980,  -92912,   40584,   69289,   96200,    1295,   99955
        51,          2500,   10461,   80894,  -91359,   49050,   64874,  -99448,  -93049,   70414,   71262,   96271,   45535,   77846,   96271,   45535,   77846,  -93049,   42054,   71262,   96271,    2323,   99959
        52,          2550,    8584,   81988,  -90576,   47550,   66198,  -99380,  -93096,   72133,   73571,   96341,   46960,   79657,   96341,   46960,   79657,  -93096,   43488,   73571,   96341,    3325,   99962
        53,          2600,    6705,   83052,  -89762,   46039,   67494,  -99280,  -93023,   73810,   76194,   96410,   48348,   81431,   96410,   48348,   81431,  -93023,   44886,   76194,   96410,    4301,   99965
        54,          2650,    4823,   84088,  -88915,   44518,   68761,  -99147,  -92804,   75446,   79038,   96479,   49700,   83167,   96479,   49700,   83167,  -92804,   46249,   79038,   96479,    5252,   99968
        55,          2700,    2940,   85093,  -88036,   42986,   70001,  -98980,  -92426,   77041,   81935,   96547,   51016,   84849,   96547,   51016,   84849,  -92426,   47579,   81935,   96547,    6177,   99971
        56,          2750,    1055,   86068,  -87127,   41442,   71214,  -98779,  -91899,   78597,   84693,   96614,   52299,   86493,   96614,   52299,   86493,  -91899,   48876,   84693,   96614,    7079,   99974
        57,          2800,    -830,   87012,  -86186,   39883,   72402,  -98544,  -91253,   80115,   87165,   96681,   53548,   88045,   96681,   53548,   88045,  -91253,   50141,   87165,   96681,    7958,   99977
        58,          2850,   -2714,   87925,  -85215,   38309,   73565,  -98276,  -90523,   81595,   89287,   96748,   54765,   89523,   96748,   54765,   89523,  -90523,   51375,   89287,   96748,    8813,   99980
        59,          2900,   -4598,   88808,  -84214,   36721,   74702,  -97973,  -89740,   83038,   91071,   96813,   55950,   90909,   96813,   55950,   90909,  -89740,   52578,   91071,   96813,    9646,   99982
        60,          2950,   -6480,   89658,  -83182,   35119,   75814,  -97636,  -88921,   84446,   92562,   96878,   57104,   92183,   96878,   57104,   92183,  -88921,   53752,   92562,   96878,   10458,   99984
        61,          3000,   -8360,   90477,  -82121,   33504,   76899,  -97265,  -88074,   85819,   93812,   96943,   58228,   93366,   96943,   58228,   93366,  -88074,   54896,   93812,   96943,   11248,   99987
        62,          3050,  -10237,   91264,  -81031,   31878,   77957,  -96861,  -87203,   87159,   94865,   97006,   59323,   94437,   97006,   59323,   94437,  -87203,   56012,   94865,   97006,   12017,   99989
        63,          3100,  -12110,   92018,  -79912,   30240,   78987,  -96423,  -86307,   88465,   95755,   97069,   60388,   95435,   97069,   60388,   95435,  -86307,   57101,   95755,   97069,   12767,   99990
        64,          3150,  -13978,   92739,  -78765,   28591,   79989,  -95951,  -85389,   89739,   96510,   97131,   61427,   96322,   97131,   61427,   96322,  -85389,   58163,   96510,   97131,   13497,   99992
        65,          3200,  -15842,   93428,  -77590,   26931,   80963,  -95446,  -84449,   90981,   97151,   97193,   62437,   97116,   97193,   62437,   97116,  -84449,   59199,   97151,   97193,   14207,   99993
        66,          3250,  -17701,   94083,  -76387,   25261,   81910,  -94908,  -83489,   92193,   97694,   97254,   63422,   97818,   97254,   63422,   97818,  -83489,   60209,   97694,   97254,   14899,   99995
        67,          3300,  -19552,   94705,  -75157,   23581,   82829,  -94338,  -82508,   93375,   98155,   97314,   64380,   98428,   97314,   64380,   98428,  -82508,   61194,   98155,   97314,   15573,   99996
        68,          3350,  -21397,   95294,  -73900,   21889,   83722,  -93735,  -81508,   94527,   98544,   97373,   65313,   98945,   97373,   65313,   98945,  -81508,   62155,   98544,   97373,   16229,   99997
        69,          3400,  -23235,   95848,  -72617,   20188,   84588,  -93101,  -80490,   95651,   98871,   97432,   66222,   99352,   97432,   66222,   99352,  -80490,   63092,   98871,   97432,   16868,   99997
        70,          3450,  -25064,   96368,  -71309,   18476,   85427,  -92435,  -79456,   96748,   99143,   97489,   67107,   99666,   97489,   67107,   99666,  -79456,   64006,   99143,   97489,   17490,   99998
        71,          3500,  -26884,   96854,  -69974,   16754,   86241,  -91738,  -78407,   97817,   99368,   97546,   67969,   99888,   97546,   67969,   99888,  -78407,   64897,   99368,   97546,   18096,   99998
        72,          3550,  -28695,   97306,  -68615,   15023,   87029,  -91010,  -77342,   98751,   99551,   97602,   68807,   99980,   97602,   68807,   99980,  -77342,   65767,   99551,   97602,   18686,   99998
        73,          3600,  -30495,   97723,  -67232,   13281,   87792,  -90252,  -76265,   99424,   99697,   97657,   69624,   99999,   97657,   69624,   99999,  -76265,   66615,   99697,   97657,   19260,   99998
        74,          3650,  -32285,   98106,  -65825,   11530,   88529,  -89464,  -75176,   99832,   99809,   97711,   70419,   99906,   97711,   70419,   99906,  -75176,   67442,   99809,   97711,   19819,   99998
        75,          3700,  -34063,   98453,  -64394,    9771,   89241,  -88647,  -74077,   99998,   99893,   97764,   71194,   99721,   97764,   71194,   99721,  -74077,   68248,   99893,   97764,   20364,   99998
        76,          3750,  -35829,   98766,  -62941,    8002,   89927,  -87800,  -72969,   99949,   99950,   97816,   71947,   99426,   97816,   71947,   99426,  -72969,   69035,   99950,   97816,   20894,   99997
        77,          3800,  -37582,   99043,  -61465,    6226,   90589,  -86924,  -71854,   99703,   99985,   97867,   72681,   99038,   97867,   72681,   99038,  -71854,   69802,   99985,   97867,   21410,   99997
        78,          3850,  -39322,   99286,  -59967,    4443,   91224,  -86020,  -70733,   99280,   99999,   97917,   73396,   98576,   97917,   73396,   98576,  -70733,   70550,   99999,   97917,   21912,   99996
        79,          3900,  -41048,   99493,  -58448,    2653,   91834,  -85088,  -69605,   98698,   99994,   97967,   74091,   98003,   97967,   74091,   98003,  -69605,   71280,   99994,   97967,   22401,   99995
        80,          3950,  -42760,   99664,  -56909,     858,   92417,  -84128,  -68473,   97972,   99972,   98015,   74769,   97356,   98015,   74769,   97356,  -68473,   71992,   99972,   98015,   22877,   99994
        81,          4000,  -44456,   99800,  -55349,    -942,   92972,  -83141,  -67336,   97116,   99935,   98062,   75428,   96617,   98062,   75428,   96617,  -67336,   72686,   99935,   98062,   23341,   99992
