GTPPLOT creates from ieee13_pv_l3c2b2t1.pl4,999,1999                            
21,21A, 0D
  1,SBUS A          V-node,A, , V,  .938889920711517, -.33984375      , 0.0,-99999, 99999,1.0,1.0,P
  2,SBUS B          V-node,B, , V,  .938897967338562, -.62890625      , 0.0,-99999, 99999,1.0,1.0,P
  3,SBUS C          V-node,C, , V,  .938859224319458, .265625         , 0.0,-99999, 99999,1.0,1.0,P
  4,SBUS A 22   A I-branch,A, , A,  .242830938078E-3, 1.28650093078613, 0.0,-99999, 99999,1.0,1.0,P
  5,SBUS B 22   B I-branch,B, , A,  .255035789451E-3, .129179000854492, 0.0,-99999, 99999,1.0,1.0,P
  6,SBUS C 22   C I-branch,C, , A,  .291091448162E-3, -.34662914276123, 0.0,-99999, 99999,1.0,1.0,P
  7,TACS   PV001V I-branch,S, , A,  .001362551585771, 136.253799438477, 0.0,-99999, 99999,1.0,1.0,P
  8,TACS   PV001I I-branch,S, , A,  .133291789098E-3, 13.3290462493896, 0.0,-99999, 99999,1.0,1.0,P
  9,TACS   PV001W I-branch,S, , A,  .002314885146916, 231.486190795898, 0.0,-99999, 99999,1.0,1.0,P
 10,TACS   PV002V I-branch,S, , A,  .002473664004356, 247.36393737793 , 0.0,-99999, 99999,1.0,1.0,P
 11,TACS   PV002I I-branch,S, , A,  .001691598328762, 169.158142089844, 0.0,-99999, 99999,1.0,1.0,P
 12,TACS   PV002W I-branch,S, , A,  .001090106205083, 345.979797363281, 0.0,-99999, 99999,1.0,1.0,P
 13,TACS   ST001V I-branch,S, , A,  .002473664004356, 247.36393737793 , 0.0,-99999, 99999,1.0,1.0,P
 14,TACS   ST001I I-branch,S, , A,  .667912361678E-3, 66.7905654907227, 0.0,-99999, 99999,1.0,1.0,P
 15,TACS   ST001W I-branch,S, , A,  .001090106205083, 345.979797363281, 0.0,-99999, 99999,1.0,1.0,P
 16,TACS   ST002V I-branch,S, , A,  .001362551585771, 136.253799438477, 0.0,-99999, 99999,1.0,1.0,P
 17,TACS   ST002I I-branch,S, , A,  .133476976771E-3, 13.3475637435913, 0.0,-99999, 99999,1.0,1.0,P
 18,TACS   ST002W I-branch,S, , A,  .002314885146916, 231.486190795898, 0.0,-99999, 99999,1.0,1.0,P
 19,TACS   ST003V I-branch,S, , A,  .002473664004356, 247.36393737793 , 0.0,-99999, 99999,1.0,1.0,P
 20,TACS   ST003I I-branch,S, , A,  .563866109587E-3, 56.3860473632813, 0.0,-99999, 99999,1.0,1.0,P
 21,TACS   ST003W I-branch,S, , A,  .001090106205083, 345.979797363281, 0.0,-99999, 99999,1.0,1.0,P
 50
1
     20000,  12001
18/12/2022,22:55:54.000000
18/12/2022,22:55:54.000000
ASCII 
    1.000000
         1,             0,   86606,     -17,  -86593,   99998,  -36320,  -55272,  -99999,  -99999,  -99999,  -99999,  -99999,   28447,  -99999,  -99999,   28447,  -99999,  -99999,  -99999,  -99999,  -99999,   28447
         2,            50,   85648,    1868,  -87520,   99979,  -34334,  -56997,  -99983,  -97526,   62856,   94045,  -97893,   28447,   94045,  -97776,   28447,  -99983,  -97529,   62856,   94045,  -97893,   28447
         3,           100,   84660,    3752,  -88416,   99903,  -32336,  -58684,  -99646,  -92639,   62856,   94036,  -93731,   28442,   94036,  -93384,   28442,  -99646,  -92649,   62856,   94036,  -93731,   28442
         4,           150,   83643,    5635,  -89282,   99740,  -30328,  -60306,  -98938,  -87873,   62666,   94061,  -89672,   28433,   94061,  -89101,   28433,  -98938,  -87890,   62666,   94061,  -89672,   28433
         5,           200,   82595,    7516,  -90115,   99496,  -28311,  -61870,  -98225,  -83225,   62374,   94120,  -85715,   28428,   94120,  -84925,   28428,  -98225,  -83248,   62374,   94120,  -85715,   28428
         6,           250,   81518,    9394,  -90916,   99197,  -26286,  -63395,  -97518,  -78691,   62179,   94201,  -81856,   28422,   94201,  -80853,   28422,  -97518,  -78721,   62179,   94201,  -81856,   28422
         7,           300,   80412,   11269,  -91685,   98855,  -24255,  -64889,  -96834,  -74270,   62002,   94290,  -78095,   28417,   94290,  -76884,   28417,  -96834,  -74306,   62002,   94290,  -78095,   28417
         8,           350,   79277,   13140,  -92421,   98473,  -22220,  -66353,  -96178,  -69958,   61833,   94381,  -74428,   28412,   94381,  -73015,   28412,  -96178,  -69999,   61833,   94381,  -74428,   28412
         9,           400,   78115,   15006,  -93125,   98052,  -20182,  -67788,  -95552,  -65752,   61671,   94473,  -70854,   28408,   94473,  -69243,   28408,  -95552,  -65799,   61671,   94473,  -70854,   28408
        10,           450,   76924,   16867,  -93795,   97593,  -18141,  -69193,  -94955,  -61650,   61514,   94564,  -67371,   28404,   94564,  -65567,   28404,  -94955,  -61703,   61514,   94564,  -67371,   28404
        11,           500,   75706,   18722,  -94432,   97094,  -16098,  -70567,  -94388,  -57649,   61361,   94654,  -63975,   28400,   94654,  -61984,   28400,  -94388,  -57708,   61361,   94654,  -63975,   28400
        12,           550,   74461,   20570,  -95035,   96556,  -14053,  -71909,  -93851,  -53747,   61214,   94744,  -60665,   28397,   94744,  -58491,   28397,  -93851,  -53811,   61214,   94744,  -60665,   28397
        13,           600,   73190,   22411,  -95605,   95979,  -12009,  -73219,  -93343,  -49941,   61071,   94832,  -57439,   28394,   94832,  -55086,   28394,  -93343,  -50011,   61071,   94832,  -57439,   28394
        14,           650,   71893,   24244,  -96141,   95362,   -9965,  -74496,  -92865,  -46230,   60933,   94921,  -54294,   28391,   94921,  -51767,   28391,  -92865,  -46304,   60933,   94921,  -54294,   28391
        15,           700,   70570,   26068,  -96642,   94707,   -7922,  -75739,  -92416,  -42610,   60800,   95008,  -51229,   28389,   95008,  -48533,   28389,  -92416,  -42689,   60800,   95008,  -51229,   28389
        16,           750,   69222,   27883,  -97109,   94014,   -5882,  -76949,  -91997,  -39079,   60673,   95096,  -48241,   28388,   95096,  -45380,   28388,  -91997,  -39164,   60673,   95096,  -48241,   28388
        17,           800,   67850,   29688,  -97542,   93285,   -3845,  -78124,  -91607,  -35636,   60551,   95182,  -45329,   28386,   95182,  -42307,   28386,  -91607,  -35725,   60551,   95182,  -45329,   28386
        18,           850,   66453,   31483,  -97940,   92520,   -1813,  -79266,  -91245,  -32277,   60435,   95269,  -42491,   28385,   95269,  -39312,   28385,  -91245,  -32371,   60435,   95269,  -42491,   28385
        19,           900,   65033,   33266,  -98303,   91720,     214,  -80375,  -90912,  -29002,   60325,   95354,  -39724,   28384,   95354,  -36392,   28384,  -90912,  -29100,   60325,   95354,  -39724,   28384
        20,           950,   63590,   35038,  -98632,   90888,    2234,  -81450,  -90608,  -25807,   60222,   95440,  -37028,   28383,   95440,  -33547,   28383,  -90608,  -25910,   60222,   95440,  -37028,   28383
        21,          1000,   62124,   36797,  -98925,   90024,    4245,  -82492,  -90333,  -22691,   60126,   95524,  -34400,   28382,   95524,  -30774,   28382,  -90333,  -22799,   60126,   95524,  -34400,   28382
        22,          1050,   60636,   38543,  -99183,   89130,    6248,  -83501,  -90086,  -19653,   60038,   95609,  -31839,   28382,   95609,  -28071,   28382,  -90086,  -19764,   60038,   95609,  -31839,   28382
        23,          1100,   59126,   40275,  -99406,   88209,    8241,  -84478,  -89866,  -16689,   59958,   95692,  -29343,   28382,   95692,  -25437,   28382,  -89866,  -16804,   59958,   95692,  -29343,   28382
        24,          1150,   57596,   41993,  -99593,   87260,   10222,  -85423,  -89675,  -13798,   59887,   95775,  -26910,   28382,   95775,  -22870,   28382,  -89675,  -13918,   59887,   95775,  -26910,   28382
        25,          1200,   56045,   43696,  -99745,   86286,   12192,  -86337,  -89511,  -10979,   59825,   95858,  -24540,   28382,   95858,  -20368,   28382,  -89511,  -11102,   59825,   95858,  -24540,   28382
        26,          1250,   54474,   45384,  -99862,   85288,   14149,  -87219,  -89375,   -8229,   59774,   95940,  -22229,   28382,   95940,  -17930,   28382,  -89375,   -8357,   59774,   95940,  -22229,   28382
        27,          1300,   52883,   47056,  -99943,   84268,   16093,  -88070,  -89266,   -5548,   59734,   96021,  -19977,   28383,   96021,  -15554,   28383,  -89266,   -5679,   59734,   96021,  -19977,   28383
        28,          1350,   51274,   48710,  -99989,   83226,   18022,  -88892,  -89183,   -2932,   59706,   96101,  -17783,   28384,   96101,  -13238,   28384,  -89183,   -3067,   59706,   96101,  -17783,   28384
        29,          1400,   49647,   50348,  -99999,   82164,   19937,  -89683,  -89127,    -381,   59691,   96181,  -15644,   28384,   96181,  -10981,   28384,  -89127,    -519,   59691,   96181,  -15644,   28384
        30,          1450,   48002,   51968,  -99974,   81083,   21836,  -90445,  -89097,    2107,   59691,   96260,  -13560,   28386,   96260,   -8782,   28386,  -89097,    1965,   59691,   96260,  -13560,   28386
        31,          1500,   46340,   53569,  -99913,   79983,   23720,  -91178,  -89093,    4533,   59706,   96339,  -11529,   28387,   96339,   -6639,   28387,  -89093,    4388,   59706,   96339,  -11529,   28387
        32,          1550,   44661,   55151,  -99816,   78865,   25587,  -91882,  -89114,    6900,   59740,   96416,   -9550,   28388,   96416,   -4550,   28388,  -89114,    6752,   59740,   96416,   -9550,   28388
        33,          1600,   42967,   56713,  -99685,   77731,   27438,  -92557,  -89160,    9208,   59792,   96493,   -7622,   28390,   96493,   -2515,   28390,  -89160,    9057,   59792,   96493,   -7622,   28390
        34,          1650,   41257,   58256,  -99517,   76579,   29273,  -93204,  -89230,   11459,   59866,   96569,   -5742,   28391,   96569,    -532,   28391,  -89230,   11305,   59866,   96569,   -5742,   28391
        35,          1700,   39533,   59777,  -99315,   75411,   31090,  -93822,  -89323,   13655,   59964,   96644,   -3911,   28393,   96644,    1401,   28393,  -89323,   13497,   59964,   96644,   -3911,   28393
        36,          1750,   37794,   61278,  -99077,   74227,   32891,  -94412,  -89440,   15796,   60089,   96718,   -2126,   28395,   96718,    3284,   28395,  -89440,   15635,   60089,   96718,   -2126,   28395
        37,          1800,   36043,   62756,  -98803,   73027,   34674,  -94973,  -89579,   17885,   60243,   96792,    -387,   28397,   96792,    5119,   28397,  -89579,   17721,   60243,   96792,    -387,   28397
        38,          1850,   34278,   64213,  -98495,   71811,   36440,  -95505,  -89739,   19922,   60432,   96864,    1307,   28399,   96864,    6907,   28399,  -89739,   19755,   60432,   96864,    1307,   28399
        39,          1900,   32501,   65646,  -98152,   70578,   38189,  -96010,  -89920,   21908,   60659,   96936,    2958,   28401,   96936,    8650,   28401,  -89920,   21739,   60659,   96936,    2958,   28401
        40,          1950,   30713,   67056,  -97774,   69330,   39920,  -96485,  -90120,   23846,   60930,   97007,    4567,   28403,   97007,   10347,   28403,  -90120,   23674,   60930,   97007,    4567,   28403
        41,          2000,   28914,   68443,  -97361,   68066,   41634,  -96931,  -90338,   25736,   61251,   97078,    6135,   28405,   97078,   12002,   28405,  -90338,   25561,   61251,   97078,    6135,   28405
        42,          2050,   27104,   69805,  -96913,   66785,   43330,  -97349,  -90572,   27579,   61631,   97147,    7662,   28407,   97147,   13614,   28407,  -90572,   27402,   61631,   97147,    7662,   28407
        43,          2100,   25285,   71142,  -96431,   65487,   45008,  -97737,  -90820,   29376,   62078,   97216,    9151,   28409,   97216,   15184,   28409,  -90820,   29197,   62078,   97216,    9151,   28409
        44,          2150,   23457,   72454,  -95915,   64173,   46668,  -98095,  -91080,   31129,   62606,   97284,   10601,   28411,   97284,   16714,   28411,  -91080,   30947,   62606,   97284,   10601,   28411
        45,          2200,   21621,   73740,  -95365,   62843,   48310,  -98424,  -91349,   32839,   63228,   97352,   12014,   28414,   97352,   18205,   28414,  -91349,   32655,   63228,   97352,   12014,   28414
        46,          2250,   19776,   75000,  -94781,   61495,   49933,  -98722,  -91622,   34507,   63961,   97418,   13390,   28416,   97418,   19658,   28416,  -91622,   34320,   63961,   97418,   13390,   28416
        47,          2300,   17925,   76233,  -94163,   60131,   51538,  -98990,  -91895,   36133,   64830,   97484,   14731,   28418,   97484,   21073,   28418,  -91895,   35945,   64830,   97484,   14731,   28418
        48,          2350,   16068,   77440,  -93512,   58751,   53123,  -99227,  -92160,   37720,   65859,   97549,   16038,   28420,   97549,   22452,   28420,  -92160,   37529,   65859,   97549,   16038,   28420
        49,          2400,   14205,   78618,  -92827,   57355,   54688,  -99433,  -92408,   39267,   67083,   97614,   17311,   28422,   97614,   23796,   28422,  -92408,   39074,   67083,   97614,   17311,   28422
        50,          2450,   12336,   79769,  -92110,   55942,   56232,  -99608,  -92625,   40776,   68538,   97677,   18552,   28423,   97677,   25105,   28423,  -92625,   40581,   68538,   97677,   18552,   28423
        51,          2500,   10464,   80892,  -91360,   54515,   57754,  -99751,  -92795,   42248,   70262,   97740,   19760,   28425,   97740,   26380,   28425,  -92795,   42050,   70262,   97740,   19760,   28425
        52,          2550,    8587,   81985,  -90577,   53073,   59254,  -99862,  -92895,   43683,   72287,   97803,   20937,   28427,   97803,   27622,   28427,  -92895,   43484,   72287,   97803,   20937,   28427
        53,          2600,    6708,   83050,  -89762,   51617,   60729,  -99941,  -92899,   45083,   74617,   97864,   22084,   28428,   97864,   28832,   28428,  -92899,   44882,   74617,   97864,   22084,   28428
        54,          2650,    4826,   84085,  -88916,   50148,   62181,  -99986,  -92780,   46448,   77215,   97925,   23201,   28430,   97925,   30011,   28430,  -92780,   46245,   77215,   97925,   23201,   28430
        55,          2700,    2943,   85090,  -88037,   48665,   63608,  -99999,  -92517,   47780,   79976,   97985,   24290,   28431,   97985,   31160,   28431,  -92517,   47575,   79976,   97985,   24290,   28431
        56,          2750,    1058,   86065,  -87128,   47167,   65010,  -99979,  -92102,   49079,   82746,   98045,   25350,   28433,   98045,   32279,   28433,  -92102,   48872,   82746,   98045,   25350,   28433
        57,          2800,    -827,   87010,  -86187,   45656,   66389,  -99926,  -91550,   50346,   85358,   98104,   26383,   28434,   98104,   33369,   28434,  -91550,   50137,   85358,   98104,   26383,   28434
        58,          2850,   -2711,   87923,  -85216,   44128,   67744,  -99839,  -90887,   51581,   87696,   98162,   27389,   28435,   98162,   34431,   28435,  -90887,   51371,   87696,   98162,   27389,   28435
        59,          2900,   -4595,   88806,  -84215,   42585,   69075,  -99718,  -90144,   52786,   89710,   98220,   28369,   28436,   98220,   35465,   28436,  -90144,   52574,   89710,   98220,   28369,   28436
        60,          2950,   -6477,   89656,  -83184,   41027,   70383,  -99564,  -89349,   53961,   91411,   98277,   29324,   28437,   98277,   36472,   28437,  -89349,   53747,   91411,   98277,   29324,   28437
        61,          3000,   -8357,   90475,  -82123,   39454,   71666,  -99376,  -88518,   55107,   92838,   98333,   30254,   28437,   98333,   37454,   28437,  -88518,   54892,   92838,   98333,   30254,   28437
        62,          3050,  -10233,   91262,  -81033,   37866,   72924,  -99153,  -87659,   56225,   94036,   98388,   31159,   28438,   98388,   38410,   28438,  -87659,   56008,   94036,   98388,   31159,   28438
        63,          3100,  -12106,   92016,  -79914,   36265,   74156,  -98898,  -86777,   57315,   95047,   98443,   32042,   28438,   98443,   39341,   28438,  -86777,   57097,   95047,   98443,   32042,   28438
        64,          3150,  -13975,   92738,  -78767,   34651,   75362,  -98608,  -85873,   58379,   95902,   98496,   32901,   28438,   98496,   40248,   28438,  -85873,   58159,   95902,   98496,   32901,   28438
        65,          3200,  -15839,   93426,  -77591,   33025,   76542,  -98285,  -84948,   59416,   96628,   98549,   33738,   28438,   98549,   41131,   28438,  -84948,   59195,   96628,   98549,   33738,   28438
        66,          3250,  -17697,   94082,  -76388,   31386,   77695,  -97928,  -84002,   60427,   97245,   98601,   34554,   28438,   98601,   41991,   28438,  -84002,   60205,   97245,   98601,   34554,   28438
        67,          3300,  -19549,   94704,  -75159,   29735,   78822,  -97538,  -83036,   61414,   97769,   98653,   35348,   28437,   98653,   42829,   28437,  -83036,   61190,   97769,   98653,   35348,   28437
        68,          3350,  -21394,   95292,  -73902,   28072,   79922,  -97115,  -82052,   62376,   98214,   98703,   36121,   28437,   98703,   43646,   28437,  -82052,   62151,   98214,   98703,   36121,   28437
        69,          3400,  -23231,   95846,  -72619,   26398,   80995,  -96658,  -81049,   63314,   98590,   98753,   36875,   28436,   98753,   44441,   28436,  -81049,   63088,   98590,   98753,   36875,   28436
        70,          3450,  -25060,   96367,  -71310,   24713,   82042,  -96169,  -80030,   64229,   98906,   98801,   37608,   28435,   98801,   45215,   28435,  -80030,   64002,   98906,   98801,   37608,   28435
        71,          3500,  -26881,   96853,  -69976,   23017,   83061,  -95648,  -78995,   65122,   99169,   98849,   38323,   28434,   98849,   45969,   28434,  -78995,   64893,   99169,   98849,   38323,   28434
        72,          3550,  -28691,   97305,  -68617,   21310,   84055,  -95094,  -77945,   65993,   99387,   98896,   39019,   28433,   98896,   46703,   28433,  -77945,   65762,   99387,   98896,   39019,   28433
        73,          3600,  -30492,   97722,  -67234,   19593,   85021,  -94508,  -76882,   66842,   99564,   98941,   39697,   28432,   98941,   47419,   28432,  -76882,   66610,   99564,   98941,   39697,   28432
        74,          3650,  -32281,   98105,  -65827,   17866,   85961,  -93891,  -75806,   67670,   99706,   98986,   40357,   28430,   98986,   48115,   28430,  -75806,   67437,   99706,   98986,   40357,   28430
        75,          3700,  -34059,   98452,  -64396,   16129,   86874,  -93242,  -74718,   68478,   99815,   99030,   41000,   28428,   99030,   48794,   28428,  -74718,   68244,   99815,   99030,   41000,   28428
        76,          3750,  -35825,   98765,  -62943,   14382,   87760,  -92561,  -73620,   69265,   99896,   99072,   41626,   28426,   99072,   49455,   28426,  -73620,   69030,   99896,   99072,   41626,   28426
        77,          3800,  -37579,   99042,  -61467,   12628,   88618,  -91850,  -72511,   70034,   99952,   99113,   42236,   28424,   99113,   50098,   28424,  -72511,   69798,   99952,   99113,   42236,   28424
        78,          3850,  -39319,   99285,  -59970,   10865,   89450,  -91108,  -71395,   70783,   99986,   99154,   42830,   28422,   99154,   50725,   28422,  -71395,   70546,   99986,   99154,   42830,   28422
        79,          3900,  -41045,   99492,  -58451,    9094,   90253,  -90335,  -70270,   71514,   99998,   99193,   43408,   28420,   99193,   51336,   28420,  -70270,   71276,   99998,   99193,   43408,   28420
        80,          3950,  -42756,   99664,  -56911,    7317,   91029,  -89532,  -69139,   72226,   99993,   99231,   43972,   28418,   99231,   51930,   28418,  -69139,   71987,   99993,   99231,   43972,   28418
        81,          4000,  -44452,   99800,  -55351,    5534,   91776,  -88699,  -68001,   72922,   99971,   99268,   44521,   28415,   99268,   52509,   28415,  -68001,   72682,   99971,   99268,   44521,   28415
