GTPPLOT creates from ieee13_pv_l2c2b4t1.pl4,999,1999                            
21,21A, 0D
  1,SBUS A          V-node,A, , V,  .938910245895386, -.0078125       , 0.0,-99999, 99999,1.0,1.0,P
  2,SBUS B          V-node,B, , V,  .938927888870239, -.00390625      , 0.0,-99999, 99999,1.0,1.0,P
  3,SBUS C          V-node,C, , V,  .938901901245117, -.49609375      , 0.0,-99999, 99999,1.0,1.0,P
  4,SBUS A 22   A I-branch,A, , A,  .166561367223E-3, 1.07917976379395, 0.0,-99999, 99999,1.0,1.0,P
  5,SBUS B 22   B I-branch,B, , A,  .171575389686E-3, .005265235900879, 0.0,-99999, 99999,1.0,1.0,P
  6,SBUS C 22   C I-branch,C, , A,  .199213245651E-3, -.12559700012207, 0.0,-99999, 99999,1.0,1.0,P
  7,TACS   PV001V I-branch,S, , A,  .001382754417136, 138.274063110352, 0.0,-99999, 99999,1.0,1.0,P
  8,TACS   PV001I I-branch,S, , A,  .133265013574E-3, 13.3263683319092, 0.0,-99999, 99999,1.0,1.0,P
  9,TACS   PV001W I-branch,S, , A,  .002319967607036, 231.994445800781, 0.0,-99999, 99999,1.0,1.0,P
 10,TACS   PV002V I-branch,S, , A,  .002515684813261, 251.565963745117, 0.0,-99999, 99999,1.0,1.0,P
 11,TACS   PV002I I-branch,S, , A,  .001380637753755, 138.062393188477, 0.0,-99999, 99999,1.0,1.0,P
 12,TACS   PV002W I-branch,S, , A,  .269427141575E-5, 377.091613769531, 0.0,-99999, 99999,1.0,1.0,P
 13,TACS   ST001V I-branch,S, , A,  .002515684813261, 251.565963745117, 0.0,-99999, 99999,1.0,1.0,P
 14,TACS   ST001I I-branch,S, , A,  .575265730731E-3, 57.5259971618652, 0.0,-99999, 99999,1.0,1.0,P
 15,TACS   ST001W I-branch,S, , A,  .269427141575E-5, 377.091613769531, 0.0,-99999, 99999,1.0,1.0,P
 16,TACS   ST002V I-branch,S, , A,  .001382754417136, 138.274063110352, 0.0,-99999, 99999,1.0,1.0,P
 17,TACS   ST002I I-branch,S, , A,  .133467576234E-3, 13.3466243743896, 0.0,-99999, 99999,1.0,1.0,P
 18,TACS   ST002W I-branch,S, , A,  .002319967607036, 231.994445800781, 0.0,-99999, 99999,1.0,1.0,P
 19,TACS   ST003V I-branch,S, , A,  .002515684813261, 251.565963745117, 0.0,-99999, 99999,1.0,1.0,P
 20,TACS   ST003I I-branch,S, , A,  .657702446915E-3, 65.7695846557617, 0.0,-99999, 99999,1.0,1.0,P
 21,TACS   ST003W I-branch,S, , A,  .922362727579E-3, 285.125701904297, 0.0,-99999, 99999,1.0,1.0,P
 50
1
     20000,  12001
18/12/2022,22:55:52.000000
18/12/2022,22:55:52.000000
ASCII 
    1.000000
         1,             0,   86606,     -13,  -86595,   99998,  -25956,  -66068,  -99999,  -99999,  -99999,  -99999,  -99999,  -37317,  -99999,  -99999,  -37317,  -99999,  -99999,  -99999,  -99999,  -99999,   99597
         2,            50,   85648,    1872,  -87522,   99811,  -23856,  -67720,  -99983,  -97525,   62499,   90803,  -97418,  -37317,   90803,  -97418,  -37317,  -99983,  -97529,   62499,   90803,  -98193,   99597
         3,           100,   84660,    3756,  -88418,   99549,  -21749,  -69316,  -99650,  -92638,   62499,   90823,  -92319,  -38268,   90823,  -92319,  -38268,  -99650,  -92649,   62499,   90823,  -94626,   99595
         4,           150,   83643,    5639,  -89284,   99161,  -19636,  -70811,  -98947,  -87871,   62307,   90907,  -87348,  -39118,   90907,  -87348,  -39118,  -98947,  -87889,   62307,   90907,  -91147,   99592
         5,           200,   82595,    7520,  -90117,   98671,  -17517,  -72226,  -98235,  -83222,   62013,   91029,  -82502,  -38948,   91029,  -82502,  -38948,  -98235,  -83247,   62013,   91029,  -87756,   99593
         6,           250,   81518,    9398,  -90918,   98127,  -15396,  -73598,  -97531,  -78687,   61820,   91171,  -77780,  -38778,   91171,  -77780,  -38778,  -97531,  -78720,   61820,   91171,  -84452,   99593
         7,           300,   80412,   11273,  -91687,   97544,  -13276,  -74937,  -96853,  -74265,   61645,   91315,  -73177,  -38529,   91315,  -73177,  -38529,  -96853,  -74304,   61645,   91315,  -81231,   99594
         8,           350,   79277,   13144,  -92423,   96923,  -11158,  -76241,  -96206,  -69952,   61478,   91458,  -68693,  -38155,   91458,  -68693,  -38155,  -96206,  -69997,   61478,   91458,  -78093,   99595
         9,           400,   78114,   15010,  -93126,   96263,   -9044,  -77511,  -95589,  -65745,   61318,   91599,  -64323,  -37657,   91599,  -64323,  -37657,  -95589,  -65797,   61318,   91599,  -75035,   99596
        10,           450,   76924,   16871,  -93796,   95562,   -6932,  -78743,  -95002,  -61642,   61162,   91738,  -60064,  -37034,   91738,  -60064,  -37034,  -95002,  -61700,   61162,   91738,  -72056,   99598
        11,           500,   75706,   18726,  -94433,   94820,   -4825,  -79938,  -94444,  -57640,   61011,   91874,  -55915,  -36309,   91874,  -55915,  -36309,  -94444,  -57705,   61011,   91874,  -69152,   99600
        12,           550,   74461,   20574,  -95037,   94036,   -2722,  -81093,  -93917,  -53738,   60865,   92008,  -51871,  -35470,   92008,  -51871,  -35470,  -93917,  -53808,   60865,   92008,  -66323,   99603
        13,           600,   73189,   22415,  -95606,   93210,    -626,  -82208,  -93419,  -49931,   60724,   92140,  -47931,  -34542,   92140,  -47931,  -34542,  -93419,  -50007,   60724,   92140,  -63566,   99606
        14,           650,   71892,   24248,  -96142,   92343,    1464,  -83283,  -92950,  -46219,   60587,   92270,  -44091,  -33522,   92270,  -44091,  -33522,  -92950,  -46301,   60587,   92270,  -60879,   99608
        15,           700,   70569,   26072,  -96643,   91436,    3545,  -84317,  -92511,  -42598,   60456,   92398,  -40350,  -32412,   92398,  -40350,  -32412,  -92511,  -42685,   60456,   92398,  -58261,   99612
        16,           750,   69221,   27887,  -97111,   90489,    5617,  -85310,  -92101,  -39067,   60330,   92524,  -36705,  -31234,   92524,  -36705,  -31234,  -92101,  -39159,   60330,   92524,  -55711,   99615
        17,           800,   67849,   29692,  -97543,   89504,    7679,  -86262,  -91720,  -35623,   60210,   92649,  -33153,  -29977,   92649,  -33153,  -29977,  -91720,  -35720,   60210,   92649,  -53225,   99619
        18,           850,   66452,   31487,  -97941,   88484,    9728,  -87174,  -91369,  -32264,   60096,   92772,  -29692,  -28640,   92772,  -29692,  -28640,  -91369,  -32366,   60096,   92772,  -50803,   99623
        19,           900,   65032,   33270,  -98304,   87431,   11764,  -88046,  -91046,  -28987,   59988,   92894,  -26319,  -27247,   92894,  -26319,  -27247,  -91046,  -29095,   59988,   92894,  -48444,   99627
        20,           950,   63588,   35042,  -98633,   86346,   13784,  -88880,  -90751,  -25792,   59887,   93013,  -23034,  -25775,   93013,  -23034,  -25775,  -90751,  -25905,   59887,   93013,  -46144,   99631
        21,          1000,   62122,   36801,  -98926,   85232,   15789,  -89675,  -90486,  -22676,   59793,   93132,  -19832,  -24246,   93132,  -19832,  -24246,  -90486,  -22793,   59793,   93132,  -43904,   99636
        22,          1050,   60634,   38547,  -99184,   84092,   17776,  -90433,  -90248,  -19636,   59707,   93248,  -16712,  -22649,   93248,  -16712,  -22649,  -90248,  -19758,   59707,   93248,  -41721,   99640
        23,          1100,   59125,   40279,  -99407,   82929,   19743,  -91155,  -90039,  -16672,   59630,   93363,  -13673,  -20983,   93363,  -13673,  -20983,  -90039,  -16799,   59630,   93363,  -39595,   99645
        24,          1150,   57594,   41997,  -99594,   81744,   21691,  -91843,  -89857,  -13781,   59562,   93477,  -10712,  -19262,   93477,  -10712,  -19262,  -89857,  -13912,   59562,   93477,  -37522,   99650
        25,          1200,   56043,   43701,  -99746,   80541,   23618,  -92496,  -89703,  -10961,   59504,   93588,   -7827,  -17472,   93588,   -7827,  -17472,  -89703,  -11096,   59504,   93588,  -35504,   99655
        26,          1250,   54472,   45388,  -99863,   79321,   25524,  -93117,  -89577,   -8211,   59456,   93698,   -5015,  -15615,   93698,   -5015,  -15615,  -89577,   -8350,   59456,   93698,  -33537,   99661
        27,          1300,   52881,   47060,  -99944,   78087,   27406,  -93707,  -89477,   -5529,   59420,   93807,   -2277,  -13689,   93807,   -2277,  -13689,  -89477,   -5672,   59420,   93807,  -31620,   99666
        28,          1350,   51272,   48714,  -99989,   76840,   29266,  -94266,  -89405,   -2913,   59397,   93913,     392,  -11695,   93913,     392,  -11695,  -89405,   -3060,   59397,   93913,  -29753,   99672
        29,          1400,   49645,   50352,  -99999,   75583,   31102,  -94796,  -89359,    -361,   59388,   94018,    2991,   -9645,   94018,    2991,   -9645,  -89359,    -512,   59388,   94018,  -27934,   99678
        30,          1450,   48000,   51971,  -99974,   74316,   32914,  -95298,  -89339,    2127,   59393,   94122,    5524,   -7527,   94122,    5524,   -7527,  -89339,    1972,   59393,   94122,  -26162,   99684
        31,          1500,   46338,   53573,  -99913,   73042,   34702,  -95772,  -89344,    4554,   59416,   94224,    7992,   -5341,   94224,    7992,   -5341,  -89344,    4396,   59416,   94224,  -24435,   99691
        32,          1550,   44659,   55155,  -99817,   71760,   36466,  -96220,  -89375,    6921,   59457,   94324,   10396,   -3098,   94324,   10396,   -3098,  -89375,    6759,   59457,   94324,  -22753,   99697
        33,          1600,   42964,   56717,  -99685,   70473,   38206,  -96642,  -89431,    9230,   59519,   94422,   12738,    -799,   94422,   12738,    -799,  -89431,    9064,   59519,   94422,  -21114,   99704
        34,          1650,   41255,   58259,  -99517,   69180,   39922,  -97039,  -89511,   11482,   59603,   94519,   15020,    1568,   94519,   15019,    1568,  -89511,   11312,   59603,   94519,  -19518,   99711
        35,          1700,   39530,   59781,  -99314,   67882,   41614,  -97411,  -89615,   13678,   59713,   94615,   17242,    3981,   94615,   17242,    3981,  -89615,   13505,   59713,   94615,  -17962,   99718
        36,          1750,   37792,   61281,  -99076,   66579,   43282,  -97758,  -89741,   15819,   59851,   94709,   19408,    6439,   94709,   19408,    6439,  -89741,   15644,   59851,   94709,  -16447,   99725
        37,          1800,   36040,   62760,  -98803,   65270,   44928,  -98081,  -89890,   17908,   60021,   94801,   21517,    8953,   94801,   21517,    8953,  -89890,   17729,   60021,   94801,  -14971,   99733
        38,          1850,   34275,   64216,  -98495,   63956,   46550,  -98380,  -90060,   19946,   60228,   94892,   23573,   11502,   94892,   23573,   11502,  -90060,   19764,   60228,   94892,  -13533,   99740
        39,          1900,   32498,   65650,  -98151,   62636,   48150,  -98654,  -90250,   21933,   60477,   94982,   25575,   14084,   94982,   25575,   14084,  -90250,   21748,   60477,   94982,  -12132,   99748
        40,          1950,   30710,   67060,  -97773,   61310,   49728,  -98905,  -90459,   23871,   60774,   95070,   27525,   16701,   95070,   27525,   16701,  -90459,   23683,   60774,   95070,  -10767,   99755
        41,          2000,   28911,   68446,  -97360,   59976,   51285,  -99130,  -90685,   25761,   61126,   95157,   29425,   19329,   95157,   29425,   19329,  -90685,   25570,   61126,   95157,   -9438,   99763
        42,          2050,   27101,   69808,  -96913,   58634,   52820,  -99331,  -90928,   27604,   61544,   95242,   31276,   21991,   95242,   31276,   21991,  -90928,   27411,   61544,   95242,   -8143,   99771
        43,          2100,   25282,   71145,  -96431,   57284,   54335,  -99506,  -91184,   29402,   62037,   95327,   33078,   24652,   95327,   33078,   24652,  -91184,   29206,   62037,   95327,   -6881,   99778
        44,          2150,   23454,   72457,  -95914,   55925,   55828,  -99656,  -91450,   31156,   62620,   95410,   34835,   27325,   95410,   34835,   27325,  -91450,   30957,   62620,   95410,   -5652,   99786
        45,          2200,   21617,   73743,  -95364,   54555,   57301,  -99779,  -91724,   32866,   63310,   95492,   36545,   29999,   95492,   36545,   29999,  -91724,   32664,   63310,   95492,   -4455,   99794
        46,          2250,   19773,   75003,  -94780,   53176,   58752,  -99876,  -92001,   34534,   64130,   95573,   38212,   32660,   95573,   38212,   32660,  -92001,   34330,   64130,   95573,   -3289,   99802
        47,          2300,   17922,   76237,  -94162,   51785,   60183,  -99945,  -92274,   36161,   65107,   95653,   39835,   35300,   95653,   39835,   35300,  -92274,   35954,   65107,   95653,   -2154,   99810
        48,          2350,   16064,   77443,  -93511,   50384,   61591,  -99987,  -92534,   37748,   66274,   95731,   41416,   37939,   95731,   41416,   37939,  -92534,   37538,   66274,   95731,   -1047,   99817
        49,          2400,   14201,   78622,  -92826,   48971,   62977,  -99999,  -92770,   39295,   67671,   95809,   42956,   40544,   95809,   42956,   40544,  -92770,   39084,   67671,   95809,      30,   99825
        50,          2450,   12333,   79772,  -92109,   47548,   64340,  -99983,  -92965,   40804,   69343,   95886,   44456,   43138,   95886,   44456,   43138,  -92965,   40591,   69343,   95886,    1080,   99832
        51,          2500,   10460,   80895,  -91358,   46116,   65677,  -99937,  -93098,   42276,   71332,   95962,   45917,   45698,   95962,   45917,   45698,  -93098,   42060,   71332,   95962,    2102,   99840
        52,          2550,    8584,   81988,  -90576,   44673,   66989,  -99861,  -93141,   43712,   73658,   96037,   47339,   48235,   96037,   47340,   48235,  -93141,   43494,   73658,   96037,    3098,   99847
        53,          2600,    6704,   83053,  -89761,   43221,   68274,  -99753,  -93064,   45112,   76297,   96111,   48725,   50738,   96111,   48725,   50738,  -93064,   44892,   76297,   96111,    4067,   99855
        54,          2650,    4823,   84088,  -88914,   41759,   69531,  -99614,  -92840,   46478,   79151,   96184,   50075,   53207,   96184,   50075,   53207,  -92840,   46255,   79151,   96184,    5012,   99862
        55,          2700,    2939,   85093,  -88036,   40286,   70763,  -99443,  -92457,   47810,   82050,   96257,   51390,   55643,   96257,   51390,   55643,  -92457,   47585,   82050,   96257,    5932,   99869
        56,          2750,    1054,   86068,  -87126,   38800,   71969,  -99239,  -91927,   49109,   84802,   96329,   52670,   58033,   96329,   52670,   58033,  -91927,   48882,   84802,   96329,    6828,   99876
        57,          2800,    -830,   87012,  -86185,   37299,   73151,  -99002,  -91279,   50376,   87262,   96400,   53917,   60377,   96400,   53917,   60377,  -91279,   50148,   87262,   96400,    7700,   99883
        58,          2850,   -2715,   87926,  -85214,   35782,   74310,  -98732,  -90551,   51611,   89371,   96470,   55131,   62654,   96470,   55131,   62654,  -90551,   51381,   89371,   96470,    8550,   99889
        59,          2900,   -4599,   88808,  -84213,   34251,   75445,  -98429,  -89770,   52817,   91143,   96540,   56314,   64874,   96540,   56314,   64874,  -89770,   52585,   91143,   96540,    9377,   99896
        60,          2950,   -6481,   89659,  -83181,   32705,   76554,  -98092,  -88953,   53992,   92623,   96609,   57465,   67015,   96609,   57465,   67015,  -88953,   53758,   92623,   96609,   10183,   99902
        61,          3000,   -8360,   90477,  -82120,   31146,   77637,  -97722,  -88110,   55138,   93864,   96677,   58587,   69076,   96677,   58587,   69076,  -88110,   54903,   93864,   96677,   10968,   99908
        62,          3050,  -10237,   91264,  -81030,   29574,   78694,  -97317,  -87242,   56256,   94909,   96744,   59679,   71070,   96744,   59679,   71070,  -87242,   56019,   94909,   96744,   11732,   99914
        63,          3100,  -12110,   92018,  -79911,   27991,   79723,  -96880,  -86350,   57347,   95793,   96811,   60742,   72995,   96811,   60742,   72995,  -86350,   57108,   95793,   96811,   12476,   99920
        64,          3150,  -13979,   92740,  -78764,   26397,   80724,  -96409,  -85436,   58410,   96542,   96876,   61777,   74853,   96876,   61777,   74853,  -85436,   58170,   96542,   96876,   13200,   99925
        65,          3200,  -15843,   93428,  -77589,   24791,   81697,  -95905,  -84500,   59448,   97178,   96942,   62785,   76643,   96942,   62785,   76643,  -84500,   59206,   97178,   96942,   13905,   99930
        66,          3250,  -17701,   94084,  -76386,   23176,   82643,  -95369,  -83543,   60459,   97718,   97006,   63767,   78364,   97006,   63767,   78364,  -83543,   60216,   97718,   97006,   14592,   99935
        67,          3300,  -19553,   94706,  -75156,   21549,   83561,  -94800,  -82567,   61446,   98175,   97069,   64723,   80007,   97069,   64723,   80007,  -82567,   61201,   98175,   97069,   15261,   99940
        68,          3350,  -21398,   95294,  -73899,   19913,   84451,  -94199,  -81571,   62408,   98561,   97132,   65653,   81581,   97132,   65653,   81581,  -81571,   62162,   98561,   97132,   15912,   99945
        69,          3400,  -23235,   95848,  -72616,   18267,   85315,  -93566,  -80558,   63347,   98885,   97194,   66559,   83088,   97194,   66559,   83088,  -80558,   63099,   98885,   97194,   16546,   99949
        70,          3450,  -25065,   96369,  -71308,   16611,   86151,  -92902,  -79529,   64262,   99155,   97255,   67441,   84526,   97255,   67441,   84526,  -79529,   64013,   99155,   97255,   17163,   99953
        71,          3500,  -26885,   96855,  -69973,   14946,   86962,  -92208,  -78484,   65155,   99377,   97315,   68300,   85885,   97315,   68300,   85885,  -78484,   64905,   99377,   97315,   17764,   99957
        72,          3550,  -28695,   97306,  -68614,   13272,   87745,  -91483,  -77425,   66026,   99558,   97374,   69136,   87177,   97374,   69136,   87177,  -77425,   65774,   99558,   97374,   18349,   99961
        73,          3600,  -30496,   97724,  -67231,   11589,   88503,  -90729,  -76353,   66875,   99702,   97433,   69950,   88400,   97433,   69950,   88400,  -76353,   66622,   99702,   97433,   18919,   99965
        74,          3650,  -32285,   98106,  -65824,    9898,   89235,  -89945,  -75268,   67704,   99814,   97490,   70742,   89544,   97490,   70742,   89544,  -75268,   67449,   99814,   97490,   19473,   99968
        75,          3700,  -34064,   98454,  -64393,    8198,   89941,  -89132,  -74172,   68511,   99896,   97547,   71513,   90620,   97547,   71513,   90620,  -74172,   68256,   99896,   97547,   20013,   99971
        76,          3750,  -35830,   98766,  -62940,    6492,   90621,  -88291,  -73066,   69299,   99952,   97602,   72264,   91628,   97602,   72264,   91628,  -73066,   69042,   99952,   97602,   20538,   99974
        77,          3800,  -37583,   99044,  -61464,    4779,   91276,  -87422,  -71951,   70068,   99986,   97657,   72995,   92568,   97657,   72995,   92568,  -71951,   69810,   99986,   97657,   21050,   99977
        78,          3850,  -39323,   99286,  -59966,    3059,   91904,  -86526,  -70828,   70817,   99999,   97710,   73707,   93440,   97710,   73707,   93440,  -70828,   70558,   99999,   97710,   21547,   99979
        79,          3900,  -41049,   99493,  -58447,    1335,   92505,  -85602,  -69698,   71548,   99993,   97763,   74399,   94256,   97763,   74399,   94256,  -69698,   71288,   99993,   97763,   22032,   99982
        80,          3950,  -42760,   99664,  -56907,    -394,   93080,  -84652,  -68561,   72261,   99970,   97814,   75073,   95003,   97814,   75073,   95003,  -68561,   72000,   99970,   97814,   22504,   99984
        81,          4000,  -44457,   99801,  -55347,   -2127,   93628,  -83675,  -67418,   72956,   99932,   97865,   75730,   95683,   97865,   75730,   95683,  -67418,   72694,   99932,   97865,   22963,   99986
