GTPPLOT creates from ieee13_pv_l3c1b2t1.pl4,999,1999                            
21,21A, 0D
  1,SBUS A          V-node,A, , V,  .938884377479553, -.33984375      , 0.0,-99999, 99999,1.0,1.0,P
  2,SBUS B          V-node,B, , V,  .938897490501404, -.484375        , 0.0,-99999, 99999,1.0,1.0,P
  3,SBUS C          V-node,C, , V,  .938857316970825, .01953125       , 0.0,-99999, 99999,1.0,1.0,P
  4,SBUS A 22   A I-branch,A, , A,  .248568539973E-3, .71274471282959 , 0.0,-99999, 99999,1.0,1.0,P
  5,SBUS B 22   B I-branch,B, , A,  .267557159532E-3, .062755584716797, 0.0,-99999, 99999,1.0,1.0,P
  6,SBUS C 22   C I-branch,C, , A,  .301585707348E-3, -.19399070739746, 0.0,-99999, 99999,1.0,1.0,P
  7,TACS   PV001V I-branch,S, , A,  .001353732077405, 135.371856689453, 0.0,-99999, 99999,1.0,1.0,P
  8,TACS   PV001I I-branch,S, , A,  .111705398012E-3, 11.170428276062 , 0.0,-99999, 99999,1.0,1.0,P
  9,TACS   PV001W I-branch,S, , A,  .00231462251395 , 231.459945678711, 0.0,-99999, 99999,1.0,1.0,P
 10,TACS   PV002V I-branch,S, , A,  .002461063442752, 246.103881835938, 0.0,-99999, 99999,1.0,1.0,P
 11,TACS   PV002I I-branch,S, , A,  .533203128725E-3, 53.3197784423828, 0.0,-99999, 99999,1.0,1.0,P
 12,TACS   PV002W I-branch,S, , A,  .001089440891519, 354.096099853516, 0.0,-99999, 99999,1.0,1.0,P
 13,TACS   ST001V I-branch,S, , A,  .002461063442752, 246.103881835938, 0.0,-99999, 99999,1.0,1.0,P
 14,TACS   ST001I I-branch,S, , A,  .668252527248E-3, 66.8245849609375, 0.0,-99999, 99999,1.0,1.0,P
 15,TACS   ST001W I-branch,S, , A,  .001089440891519, 354.096099853516, 0.0,-99999, 99999,1.0,1.0,P
 16,TACS   ST002V I-branch,S, , A,  .001353732077405, 135.371856689453, 0.0,-99999, 99999,1.0,1.0,P
 17,TACS   ST002I I-branch,S, , A,  .133483568789E-3, 13.3482236862183, 0.0,-99999, 99999,1.0,1.0,P
 18,TACS   ST002W I-branch,S, , A,  .00231462251395 , 231.459945678711, 0.0,-99999, 99999,1.0,1.0,P
 19,TACS   ST003V I-branch,S, , A,  .002461063442752, 246.103881835938, 0.0,-99999, 99999,1.0,1.0,P
 20,TACS   ST003I I-branch,S, , A,  .668209628202E-3, 66.8202972412109, 0.0,-99999, 99999,1.0,1.0,P
 21,TACS   ST003W I-branch,S, , A,  .001089440891519, 354.096099853516, 0.0,-99999, 99999,1.0,1.0,P
 50
1
     20000,  12001
18/12/2022,22:55:44.000000
18/12/2022,22:55:44.000000
ASCII 
    1.000000
         1,             0,   86606,     -17,  -86592,   99999,  -34372,  -53855,  -99999,  -99999,  -99999,  -99999,  -99999,   21015,  -99999,  -99999,   21015,  -99999,  -99999,  -99999,  -99999,  -99999,   21015
         2,            50,   85648,    1868,  -87520,   99980,  -32479,  -55519,  -99983,  -97048,   62874,   95038,  -98663,   21015,   95038,  -97777,   21015,  -99983,  -97529,   62874,   95038,  -98222,   21015
         3,           100,   84661,    3752,  -88416,   99914,  -30573,  -57155,  -99644,  -91217,   62874,   95030,  -96022,   21009,   95030,  -93388,   21009,  -99644,  -92650,   62874,   95030,  -94710,   21009
         4,           150,   83643,    5635,  -89281,   99784,  -28657,  -58748,  -98931,  -85530,   62684,   95050,  -93447,   21001,   95050,  -89107,   21001,  -98931,  -87891,   62684,   95050,  -91285,   21001
         5,           200,   82595,    7516,  -90114,   99594,  -26731,  -60300,  -98214,  -79983,   62392,   95093,  -90935,   20995,   95093,  -84932,   20995,  -98214,  -83249,   62392,   95093,  -87945,   20995
         6,           250,   81518,    9394,  -90915,   99358,  -24796,  -61822,  -97503,  -74574,   62198,   95148,  -88487,   20990,   95148,  -80862,   20990,  -97503,  -78722,   62198,   95148,  -84688,   20990
         7,           300,   80412,   11269,  -91684,   99082,  -22854,  -63318,  -96815,  -69298,   62021,   95209,  -86099,   20985,   95209,  -76893,   20985,  -96815,  -74307,   62021,   95209,  -81513,   20985
         8,           350,   79277,   13140,  -92420,   98768,  -20906,  -64788,  -96156,  -64152,   61852,   95271,  -83772,   20980,   95271,  -73024,   20980,  -96156,  -70001,   61852,   95271,  -78418,   20980
         9,           400,   78115,   15006,  -93124,   98416,  -18952,  -66231,  -95526,  -59134,   61690,   95335,  -81503,   20975,   95335,  -69252,   20975,  -95526,  -65801,   61690,   95335,  -75400,   20975
        10,           450,   76924,   16866,  -93794,   98028,  -16993,  -67649,  -94926,  -54239,   61533,   95398,  -79290,   20971,   95398,  -65574,   20971,  -94926,  -61705,   61533,   95398,  -72458,   20971
        11,           500,   75706,   18721,  -94431,   97601,  -15031,  -69038,  -94357,  -49465,   61381,   95461,  -77133,   20967,   95461,  -61989,   20967,  -94357,  -57710,   61381,   95461,  -69589,   20967
        12,           550,   74461,   20569,  -95034,   97137,  -13065,  -70400,  -93817,  -44809,   61233,   95525,  -75031,   20964,   95525,  -58493,   20964,  -93817,  -53813,   61233,   95525,  -66793,   20964
        13,           600,   73190,   22410,  -95604,   96636,  -11096,  -71733,  -93307,  -40268,   61091,   95589,  -72981,   20960,   95589,  -55086,   20960,  -93307,  -50013,   61091,   95589,  -64066,   20960
        14,           650,   71893,   24243,  -96140,   96097,   -9126,  -73037,  -92827,  -35839,   60953,   95653,  -70982,   20957,   95653,  -51764,   20957,  -92827,  -46307,   60953,   95653,  -61408,   20957
        15,           700,   70570,   26067,  -96641,   95521,   -7154,  -74311,  -92376,  -31519,   60820,   95717,  -69034,   20954,   95717,  -48525,   20954,  -92376,  -42692,   60820,   95717,  -58817,   20954
        16,           750,   69222,   27882,  -97108,   94909,   -5183,  -75556,  -91955,  -27307,   60693,   95781,  -67135,   20951,   95781,  -45368,   20951,  -91955,  -39167,   60693,   95781,  -56291,   20951
        17,           800,   67850,   29688,  -97541,   94260,   -3212,  -76770,  -91563,  -23198,   60571,   95846,  -65283,   20949,   95846,  -42290,   20949,  -91563,  -35728,   60571,   95846,  -53829,   20949
        18,           850,   66453,   31482,  -97939,   93577,   -1242,  -77954,  -91200,  -19190,   60455,   95910,  -63478,   20947,   95910,  -39290,   20947,  -91200,  -32375,   60455,   95910,  -51429,   20947
        19,           900,   65033,   33266,  -98302,   92859,     724,  -79107,  -90867,  -15282,   60346,   95975,  -61719,   20944,   95975,  -36365,   20944,  -90867,  -29104,   60346,   95975,  -49089,   20944
        20,           950,   63589,   35037,  -98631,   92108,    2688,  -80230,  -90562,  -11470,   60243,   96040,  -60004,   20942,   96040,  -33514,   20942,  -90562,  -25914,   60243,   96040,  -46808,   20942
        21,          1000,   62124,   36796,  -98924,   91325,    4646,  -81322,  -90285,   -7752,   60147,   96105,  -58332,   20940,   96105,  -30735,   20940,  -90285,  -22802,   60147,   96105,  -44584,   20940
        22,          1050,   60636,   38542,  -99182,   90510,    6600,  -82383,  -90037,   -4126,   60059,   96170,  -56702,   20938,   96170,  -28026,   20938,  -90037,  -19768,   60059,   96170,  -42417,   20938
        23,          1100,   59126,   40275,  -99405,   89664,    8547,  -83414,  -89818,    -589,   59979,   96236,  -55113,   20937,   96236,  -25385,   20937,  -89818,  -16808,   59979,   96236,  -40304,   20937
        24,          1150,   57595,   41993,  -99592,   88789,   10487,  -84414,  -89626,    2860,   59908,   96301,  -53565,   20935,   96301,  -22811,   20935,  -89626,  -13922,   59908,   96301,  -38245,   20935
        25,          1200,   56044,   43696,  -99744,   87886,   12418,  -85383,  -89462,    6224,   59846,   96366,  -52055,   20934,   96366,  -20302,   20934,  -89462,  -11107,   59846,   96366,  -36237,   20934
        26,          1250,   54473,   45383,  -99861,   86955,   14341,  -86321,  -89325,    9505,   59795,   96431,  -50584,   20932,   96431,  -17856,   20932,  -89325,   -8361,   59795,   96431,  -34281,   20932
        27,          1300,   52883,   47055,  -99942,   85997,   16255,  -87229,  -89215,   12705,   59755,   96497,  -49150,   20931,   96497,  -15472,   20931,  -89215,   -5683,   59755,   96497,  -32373,   20931
        28,          1350,   51274,   48710,  -99988,   85013,   18157,  -88107,  -89133,   15826,   59727,   96562,  -47752,   20929,   96562,  -13149,   20929,  -89133,   -3072,   59727,   96562,  -30514,   20929
        29,          1400,   49647,   50347,  -99998,   84005,   20049,  -88954,  -89077,   18869,   59712,   96627,  -46390,   20928,   96627,  -10884,   20928,  -89077,    -524,   59712,   96627,  -28703,   20928
        30,          1450,   48002,   51967,  -99973,   82972,   21929,  -89770,  -89046,   21838,   59712,   96691,  -45062,   20927,   96691,   -8677,   20927,  -89046,    1960,   59712,   96691,  -26937,   20927
        31,          1500,   46340,   53568,  -99912,   81915,   23797,  -90556,  -89042,   24734,   59728,   96756,  -43768,   20926,   96756,   -6525,   20926,  -89042,    4383,   59728,   96756,  -25215,   20926
        32,          1550,   44661,   55150,  -99815,   80835,   25652,  -91312,  -89063,   27558,   59761,   96820,  -42507,   20925,   96820,   -4429,   20925,  -89063,    6746,   59761,   96820,  -23538,   20925
        33,          1600,   42967,   56712,  -99684,   79732,   27494,  -92037,  -89108,   30312,   59813,   96884,  -41277,   20924,   96884,   -2385,   20924,  -89108,    9051,   59813,   96884,  -21903,   20924
        34,          1650,   41257,   58255,  -99516,   78607,   29322,  -92731,  -89178,   32998,   59887,   96948,  -40079,   20923,   96948,    -393,   20923,  -89178,   11299,   59887,   96948,  -20310,   20923
        35,          1700,   39533,   59776,  -99314,   77460,   31136,  -93395,  -89272,   35618,   59984,   97012,  -38911,   20922,   97012,    1548,   20922,  -89272,   13491,   59984,   97012,  -18757,   20922
        36,          1750,   37795,   61277,  -99076,   76292,   32935,  -94029,  -89388,   38173,   60108,   97075,  -37773,   20921,   97075,    3439,   20921,  -89388,   15630,   60108,   97075,  -17243,   20921
        37,          1800,   36043,   62755,  -98803,   75102,   34719,  -94631,  -89527,   40665,   60262,   97138,  -36664,   20920,   97138,    5283,   20920,  -89527,   17715,   60262,   97138,  -15768,   20920
        38,          1850,   34278,   64212,  -98494,   73892,   36488,  -95202,  -89687,   43096,   60449,   97201,  -35583,   20919,   97201,    7080,   20919,  -89687,   19749,   60449,   97201,  -14331,   20919
        39,          1900,   32502,   65645,  -98151,   72661,   38241,  -95743,  -89868,   45466,   60675,   97263,  -34530,   20918,   97263,    8831,   20918,  -89868,   21733,   60675,   97263,  -12930,   20918
        40,          1950,   30713,   67055,  -97773,   71409,   39978,  -96252,  -90067,   47778,   60944,   97325,  -33504,   20917,   97325,   10537,   20917,  -90067,   23668,   60944,   97325,  -11565,   20917
        41,          2000,   28914,   68442,  -97360,   70136,   41698,  -96729,  -90285,   50033,   61264,   97387,  -32503,   20916,   97387,   12200,   20916,  -90285,   25555,   61264,   97387,  -10234,   20916
        42,          2050,   27105,   69804,  -96913,   68844,   43401,  -97175,  -90519,   52232,   61641,   97448,  -31529,   20915,   97448,   13820,   20915,  -90519,   27395,   61641,   97448,   -8938,   20915
        43,          2100,   25286,   71141,  -96431,   67531,   45088,  -97589,  -90768,   54377,   62086,   97508,  -30579,   20914,   97508,   15399,   20914,  -90768,   29190,   62086,   97508,   -7675,   20914
        44,          2150,   23458,   72453,  -95915,   66198,   46756,  -97971,  -91028,   56469,   62611,   97569,  -29653,   20913,   97569,   16938,   20913,  -91028,   30941,   62611,   97569,   -6444,   20913
        45,          2200,   21621,   73739,  -95365,   64846,   48407,  -98321,  -91297,   58510,   63228,   97629,  -28751,   20912,   97629,   18437,   20912,  -91297,   32648,   63228,   97629,   -5244,   20912
        46,          2250,   19777,   74999,  -94780,   63474,   50039,  -98638,  -91571,   60500,   63958,   97688,  -27872,   20911,   97688,   19898,   20911,  -91571,   34314,   63958,   97688,   -4075,   20911
        47,          2300,   17926,   76232,  -94163,   62084,   51652,  -98923,  -91844,   62440,   64820,   97747,  -27016,   20909,   97747,   21322,   20909,  -91844,   35938,   64820,   97747,   -2936,   20909
        48,          2350,   16068,   77439,  -93511,   60674,   53245,  -99175,  -92110,   64333,   65843,   97806,  -26181,   20908,   97806,   22709,   20908,  -92110,   37522,   65843,   97806,   -1826,   20908
        49,          2400,   14205,   78617,  -92827,   59247,   54817,  -99394,  -92359,   66179,   67058,   97864,  -25368,   20906,   97864,   24061,   20906,  -92359,   39067,   67058,   97864,    -745,   20906
        50,          2450,   12337,   79768,  -92110,   57803,   56368,  -99579,  -92578,   67980,   68502,   97922,  -24576,   20905,   97922,   25378,   20905,  -92578,   40574,   68502,   97922,     309,   20905
        51,          2500,   10464,   80891,  -91360,   56342,   57897,  -99731,  -92750,   69736,   70214,   97979,  -23804,   20903,   97979,   26661,   20903,  -92750,   42043,   70214,   97979,    1335,   20903
        52,          2550,    8588,   81984,  -90577,   54865,   59402,  -99849,  -92853,   71449,   72224,   98035,  -23052,   20901,   98035,   27911,   20901,  -92853,   43477,   72224,   98035,    2335,   20901
        53,          2600,    6709,   83049,  -89762,   53373,   60883,  -99933,  -92861,   73119,   74541,   98092,  -22319,   20899,   98092,   29129,   20899,  -92861,   44875,   74541,   98092,    3310,   20899
        54,          2650,    4827,   84084,  -88915,   51867,   62338,  -99983,  -92746,   74749,   77126,   98147,  -21605,   20897,   98147,   30316,   20897,  -92746,   46238,   77126,   98147,    4260,   20897
        55,          2700,    2943,   85089,  -88037,   50347,   63769,  -99999,  -92487,   76338,   79879,   98202,  -20910,   20895,   98202,   31472,   20895,  -92487,   47568,   79879,   98202,    5185,   20895
        56,          2750,    1059,   86065,  -87128,   48812,   65174,  -99981,  -92077,   77887,   82647,   98257,  -20232,   20893,   98257,   32599,   20893,  -92077,   48865,   82647,   98257,    6086,   20893
        57,          2800,    -826,   87009,  -86187,   47262,   66555,  -99928,  -91528,   79399,   85265,   98311,  -19572,   20891,   98311,   33696,   20891,  -91528,   50130,   85265,   98311,    6964,   20891
        58,          2850,   -2711,   87922,  -85216,   45696,   67911,  -99841,  -90866,   80873,   87611,   98365,  -18928,   20888,   98365,   34765,   20888,  -90866,   51363,   87611,   98365,    7819,   20888
        59,          2900,   -4594,   88805,  -84215,   44115,   69243,  -99719,  -90124,   82311,   89636,   98418,  -18302,   20886,   98418,   35807,   20886,  -90124,   52566,   89636,   98418,    8653,   20886
        60,          2950,   -6476,   89655,  -83183,   42517,   70550,  -99563,  -89327,   83713,   91347,   98471,  -17691,   20883,   98471,   36822,   20883,  -89327,   53740,   91347,   98471,    9465,   20883
        61,          3000,   -8356,   90474,  -82123,   40905,   71833,  -99371,  -88494,   85081,   92783,   98522,  -17097,   20881,   98522,   37810,   20881,  -88494,   54884,   92783,   98522,   10255,   20881
        62,          3050,  -10233,   91261,  -81032,   39278,   73090,  -99146,  -87633,   86415,   93990,   98574,  -16517,   20878,   98574,   38773,   20878,  -87633,   56001,   93990,   98574,   11026,   20878
        63,          3100,  -12106,   92015,  -79914,   37637,   74321,  -98885,  -86748,   87715,   95007,   98624,  -15953,   20875,   98624,   39712,   20875,  -86748,   57089,   95007,   98624,   11776,   20875
        64,          3150,  -13975,   92737,  -78766,   35983,   75525,  -98591,  -85841,   88984,   95867,   98674,  -15403,   20871,   98674,   40625,   20871,  -85841,   58151,   95867,   98674,   12508,   20871
        65,          3200,  -15838,   93425,  -77591,   34316,   76703,  -98262,  -84913,   90222,   96598,   98723,  -14868,   20868,   98723,   41516,   20868,  -84913,   59187,   96598,   98723,   13220,   20868
        66,          3250,  -17697,   94081,  -76388,   32637,   77854,  -97899,  -83964,   91429,   97219,   98771,  -14346,   20864,   98771,   42383,   20864,  -83964,   60197,   97219,   98771,   13914,   20864
        67,          3300,  -19549,   94703,  -75159,   30945,   78978,  -97502,  -82996,   92606,   97747,   98819,  -13838,   20861,   98819,   43227,   20861,  -82996,   61182,   97747,   98819,   14589,   20861
        68,          3350,  -21393,   95291,  -73902,   29242,   80076,  -97071,  -82008,   93754,   98195,   98865,  -13343,   20857,   98865,   44050,   20857,  -82008,   62143,   98195,   98865,   15248,   20857
        69,          3400,  -23231,   95846,  -72619,   27526,   81146,  -96607,  -81003,   94874,   98574,   98911,  -12861,   20853,   98911,   44852,   20853,  -81003,   63080,   98574,   98911,   15889,   20853
        70,          3450,  -25060,   96366,  -71310,   25799,   82190,  -96110,  -79980,   95966,   98893,   98956,  -12391,   20849,   98956,   45632,   20849,  -79980,   63994,   98893,   98956,   16514,   20849
        71,          3500,  -26880,   96852,  -69976,   24061,   83207,  -95579,  -78941,   97031,   99158,   99000,  -11934,   20845,   99000,   46393,   20845,  -78941,   64885,   99158,   99000,   17122,   20845
        72,          3550,  -28691,   97304,  -68617,   22311,   84198,  -95016,  -77888,   98070,   99378,   99043,  -11488,   20841,   99043,   47134,   20841,  -77888,   65754,   99378,   99043,   17715,   20841
        73,          3600,  -30491,   97721,  -67234,   20551,   85162,  -94420,  -76821,   98949,   99557,   99085,  -11054,   20836,   99085,   47855,   20836,  -76821,   66602,   99557,   99085,   18292,   20836
        74,          3650,  -32281,   98104,  -65827,   18780,   86099,  -93792,  -75741,   99547,   99700,   99126,  -10631,   20831,   99126,   48558,   20831,  -75741,   67429,   99700,   99126,   18854,   20831
        75,          3700,  -34059,   98452,  -64397,   16999,   87009,  -93132,  -74650,   99888,   99811,   99166,  -10219,   20827,   99166,   49242,   20827,  -74650,   68235,   99811,   99166,   19402,   20827
        76,          3750,  -35825,   98764,  -62943,   15209,   87892,  -92440,  -73549,   99999,   99894,   99205,   -9818,   20822,   99205,   49909,   20822,  -73549,   69022,   99894,   99205,   19935,   20822
        77,          3800,  -37578,   99042,  -61467,   13410,   88749,  -91717,  -72440,   99899,   99950,   99243,   -9428,   20817,   99243,   50559,   20817,  -72440,   69789,   99950,   99243,   20455,   20817
        78,          3850,  -39318,   99284,  -59970,   11602,   89578,  -90962,  -71324,   99611,   99985,   99280,   -9047,   20812,   99280,   51191,   20812,  -71324,   70537,   99985,   99280,   20961,   20812
        79,          3900,  -41044,   99491,  -58451,    9786,   90379,  -90176,  -70202,   99152,   99999,   99316,   -8676,   20806,   99316,   51807,   20806,  -70202,   71267,   99999,   99316,   21454,   20806
        80,          3950,  -42755,   99663,  -56911,    7963,   91152,  -89360,  -69075,   98539,   99994,   99350,   -8315,   20801,   99350,   52408,   20801,  -69075,   71979,   99994,   99350,   21934,   20801
        81,          4000,  -44452,   99799,  -55351,    6134,   91896,  -88512,  -67943,   97786,   99973,   99384,   -7964,   20796,   99384,   52992,   20796,  -67943,   72673,   99973,   99384,   22402,   20796
