GTPPLOT creates from ieee13_pv_l1c1b1t1.pl4,999,1999                            
21,21A, 0D
  1,SBUS A          V-node,A, , V,  .93909227848053 , .3046875        , 0.0,-99999, 99999,1.0,1.0,P
  2,SBUS B          V-node,B, , V,  .938994646072388, -.40234375      , 0.0,-99999, 99999,1.0,1.0,P
  3,SBUS C          V-node,C, , V,  .939110577106476, -.31640625      , 0.0,-99999, 99999,1.0,1.0,P
  4,SBUS A 22   A I-branch,A, , A,  .886641573743E-4, .582848072052002, 0.0,-99999, 99999,1.0,1.0,P
  5,SBUS B 22   B I-branch,B, , A,  .929295856622E-4, .030890464782715, 0.0,-99999, 99999,1.0,1.0,P
  6,SBUS C 22   C I-branch,C, , A,  .113027475891E-3, -.31321668624878, 0.0,-99999, 99999,1.0,1.0,P
  7,TACS   PV001V I-branch,S, , A,  .001395472674631, 139.545867919922, 0.0,-99999, 99999,1.0,1.0,P
  8,TACS   PV001I I-branch,S, , A,  .133544861455E-3, 13.3543519973755, 0.0,-99999, 99999,1.0,1.0,P
  9,TACS   PV001W I-branch,S, , A,  .002324556233361, 232.453308105469, 0.0,-99999, 99999,1.0,1.0,P
 10,TACS   PV002V I-branch,S, , A,  .00255189766176 , 255.187210083008, 0.0,-99999, 99999,1.0,1.0,P
 11,TACS   PV002I I-branch,S, , A,  .001134648220614, 113.463684082031, 0.0,-99999, 99999,1.0,1.0,P
 12,TACS   PV002W I-branch,S, , A,  .605832028668E-3, 377.171752929688, 0.0,-99999, 99999,1.0,1.0,P
 13,TACS   ST001V I-branch,S, , A,  .00255189766176 , 255.187210083008, 0.0,-99999, 99999,1.0,1.0,P
 14,TACS   ST001I I-branch,S, , A,  .668256659992E-3, 66.8249969482422, 0.0,-99999, 99999,1.0,1.0,P
 15,TACS   ST001W I-branch,S, , A,  .605832028668E-3, 377.171752929688, 0.0,-99999, 99999,1.0,1.0,P
 16,TACS   ST002V I-branch,S, , A,  .001395472674631, 139.545867919922, 0.0,-99999, 99999,1.0,1.0,P
 17,TACS   ST002I I-branch,S, , A,  .133546331199E-3, 13.3544998168945, 0.0,-99999, 99999,1.0,1.0,P
 18,TACS   ST002W I-branch,S, , A,  .002324556233361, 232.453308105469, 0.0,-99999, 99999,1.0,1.0,P
 19,TACS   ST003V I-branch,S, , A,  .00255189766176 , 255.187210083008, 0.0,-99999, 99999,1.0,1.0,P
 20,TACS   ST003I I-branch,S, , A,  .668256659992E-3, 66.8249969482422, 0.0,-99999, 99999,1.0,1.0,P
 21,TACS   ST003W I-branch,S, , A,  .605832028668E-3, 377.171752929688, 0.0,-99999, 99999,1.0,1.0,P
 50
1
     20000,  12001
18/12/2022,22:55:37.000000
18/12/2022,22:55:37.000000
ASCII 
    1.000000
         1,             0,   86591,      -8,  -86583,   99998,    1401,  -82256,  -99999,  -99999,  -99999,  -99999,  -99999,    -299,  -99999,  -99999,    -299,  -99999,  -99999,  -99999,  -99999,  -99999,    -299
         2,            50,   85633,    1877,  -87510,   99384,    3612,  -83591,  -99983,  -97530,   62178,   88096,  -99371,    -299,   88096,  -97777,    -299,  -99983,  -97530,   62178,   88096,  -98222,    -299
         3,           100,   84646,    3761,  -88406,   98675,    5823,  -84853,  -99652,  -92653,   62178,   88143,  -98131,    -297,   88143,  -93389,    -297,  -99652,  -92653,   62178,   88143,  -94711,    -297
         4,           150,   83628,    5644,  -89271,   97815,    8035,  -85997,  -98948,  -87896,   61984,   88280,  -96921,    -288,   88280,  -89110,    -288,  -98948,  -87896,   61984,   88280,  -91288,    -288
         5,           200,   82580,    7525,  -90104,   96858,   10245,  -87063,  -98231,  -83257,   61689,   88444,  -95743,    -275,   88444,  -84941,    -275,  -98231,  -83257,   61689,   88444,  -87953,    -275
         6,           250,   81503,    9403,  -90904,   95867,   12445,  -88095,  -97527,  -78732,   61499,   88616,  -94594,    -262,   88616,  -80879,    -262,  -97527,  -78732,   61499,   88616,  -84703,    -262
         7,           300,   80397,   11278,  -91673,   94842,   14632,  -89089,  -96856,  -74319,   61327,   88784,  -93475,    -249,   88784,  -76921,    -249,  -96856,  -74319,   61327,   88784,  -81537,    -249
         8,           350,   79262,   13148,  -92409,   93777,   16809,  -90043,  -96215,  -70015,   61162,   88949,  -92385,    -236,   88949,  -73065,    -236,  -96215,  -70015,   61162,   88949,  -78452,    -236
         9,           400,   78100,   15015,  -93112,   92672,   18973,  -90956,  -95605,  -65817,   61003,   89110,  -91323,    -224,   89110,  -69307,    -224,  -95605,  -65817,   61003,   89110,  -75446,    -224
        10,           450,   76909,   16875,  -93782,   91525,   21125,  -91825,  -95025,  -61722,   60849,   89269,  -90288,    -211,   89269,  -65647,    -211,  -95025,  -61723,   60849,   89269,  -72517,    -211
        11,           500,   75691,   18730,  -94419,   90335,   23263,  -92650,  -94475,  -57729,   60700,   89425,  -89280,    -198,   89425,  -62080,    -198,  -94475,  -57730,   60700,   89425,  -69664,    -198
        12,           550,   74447,   20578,  -95022,   89101,   25388,  -93429,  -93955,  -53835,   60555,   89578,  -88297,    -185,   89578,  -58605,    -185,  -93955,  -53835,   60555,   89578,  -66884,    -185
        13,           600,   73175,   22419,  -95591,   87824,   27497,  -94161,  -93464,  -50036,   60415,   89728,  -87340,    -172,   89728,  -55219,    -172,  -93464,  -50037,   60415,   89728,  -64175,    -172
        14,           650,   71878,   24252,  -96127,   86504,   29590,  -94847,  -93004,  -46332,   60280,   89876,  -86408,    -160,   89876,  -51921,    -160,  -93004,  -46332,   60280,   89876,  -61536,    -160
        15,           700,   70556,   26076,  -96628,   85143,   31666,  -95486,  -92573,  -42718,   60151,   90022,  -85499,    -147,   90022,  -48707,    -147,  -92573,  -42719,   60151,   90022,  -58965,    -147
        16,           750,   69208,   27891,  -97095,   83742,   33722,  -96078,  -92171,  -39195,   60026,   90165,  -84614,    -134,   90165,  -45576,    -134,  -92171,  -39195,   60026,   90165,  -56461,    -134
        17,           800,   67835,   29696,  -97527,   82304,   35758,  -96623,  -91799,  -35758,   59908,   90306,  -83752,    -122,   90306,  -42525,    -122,  -91799,  -35758,   59908,   90306,  -54020,    -122
        18,           850,   66439,   31490,  -97925,   80831,   37772,  -97123,  -91456,  -32406,   59795,   90445,  -82911,    -109,   90445,  -39553,    -109,  -91456,  -32406,   59795,   90445,  -51643,    -109
        19,           900,   65019,   33274,  -98288,   79325,   39761,  -97577,  -91142,  -29136,   59690,   90581,  -82093,     -96,   90581,  -36658,     -96,  -91142,  -29137,   59690,   90581,  -49326,     -96
        20,           950,   63576,   35045,  -98616,   77790,   41725,  -97988,  -90856,  -25948,   59591,   90715,  -81296,     -84,   90715,  -33837,     -84,  -90856,  -25949,   59591,   90715,  -47070,     -84
        21,          1000,   62110,   36804,  -98909,   76229,   43661,  -98355,  -90600,  -22838,   59500,   90847,  -80519,     -71,   90847,  -31089,     -71,  -90600,  -22839,   59500,   90847,  -44871,     -71
        22,          1050,   60622,   38550,  -99167,   74645,   45569,  -98681,  -90371,  -19805,   59417,   90977,  -79762,     -59,   90977,  -28412,     -59,  -90371,  -19806,   59417,   90977,  -42729,     -59
        23,          1100,   59112,   40283,  -99390,   73041,   47447,  -98967,  -90171,  -16847,   59342,   91104,  -79024,     -46,   91104,  -25804,     -46,  -90171,  -16848,   59342,   91104,  -40643,     -46
        24,          1150,   57582,   42001,  -99577,   71422,   49293,  -99215,  -89999,  -13962,   59277,   91230,  -78306,     -33,   91230,  -23263,     -33,  -89999,  -13962,   59277,   91230,  -38610,     -33
        25,          1200,   56031,   43704,  -99729,   69789,   51106,  -99425,  -89855,  -11148,   59223,   91354,  -77606,     -21,   91354,  -20788,     -21,  -89855,  -11149,   59223,   91354,  -36630,     -21
        26,          1250,   54460,   45391,  -99846,   68147,   52886,  -99600,  -89738,   -8403,   59179,   91475,  -76925,      -8,   91475,  -18376,      -8,  -89738,   -8404,   59179,   91475,  -34701,      -8
        27,          1300,   52870,   47062,  -99927,   66498,   54631,  -99741,  -89648,   -5727,   59148,   91594,  -76261,       5,   91594,  -16027,       5,  -89648,   -5728,   59148,   91594,  -32822,       5
        28,          1350,   51261,   48717,  -99972,   64846,   56340,  -99850,  -89585,   -3116,   59129,   91712,  -75614,      18,   91712,  -13739,      18,  -89585,   -3117,   59129,   91712,  -30991,      18
        29,          1400,   49634,   50354,  -99982,   63191,   58014,  -99929,  -89549,    -570,   59125,   91827,  -74984,      31,   91827,  -11510,      31,  -89549,    -571,   59125,   91827,  -29208,      31
        30,          1450,   47989,   51974,  -99957,   61537,   59652,  -99978,  -89538,    1913,   59137,   91941,  -74370,      44,   91941,   -9338,      44,  -89538,    1912,   59137,   91941,  -27470,      44
        31,          1500,   46327,   53575,  -99896,   59886,   61254,  -99999,  -89554,    4335,   59167,   92052,  -73772,      57,   92052,   -7223,      57,  -89554,    4334,   59167,   92052,  -25778,      57
        32,          1550,   44649,   55157,  -99799,   58238,   62820,  -99994,  -89594,    6697,   59215,   92162,  -73189,      71,   92162,   -5162,      71,  -89594,    6696,   59215,   92162,  -24129,      71
        33,          1600,   42955,   56719,  -99667,   56595,   64350,  -99963,  -89659,    9001,   59286,   92270,  -72622,      84,   92270,   -3155,      84,  -89659,    9000,   59286,   92270,  -22524,      84
        34,          1650,   41245,   58262,  -99500,   54959,   65844,  -99908,  -89749,   11248,   59380,   92376,  -72069,      98,   92376,   -1199,      98,  -89749,   11247,   59380,   92376,  -20959,      98
        35,          1700,   39521,   59783,  -99297,   53328,   67303,  -99829,  -89861,   13439,   59502,   92480,  -71530,     111,   92480,     706,     111,  -89861,   13438,   59502,   92480,  -19435,     111
        36,          1750,   37783,   61283,  -99059,   51704,   68727,  -99726,  -89997,   15577,   59653,   92583,  -71006,     125,   92583,    2561,     125,  -89997,   15575,   59653,   92583,  -17951,     125
        37,          1800,   36031,   62762,  -98785,   50087,   70118,  -99600,  -90155,   17661,   59840,   92684,  -70495,     139,   92684,    4368,     139,  -90155,   17660,   59840,   92684,  -16505,     139
        38,          1850,   34267,   64218,  -98477,   48476,   71475,  -99452,  -90334,   19694,   60065,   92783,  -69997,     153,   92783,    6128,     153,  -90334,   19693,   60065,   92783,  -15097,     153
        39,          1900,   32490,   65651,  -98134,   46869,   72799,  -99281,  -90533,   21677,   60336,   92881,  -69513,     167,   92881,    7843,     167,  -90533,   21676,   60336,   92881,  -13725,     167
        40,          1950,   30702,   67061,  -97756,   45268,   74092,  -99088,  -90750,   23611,   60659,   92977,  -69040,     181,   92977,    9513,     181,  -90750,   23610,   60659,   92977,  -12389,     181
        41,          2000,   28903,   68448,  -97343,   43670,   75353,  -98871,  -90985,   25497,   61043,   93072,  -68581,     195,   93072,   11140,     195,  -90985,   25496,   61043,   93072,  -11088,     195
        42,          2050,   27094,   69809,  -96895,   42075,   76584,  -98632,  -91235,   27337,   61499,   93165,  -68133,     209,   93165,   12725,     209,  -91235,   27335,   61499,   93165,   -9820,     209
        43,          2100,   25275,   71146,  -96413,   40481,   77785,  -98369,  -91498,   29131,   62040,   93257,  -67696,     223,   93257,   14268,     223,  -91498,   29130,   62040,   93257,   -8586,     223
        44,          2150,   23447,   72458,  -95897,   38888,   78955,  -98082,  -91771,   30881,   62682,   93348,  -67271,     237,   93348,   15771,     237,  -91771,   30879,   62682,   93348,   -7383,     237
        45,          2200,   21611,   73744,  -95347,   37295,   80096,  -97770,  -92050,   32588,   63447,   93438,  -66858,     251,   93438,   17235,     251,  -92050,   32586,   63447,   93438,   -6212,     251
        46,          2250,   19767,   75004,  -94762,   35700,   81206,  -97432,  -92329,   34252,   64361,   93526,  -66454,     265,   93526,   18661,     265,  -92329,   34251,   64361,   93526,   -5071,     265
        47,          2300,   17916,   76237,  -94145,   34105,   82286,  -97068,  -92601,   35876,   65459,   93613,  -66062,     279,   93613,   20050,     279,  -92601,   35874,   65459,   93613,   -3960,     279
        48,          2350,   16059,   77444,  -93493,   32509,   83333,  -96677,  -92855,   37459,   66782,   93699,  -65679,     292,   93699,   21402,     292,  -92855,   37457,   66782,   93699,   -2878,     292
        49,          2400,   14196,   78622,  -92809,   30913,   84346,  -96257,  -93076,   39003,   68380,   93784,  -65307,     306,   93784,   22719,     306,  -93076,   39002,   68380,   93784,   -1825,     306
        50,          2450,   12328,   79773,  -92091,   29317,   85323,  -95809,  -93243,   40509,   70304,   93869,  -64944,     320,   93869,   24002,     320,  -93243,   40508,   70304,   93869,    -798,     320
        51,          2500,   10455,   80895,  -91341,   27723,   86262,  -95331,  -93329,   41978,   72593,   93952,  -64591,     333,   93952,   25251,     333,  -93329,   41977,   72593,   93952,     201,     333
        52,          2550,    8579,   81989,  -90559,   26130,   87162,  -94821,  -93300,   43411,   75243,   94034,  -64247,     347,   94034,   26468,     347,  -93300,   43409,   75243,   94034,    1174,     347
        53,          2600,    6700,   83053,  -89744,   24539,   88023,  -94280,  -93124,   44808,   78169,   94116,  -63913,     360,   94116,   27652,     360,  -93124,   44806,   78169,   94116,    2122,     360
        54,          2650,    4818,   84088,  -88897,   22943,   88847,  -93707,  -92782,   46171,   81193,   94197,  -63586,     374,   94197,   28806,     374,  -92782,   46169,   81193,   94197,    3045,     374
        55,          2700,    2935,   85093,  -88019,   21340,   89639,  -93100,  -92282,   47500,   84091,   94277,  -63269,     387,   94277,   29929,     387,  -92282,   47498,   84091,   94277,    3944,     387
        56,          2750,    1051,   86068,  -87109,   19724,   90401,  -92459,  -91656,   48796,   86686,   94357,  -62960,     400,   94357,   31023,     400,  -91656,   48795,   86686,   94357,    4819,     400
        57,          2800,    -834,   87012,  -86169,   18094,   91136,  -91785,  -90944,   50061,   88905,   94436,  -62658,     413,   94436,   32088,     413,  -90944,   50059,   88905,   94436,    5671,     413
        58,          2850,   -2718,   87926,  -85198,   16451,   91841,  -91076,  -90180,   51294,   90763,   94514,  -62365,     425,   94514,   33125,     425,  -90180,   51292,   90763,   94514,    6500,     425
        59,          2900,   -4601,   88808,  -84197,   14797,   92515,  -90332,  -89381,   52496,   92313,   94591,  -62080,     437,   94591,   34135,     437,  -89381,   52495,   92313,   94591,    7308,     437
        60,          2950,   -6483,   89658,  -83165,   13132,   93157,  -89554,  -88552,   53669,   93611,   94668,  -61802,     449,   94668,   35118,     449,  -88552,   53668,   93611,   94668,    8095,     449
        61,          3000,   -8362,   90477,  -82105,   11459,   93765,  -88742,  -87697,   54813,   94703,   94744,  -61531,     461,   94744,   36075,     461,  -87697,   54812,   94703,   94744,    8860,     461
        62,          3050,  -10239,   91263,  -81015,    9778,   94340,  -87896,  -86817,   55929,   95626,   94819,  -61268,     472,   94819,   37007,     472,  -86817,   55927,   95626,   94819,    9606,     472
        63,          3100,  -12112,   92018,  -79896,    8090,   94881,  -87016,  -85913,   57017,   96408,   94894,  -61011,     483,   94894,   37914,     483,  -85913,   57015,   96408,   94894,   10332,     483
        64,          3150,  -13980,   92739,  -78749,    6394,   95389,  -86103,  -84985,   58079,   97071,   94968,  -60762,     494,   94968,   38798,     494,  -84985,   58077,   97071,   94968,   11038,     494
        65,          3200,  -15844,   93427,  -77573,    4690,   95865,  -85158,  -84035,   59114,   97633,   95041,  -60519,     504,   95041,   39657,     504,  -84035,   59112,   97633,   95041,   11726,     504
        66,          3250,  -17702,   94083,  -76371,    2978,   96311,  -84182,  -83064,   60123,   98108,   95114,  -60282,     515,   95114,   40494,     515,  -83064,   60121,   98108,   95114,   12395,     515
        67,          3300,  -19553,   94705,  -75141,    1259,   96726,  -83174,  -82074,   61108,   98509,   95186,  -60052,     525,   95186,   41309,     525,  -82074,   61106,   98509,   95186,   13047,     525
        68,          3350,  -21398,   95293,  -73884,    -469,   97113,  -82138,  -81065,   62068,   98845,   95257,  -59828,     534,   95257,   42102,     534,  -81065,   62066,   98845,   95257,   13682,     534
        69,          3400,  -23235,   95847,  -72602,   -2204,   97473,  -81072,  -80039,   63005,   99124,   95328,  -59609,     544,   95328,   42874,     544,  -80039,   63003,   99124,   95328,   14299,     544
        70,          3450,  -25064,   96367,  -71293,   -3947,   97806,  -79978,  -78997,   63918,   99355,   95398,  -59397,     553,   95398,   43625,     553,  -78997,   63916,   99355,   95398,   14900,     553
        71,          3500,  -26884,   96853,  -69959,   -5698,   98113,  -78858,  -77940,   64742,   99542,   95467,  -59190,     561,   95467,   44356,     561,  -77940,   64807,   99542,   95467,   15485,     561
        72,          3550,  -28694,   97305,  -68600,   -7456,   98397,  -77712,  -76869,   65369,   99691,   95535,  -58989,     570,   95535,   45068,     570,  -76869,   65676,   99691,   95535,   16054,     570
        73,          3600,  -30494,   97722,  -67217,   -9221,   98656,  -76540,  -75786,   65765,   99806,   95602,  -58793,     578,   95602,   45760,     578,  -75786,   66524,   99806,   95602,   16608,     578
        74,          3650,  -32284,   98104,  -65810,  -10992,   98893,  -75345,  -74692,   65955,   99891,   95669,  -58603,     586,   95669,   46434,     586,  -74692,   67350,   99891,   95669,   17147,     586
        75,          3700,  -34061,   98452,  -64380,  -12770,   99107,  -74128,  -73589,   65958,   99950,   95734,  -58418,     594,   95734,   47090,     594,  -73589,   68156,   99950,   95734,   17672,     594
        76,          3750,  -35827,   98764,  -62927,  -14552,   99299,  -72888,  -72479,   65793,   99985,   95799,  -58237,     601,   95799,   47728,     601,  -72479,   68943,   99985,   95799,   18183,     601
        77,          3800,  -37580,   99041,  -61451,  -16338,   99469,  -71626,  -71362,   65476,   99999,   95863,  -58062,     608,   95863,   48349,     608,  -71362,   69709,   99999,   95863,   18680,     608
        78,          3850,  -39320,   99284,  -59953,  -18126,   99617,  -70345,  -70238,   65021,   99993,   95926,  -57891,     615,   95926,   48954,     615,  -70238,   70457,   99993,   95926,   19163,     615
        79,          3900,  -41046,   99491,  -58435,  -19916,   99742,  -69043,  -69109,   64443,   99971,   95989,  -57724,     621,   95989,   49542,     621,  -69109,   71187,   99971,   95989,   19634,     621
        80,          3950,  -42757,   99662,  -56895,  -21706,   99843,  -67722,  -67975,   63753,   99934,   96050,  -57563,     628,   96050,   50114,     628,  -67975,   71898,   99934,   96050,   20091,     628
        81,          4000,  -44453,   99798,  -55335,  -23495,   99920,  -66383,  -66837,   62963,   99883,   96111,  -57405,     634,   96111,   50671,     634,  -66837,   72592,   99883,   96111,   20537,     634
