GTPPLOT creates from ieee13_pv_l2c2b3t2.pl4,999,1999                            
21,21A, 0D
  1,SBUS A          V-node,A, , V,  .938910245895386, -.0078125       , 0.0,-99999, 99999,1.0,1.0,P
  2,SBUS B          V-node,B, , V,  .938927888870239, -.00390625      , 0.0,-99999, 99999,1.0,1.0,P
  3,SBUS C          V-node,C, , V,  .938901901245117, -.49609375      , 0.0,-99999, 99999,1.0,1.0,P
  4,SBUS A 22   A I-branch,A, , A,  .164350800333E-3, 1.30023431777954, 0.0,-99999, 99999,1.0,1.0,P
  5,SBUS B 22   B I-branch,B, , A,  .167412537849E-3, .114259719848633, 0.0,-99999, 99999,1.0,1.0,P
  6,SBUS C 22   C I-branch,C, , A,  .196727691218E-3, -.37414932250977, 0.0,-99999, 99999,1.0,1.0,P
  7,TACS   PV001V I-branch,S, , A,  .001382754417136, 138.274063110352, 0.0,-99999, 99999,1.0,1.0,P
  8,TACS   PV001I I-branch,S, , A,  .133265013574E-3, 13.3263683319092, 0.0,-99999, 99999,1.0,1.0,P
  9,TACS   PV001W I-branch,S, , A,  .002319967607036, 231.994445800781, 0.0,-99999, 99999,1.0,1.0,P
 10,TACS   PV002V I-branch,S, , A,  .002515684813261, 251.565963745117, 0.0,-99999, 99999,1.0,1.0,P
 11,TACS   PV002I I-branch,S, , A,  .001377495354973, 137.748153686523, 0.0,-99999, 99999,1.0,1.0,P
 12,TACS   PV002W I-branch,S, , A,  .198503562387E-5, 377.162536621094, 0.0,-99999, 99999,1.0,1.0,P
 13,TACS   ST001V I-branch,S, , A,  .002515684813261, 251.565963745117, 0.0,-99999, 99999,1.0,1.0,P
 14,TACS   ST001I I-branch,S, , A,  .573956349399E-3, 57.3950614929199, 0.0,-99999, 99999,1.0,1.0,P
 15,TACS   ST001W I-branch,S, , A,  .198503562387E-5, 377.162536621094, 0.0,-99999, 99999,1.0,1.0,P
 16,TACS   ST002V I-branch,S, , A,  .001382754417136, 138.274063110352, 0.0,-99999, 99999,1.0,1.0,P
 17,TACS   ST002I I-branch,S, , A,  .133546331199E-3, 13.3544998168945, 0.0,-99999, 99999,1.0,1.0,P
 18,TACS   ST002W I-branch,S, , A,  .002319967607036, 231.994445800781, 0.0,-99999, 99999,1.0,1.0,P
 19,TACS   ST003V I-branch,S, , A,  .002515684813261, 251.565963745117, 0.0,-99999, 99999,1.0,1.0,P
 20,TACS   ST003I I-branch,S, , A,  .459165079519E-3, 45.9160499572754, 0.0,-99999, 99999,1.0,1.0,P
 21,TACS   ST003W I-branch,S, , A,  .198503562387E-5, 377.162536621094, 0.0,-99999, 99999,1.0,1.0,P
 50
1
     20000,  12001
18/12/2022,22:55:54.000000
18/12/2022,22:55:54.000000
ASCII 
    1.000000
         1,             0,   86606,     -13,  -86595,   99998,  -27252,  -65640,  -99999,  -99999,  -99999,  -99999,  -99999,  -86378,  -99999,  -99999,  -86378,  -99999,  -99999,  -99999,  -99999,  -99999,  -86378
         2,            50,   85648,    1872,  -87522,   99809,  -25100,  -67312,  -99983,  -97525,   62499,   90803,  -97412,  -86378,   90803,  -97412,  -86378,  -99983,  -97530,   62499,   90803,  -97412,  -86378
         3,           100,   84660,    3756,  -88418,   99543,  -22940,  -68928,  -99650,  -92638,   62499,   90823,  -92302,  -87670,   90823,  -92302,  -87670,  -99650,  -92653,   62499,   90823,  -92302,  -87670
         4,           150,   83643,    5639,  -89284,   99150,  -20775,  -70442,  -98947,  -87871,   62307,   90907,  -87319,  -88823,   90907,  -87319,  -88823,  -98947,  -87896,   62307,   90907,  -87319,  -88823
         5,           200,   82595,    7520,  -90117,   98653,  -18604,  -71875,  -98235,  -83222,   62013,   91029,  -82462,  -88592,   91029,  -82462,  -88592,  -98235,  -83257,   62013,   91029,  -82462,  -88592
         6,           250,   81518,    9398,  -90918,   98102,  -16430,  -73265,  -97531,  -78687,   61820,   91171,  -77729,  -88362,   91171,  -77729,  -88362,  -97531,  -78732,   61820,   91171,  -77729,  -88362
         7,           300,   80412,   11273,  -91687,   97511,  -14257,  -74620,  -96853,  -74265,   61645,   91315,  -73116,  -88023,   91315,  -73116,  -88023,  -96853,  -74319,   61645,   91315,  -73116,  -88023
         8,           350,   79277,   13144,  -92423,   96882,  -12087,  -75941,  -96206,  -69952,   61478,   91458,  -68621,  -87516,   91458,  -68621,  -87516,  -96206,  -70015,   61478,   91458,  -68621,  -87516
         9,           400,   78114,   15010,  -93126,   96213,   -9919,  -77227,  -95589,  -65745,   61318,   91599,  -64241,  -86840,   91599,  -64241,  -86840,  -95589,  -65817,   61318,   91599,  -64241,  -86840
        10,           450,   76924,   16871,  -93796,   95503,   -7755,  -78475,  -95002,  -61642,   61162,   91738,  -59973,  -85994,   91738,  -59973,  -85994,  -95002,  -61723,   61162,   91738,  -59973,  -85994
        11,           500,   75706,   18726,  -94433,   94751,   -5596,  -79685,  -94444,  -57640,   61011,   91874,  -55814,  -85010,   91874,  -55814,  -85010,  -94444,  -57730,   61011,   91874,  -55814,  -85010
        12,           550,   74461,   20574,  -95037,   93956,   -3441,  -80854,  -93917,  -53738,   60865,   92008,  -51761,  -83872,   92008,  -51761,  -83872,  -93917,  -53835,   60865,   92008,  -51761,  -83872
        13,           600,   73189,   22415,  -95606,   93119,   -1292,  -81984,  -93419,  -49931,   60724,   92140,  -47812,  -82612,   92140,  -47812,  -82612,  -93419,  -50037,   60724,   92140,  -47812,  -82612
        14,           650,   71892,   24248,  -96142,   92240,     849,  -83072,  -92950,  -46219,   60587,   92270,  -43964,  -81228,   92270,  -43964,  -81228,  -92950,  -46332,   60587,   92270,  -43964,  -81228
        15,           700,   70569,   26072,  -96643,   91320,    2983,  -84119,  -92511,  -42598,   60456,   92398,  -40214,  -79721,   92398,  -40214,  -79721,  -92511,  -42719,   60456,   92398,  -40214,  -79721
        16,           750,   69221,   27887,  -97111,   90361,    5106,  -85124,  -92101,  -39067,   60330,   92524,  -36560,  -78123,   92524,  -36560,  -78123,  -92101,  -39195,   60330,   92524,  -36560,  -78123
        17,           800,   67849,   29692,  -97543,   89363,    7219,  -86089,  -91720,  -35623,   60210,   92649,  -33000,  -76416,   92649,  -33000,  -76416,  -91720,  -35758,   60210,   92649,  -33000,  -76416
        18,           850,   66452,   31487,  -97941,   88329,    9319,  -87012,  -91369,  -32264,   60096,   92772,  -29531,  -74602,   92772,  -29531,  -74602,  -91369,  -32406,   60096,   92772,  -29531,  -74602
        19,           900,   65032,   33270,  -98304,   87261,   11405,  -87895,  -91046,  -28987,   59988,   92894,  -26151,  -72711,   92894,  -26151,  -72711,  -91046,  -29137,   59988,   92894,  -26151,  -72711
        20,           950,   63588,   35042,  -98633,   86162,   13476,  -88739,  -90751,  -25792,   59887,   93013,  -22858,  -70712,   93013,  -22858,  -70712,  -90751,  -25949,   59887,   93013,  -22858,  -70712
        21,          1000,   62122,   36801,  -98926,   85034,   15530,  -89545,  -90486,  -22676,   59793,   93132,  -19649,  -68637,   93132,  -19649,  -68637,  -90486,  -22839,   59793,   93132,  -19649,  -68637
        22,          1050,   60634,   38547,  -99184,   83878,   17566,  -90312,  -90248,  -19636,   59707,   93248,  -16522,  -66469,   93248,  -16522,  -66469,  -90248,  -19806,   59707,   93248,  -16522,  -66469
        23,          1100,   59125,   40279,  -99407,   82699,   19583,  -91044,  -90039,  -16672,   59630,   93363,  -13476,  -64209,   93363,  -13476,  -64209,  -90039,  -16848,   59630,   93363,  -13476,  -64209
        24,          1150,   57594,   41997,  -99594,   81499,   21580,  -91740,  -89857,  -13781,   59562,   93477,  -10508,  -61872,   93477,  -10508,  -61872,  -89857,  -13962,   59562,   93477,  -10508,  -61872
        25,          1200,   56043,   43701,  -99746,   80279,   23555,  -92401,  -89703,  -10961,   59504,   93588,   -7616,  -59443,   93588,   -7616,  -59443,  -89703,  -11149,   59504,   93588,   -7616,  -59443
        26,          1250,   54472,   45388,  -99863,   79043,   25507,  -93030,  -89577,   -8211,   59456,   93698,   -4799,  -56922,   93698,   -4799,  -56922,  -89577,   -8404,   59456,   93698,   -4799,  -56922
        27,          1300,   52881,   47060,  -99944,   77792,   27437,  -93627,  -89477,   -5529,   59420,   93807,   -2054,  -54309,   93807,   -2054,  -54309,  -89477,   -5728,   59420,   93807,   -2054,  -54309
        28,          1350,   51272,   48714,  -99989,   76529,   29343,  -94193,  -89405,   -2913,   59397,   93913,     621,  -51603,   93913,     621,  -51603,  -89405,   -3117,   59397,   93913,     621,  -51603
        29,          1400,   49645,   50352,  -99999,   75254,   31224,  -94730,  -89359,    -361,   59388,   94018,    3226,  -48820,   94018,    3226,  -48820,  -89359,    -571,   59388,   94018,    3226,  -48820
        30,          1450,   48000,   51971,  -99974,   73971,   33081,  -95238,  -89339,    2127,   59393,   94122,    5765,  -45945,   94122,    5765,  -45945,  -89339,    1912,   59393,   94122,    5765,  -45945
        31,          1500,   46338,   53573,  -99913,   72679,   34914,  -95719,  -89344,    4554,   59416,   94224,    8238,  -42978,   94224,    8238,  -42978,  -89344,    4334,   59416,   94224,    8238,  -42978
        32,          1550,   44659,   55155,  -99817,   71381,   36722,  -96172,  -89375,    6921,   59457,   94324,   10648,  -39934,   94324,   10648,  -39934,  -89375,    6696,   59457,   94324,   10648,  -39934
        33,          1600,   42964,   56717,  -99685,   70076,   38505,  -96600,  -89431,    9230,   59519,   94422,   12995,  -36813,   94422,   12995,  -36813,  -89431,    9000,   59519,   94422,   12995,  -36813
        34,          1650,   41255,   58259,  -99517,   68766,   40263,  -97001,  -89511,   11482,   59603,   94519,   15282,  -33600,   94519,   15282,  -33600,  -89511,   11247,   59603,   94519,   15282,  -33600
        35,          1700,   39530,   59781,  -99314,   67450,   41997,  -97378,  -89615,   13678,   59713,   94615,   17510,  -30325,   94615,   17510,  -30325,  -89615,   13438,   59713,   94615,   17510,  -30325
        36,          1750,   37792,   61281,  -99076,   66129,   43707,  -97730,  -89741,   15819,   59851,   94709,   19680,  -26989,   94709,   19680,  -26989,  -89741,   15575,   59851,   94709,   19680,  -26989
        37,          1800,   36040,   62760,  -98803,   64803,   45394,  -98057,  -89890,   17908,   60021,   94801,   21795,  -23576,   94801,   21795,  -23576,  -89890,   17660,   60021,   94801,   21795,  -23576
        38,          1850,   34275,   64216,  -98495,   63471,   47057,  -98359,  -90060,   19946,   60228,   94892,   23854,  -20117,   94892,   23854,  -20117,  -90060,   19693,   60228,   94892,   23854,  -20117
        39,          1900,   32498,   65650,  -98151,   62134,   48697,  -98637,  -90250,   21933,   60477,   94982,   25861,  -16612,   94982,   25861,  -16612,  -90250,   21676,   60477,   94982,   25861,  -16612
        40,          1950,   30710,   67060,  -97773,   60789,   50314,  -98891,  -90459,   23871,   60774,   95070,   27816,  -13061,   95070,   27816,  -13061,  -90459,   23610,   60774,   95070,   27816,  -13061
        41,          2000,   28911,   68446,  -97360,   59438,   51909,  -99119,  -90685,   25761,   61126,   95157,   29720,   -9494,   95157,   29720,   -9494,  -90685,   25496,   61126,   95157,   29720,   -9494
        42,          2050,   27101,   69808,  -96913,   58078,   53483,  -99322,  -90928,   27604,   61544,   95242,   31575,   -5881,   95242,   31575,   -5881,  -90928,   27335,   61544,   95242,   31575,   -5881
        43,          2100,   25282,   71145,  -96431,   56710,   55035,  -99500,  -91184,   29402,   62037,   95327,   33382,   -2268,   95327,   33382,   -2268,  -91184,   29130,   62037,   95327,   33382,   -2268
        44,          2150,   23454,   72457,  -95914,   55332,   56565,  -99651,  -91450,   31156,   62620,   95410,   35142,    1360,   95410,   35142,    1360,  -91450,   30879,   62620,   95410,   35142,    1360
        45,          2200,   21617,   73743,  -95364,   53944,   58074,  -99776,  -91724,   32866,   63310,   95492,   36857,    4988,   95492,   36857,    4988,  -91724,   32586,   63310,   95492,   36857,    4988
        46,          2250,   19773,   75003,  -94780,   52546,   59562,  -99874,  -92001,   34534,   64130,   95573,   38527,    8601,   95573,   38527,    8601,  -92001,   34251,   64130,   95573,   38527,    8601
        47,          2300,   17922,   76237,  -94162,   51137,   61028,  -99944,  -92274,   36161,   65107,   95653,   40154,   12183,   95653,   40154,   12183,  -92274,   35874,   65107,   95653,   40154,   12183
        48,          2350,   16064,   77443,  -93511,   49716,   62472,  -99986,  -92534,   37748,   66274,   95731,   41738,   15765,   95731,   41738,   15765,  -92534,   37457,   66274,   95731,   41738,   15765
        49,          2400,   14201,   78622,  -92826,   48285,   63892,  -99999,  -92770,   39295,   67671,   95809,   43282,   19301,   95809,   43282,   19301,  -92770,   39002,   67671,   95809,   43282,   19301
        50,          2450,   12333,   79772,  -92109,   46843,   65289,  -99983,  -92965,   40804,   69343,   95886,   44785,   22822,   95886,   44785,   22822,  -92965,   40508,   69343,   95886,   44785,   22822
        51,          2500,   10460,   80895,  -91358,   45391,   66659,  -99936,  -93098,   42276,   71332,   95962,   46249,   26296,   95962,   46249,   26296,  -93098,   41977,   71332,   95962,   46249,   26296
        52,          2550,    8584,   81988,  -90576,   43929,   68004,  -99859,  -93141,   43712,   73658,   96037,   47676,   29740,   96037,   47676,   29740,  -93141,   43409,   73658,   96037,   47676,   29740
        53,          2600,    6704,   83053,  -89761,   42457,   69320,  -99750,  -93064,   45112,   76297,   96111,   49065,   33138,   96111,   49065,   33138,  -93064,   44806,   76297,   96111,   49065,   33138
        54,          2650,    4823,   84088,  -88914,   40976,   70609,  -99609,  -92840,   46478,   79151,   96184,   50418,   36489,   96184,   50418,   36489,  -92840,   46169,   79151,   96184,   50418,   36489
        55,          2700,    2939,   85093,  -88036,   39483,   71871,  -99436,  -92457,   47810,   82050,   96257,   51735,   39795,   96257,   51735,   39795,  -92457,   47498,   82050,   96257,   51735,   39795
        56,          2750,    1054,   86068,  -87126,   37977,   73107,  -99229,  -91927,   49109,   84802,   96329,   53018,   43039,   96329,   53018,   43039,  -91927,   48795,   84802,   96329,   53018,   43039
        57,          2800,    -830,   87012,  -86185,   36455,   74319,  -98990,  -91279,   50376,   87262,   96400,   54268,   46221,   96400,   54268,   46221,  -91279,   50059,   87262,   96400,   54268,   46221
        58,          2850,   -2715,   87926,  -85214,   34919,   75507,  -98716,  -90551,   51611,   89371,   96470,   55485,   49311,   96470,   55485,   49311,  -90551,   51292,   89371,   96470,   55485,   49311
        59,          2900,   -4599,   88808,  -84213,   33366,   76669,  -98409,  -89770,   52817,   91143,   96540,   56670,   52324,   96540,   56670,   52324,  -89770,   52495,   91143,   96540,   56670,   52324
        60,          2950,   -6481,   89659,  -83181,   31800,   77807,  -98068,  -88953,   53992,   92623,   96609,   57824,   55230,   96609,   57824,   55230,  -88953,   53668,   92623,   96609,   57824,   55230
        61,          3000,   -8360,   90477,  -82120,   30220,   78917,  -97693,  -88110,   55138,   93864,   96677,   58948,   58028,   96677,   58948,   58028,  -88110,   54812,   93864,   96677,   58948,   58028
        62,          3050,  -10237,   91264,  -81030,   28627,   79999,  -97284,  -87242,   56256,   94909,   96744,   60043,   60734,   96744,   60043,   60734,  -87242,   55927,   94909,   96744,   60043,   60734
        63,          3100,  -12110,   92018,  -79911,   27022,   81054,  -96841,  -86350,   57347,   95793,   96811,   61108,   63347,   96811,   61108,   63347,  -86350,   57015,   95793,   96811,   61108,   63347
        64,          3150,  -13979,   92740,  -78764,   25407,   82080,  -96364,  -85436,   58410,   96542,   96876,   62146,   65869,   96876,   62146,   65869,  -85436,   58077,   96542,   96876,   62146,   65869
        65,          3200,  -15843,   93428,  -77589,   23780,   83077,  -95854,  -84500,   59448,   97178,   96942,   63157,   68298,   96942,   63157,   68298,  -84500,   59112,   97178,   96942,   63157,   68298
        66,          3250,  -17701,   94084,  -76386,   22142,   84047,  -95310,  -83543,   60459,   97718,   97006,   64140,   70635,   97006,   64140,   70635,  -83543,   60121,   97718,   97006,   64140,   70635
        67,          3300,  -19553,   94706,  -75156,   20494,   84987,  -94734,  -82567,   61446,   98175,   97069,   65098,   72864,   97069,   65098,   72864,  -82567,   61106,   98175,   97069,   65098,   72864
        68,          3350,  -21398,   95294,  -73899,   18836,   85900,  -94125,  -81571,   62408,   98561,   97132,   66031,   75001,   97132,   66031,   75001,  -81571,   62066,   98561,   97132,   66031,   75001
        69,          3400,  -23235,   95848,  -72616,   17168,   86785,  -93485,  -80558,   63347,   98885,   97194,   66939,   77045,   97194,   66939,   77045,  -80558,   63003,   98885,   97194,   66939,   77045
        70,          3450,  -25065,   96369,  -71308,   15490,   87643,  -92813,  -79529,   64262,   99155,   97255,   67823,   78998,   97255,   67823,   78998,  -79529,   63916,   99155,   97255,   67823,   78998
        71,          3500,  -26885,   96855,  -69973,   13802,   88473,  -92110,  -78484,   65155,   99377,   97315,   68684,   80843,   97315,   68684,   80843,  -78484,   64807,   99377,   97315,   68684,   80843
        72,          3550,  -28695,   97306,  -68614,   12105,   89276,  -91376,  -77425,   66026,   99558,   97374,   69522,   82595,   97374,   69522,   82595,  -77425,   65676,   99558,   97374,   69522,   82595
        73,          3600,  -30496,   97724,  -67231,   10400,   90053,  -90612,  -76353,   66875,   99702,   97433,   70337,   84256,   97433,   70337,   84256,  -76353,   66524,   99702,   97433,   70337,   84256
        74,          3650,  -32285,   98106,  -65824,    8686,   90803,  -89818,  -75268,   67704,   99814,   97490,   71131,   85808,   97490,   71131,   85808,  -75268,   67350,   99814,   97490,   71131,   85808
        75,          3700,  -34064,   98454,  -64393,    6964,   91527,  -88995,  -74172,   68511,   99896,   97547,   71905,   87269,   97547,   71905,   87269,  -74172,   68156,   99896,   97547,   71905,   87269
        76,          3750,  -35830,   98766,  -62940,    5234,   92224,  -88143,  -73066,   69299,   99952,   97602,   72657,   88637,   97602,   72657,   88637,  -73066,   68943,   99952,   97602,   72657,   88637
        77,          3800,  -37583,   99044,  -61464,    3498,   92894,  -87263,  -71951,   70068,   99986,   97657,   73390,   89913,   97657,   73390,   89913,  -71951,   69709,   99986,   97657,   73390,   89913
        78,          3850,  -39323,   99286,  -59966,    1755,   93538,  -86356,  -70828,   70817,   99999,   97710,   74103,   91097,   97710,   74103,   91097,  -70828,   70457,   99999,   97710,   74103,   91097
        79,          3900,  -41049,   99493,  -58447,       8,   94154,  -85420,  -69698,   71548,   99993,   97763,   74797,   92204,   97763,   74797,   92204,  -69698,   71187,   99993,   97763,   74797,   92204
        80,          3950,  -42760,   99664,  -56907,   -1745,   94744,  -84458,  -68561,   72261,   99970,   97814,   75473,   93219,   97814,   75473,   93219,  -68561,   71898,   99970,   97814,   75473,   93219
        81,          4000,  -44457,   99801,  -55347,   -3501,   95305,  -83468,  -67418,   72956,   99932,   97865,   76131,   94141,   97865,   76131,   94141,  -67418,   72592,   99932,   97865,   76131,   94141
