GTPPLOT creates from ieee13_pv_l1c2b2t1.pl4,999,1999                            
21,21A, 0D
  1,SBUS A          V-node,A, , V,  .938957512378693, .21875          , 0.0,-99999, 99999,1.0,1.0,P
  2,SBUS B          V-node,B, , V,  .938974738121033, -.48046875      , 0.0,-99999, 99999,1.0,1.0,P
  3,SBUS C          V-node,C, , V,  .938959300518036, -.29296875      , 0.0,-99999, 99999,1.0,1.0,P
  4,SBUS A 22   A I-branch,A, , A,  .892536190804E-4, .523902416229248, 0.0,-99999, 99999,1.0,1.0,P
  5,SBUS B 22   B I-branch,B, , A,  .978394673439E-4, -.00634717941284, 0.0,-99999, 99999,1.0,1.0,P
  6,SBUS C 22   C I-branch,C, , A,  .111186251161E-3, -.00654125213623, 0.0,-99999, 99999,1.0,1.0,P
  7,TACS   PV001V I-branch,S, , A,  .001405746908858, 140.573287963867, 0.0,-99999, 99999,1.0,1.0,P
  8,TACS   PV001I I-branch,S, , A,  .133233872475E-3, 13.3232545852661, 0.0,-99999, 99999,1.0,1.0,P
  9,TACS   PV001W I-branch,S, , A,  .002324781147763, 232.475784301758, 0.0,-99999, 99999,1.0,1.0,P
 10,TACS   PV002V I-branch,S, , A,  .003644992830232, 364.495635986328, 0.0,-99999, 99999,1.0,1.0,P
 11,TACS   PV002I I-branch,S, , A,  .001352256978862, 135.224349975586, 0.0,-99999, 99999,1.0,1.0,P
 12,TACS   PV002W I-branch,S, , A,  .001137414714321, 342.666900634766, 0.0,-99999, 99999,1.0,1.0,P
 13,TACS   ST001V I-branch,S, , A,  .003644992830232, 364.495635986328, 0.0,-99999, 99999,1.0,1.0,P
 14,TACS   ST001I I-branch,S, , A,  .563440378755E-3, 56.3434753417969, 0.0,-99999, 99999,1.0,1.0,P
 15,TACS   ST001W I-branch,S, , A,  .001137414714321, 342.666900634766, 0.0,-99999, 99999,1.0,1.0,P
 16,TACS   ST002V I-branch,S, , A,  .001405746908858, 140.573287963867, 0.0,-99999, 99999,1.0,1.0,P
 17,TACS   ST002I I-branch,S, , A,  .133457273478E-3, 13.3455934524536, 0.0,-99999, 99999,1.0,1.0,P
 18,TACS   ST002W I-branch,S, , A,  .002324781147763, 232.475784301758, 0.0,-99999, 99999,1.0,1.0,P
 19,TACS   ST003V I-branch,S, , A,  .003644992830232, 364.495635986328, 0.0,-99999, 99999,1.0,1.0,P
 20,TACS   ST003I I-branch,S, , A,  .450752297183E-3, 45.074779510498 , 0.0,-99999, 99999,1.0,1.0,P
 21,TACS   ST003W I-branch,S, , A,  .001137414714321, 342.666900634766, 0.0,-99999, 99999,1.0,1.0,P
 50
1
     20000,  12001
18/12/2022,22:55:47.000000
18/12/2022,22:55:47.000000
ASCII 
    1.000000
         1,             0,   86603,      -7,  -86597,   99998,    1711,  -86376,  -99999,  -99999,  -99999,  -99999,  -99999,   30177,  -99999,  -99999,   30177,  -99999,  -99999,  -99999,  -99999,  -99999,   30177
         2,            50,   85646,    1877,  -87524,   99388,    3812,  -87734,  -99984,  -97525,   62162,   31688,  -97364,   30177,   31688,  -97364,   30177,  -99984,  -97529,   62162,   31688,  -97364,   30177
         3,           100,   84658,    3762,  -88421,   98640,    5909,  -88980,  -99655,  -92636,   62162,   31721,  -92159,   30178,   31721,  -92159,   30178,  -99655,  -92648,   62162,   31721,  -92159,   30178
         4,           150,   83641,    5644,  -89286,   97652,    8004,  -90030,  -98956,  -87868,   61968,   31823,  -87085,   30183,   31823,  -87085,   30183,  -98956,  -87888,   61968,   31823,  -87085,   30183
         5,           200,   82593,    7525,  -90119,   96524,   10093,  -90963,  -98243,  -83218,   61673,   31955,  -82141,   30189,   31955,  -82141,   30189,  -98243,  -83246,   61673,   31955,  -82141,   30189
         6,           250,   81515,    9403,  -90920,   95366,   12168,  -91859,  -97543,  -78682,   61483,   32097,  -77324,   30196,   32097,  -77324,   30196,  -97543,  -78718,   61483,   32097,  -77324,   30196
         7,           300,   80409,   11278,  -91688,   94175,   14223,  -92712,  -96876,  -74259,   61310,   32236,  -72632,   30203,   32236,  -72632,   30203,  -96876,  -74302,   61310,   32236,  -72632,   30203
         8,           350,   79274,   13149,  -92424,   92945,   16262,  -93518,  -96239,  -69945,   61146,   32371,  -68061,   30210,   32371,  -68061,   30210,  -96239,  -69995,   61146,   32371,  -68061,   30210
         9,           400,   78112,   15015,  -93128,   91672,   18283,  -94274,  -95633,  -65737,   60987,   32504,  -63609,   30217,   32504,  -63609,   30217,  -95633,  -65794,   60987,   32504,  -63609,   30217
        10,           450,   76921,   16876,  -93798,   90353,   20286,  -94978,  -95056,  -61633,   60833,   32634,  -59271,   30224,   32634,  -59271,   30224,  -95056,  -61697,   60833,   32634,  -59271,   30224
        11,           500,   75703,   18731,  -94435,   88987,   22270,  -95627,  -94509,  -57631,   60683,   32762,  -55046,   30231,   32762,  -55046,   30231,  -94509,  -57701,   60683,   32762,  -55046,   30231
        12,           550,   74458,   20579,  -95038,   87574,   24233,  -96221,  -93991,  -53727,   60539,   32887,  -50930,   30238,   32887,  -50930,   30238,  -93991,  -53804,   60539,   32887,  -50930,   30238
        13,           600,   73187,   22420,  -95608,   86112,   26176,  -96756,  -93503,  -49920,   60398,   33010,  -46920,   30246,   33010,  -46920,   30246,  -93503,  -50003,   60398,   33010,  -46920,   30246
        14,           650,   71889,   24253,  -96143,   84603,   28096,  -97235,  -93045,  -46206,   60263,   33130,  -43015,   30253,   33130,  -43015,   30253,  -93045,  -46296,   60263,   33130,  -43015,   30253
        15,           700,   70566,   26077,  -96645,   83049,   29991,  -97655,  -92616,  -42585,   60133,   33249,  -39210,   30261,   33249,  -39210,   30261,  -92616,  -42681,   60133,   33249,  -39210,   30261
        16,           750,   69218,   27892,  -97112,   81453,   31860,  -98018,  -92216,  -39053,   60009,   33365,  -35504,   30269,   33365,  -35504,   30269,  -92216,  -39155,   60009,   33365,  -35504,   30269
        17,           800,   67846,   29697,  -97544,   79817,   33701,  -98325,  -91846,  -35608,   59890,   33479,  -31894,   30276,   33479,  -31894,   30276,  -91846,  -35715,   59890,   33479,  -31894,   30276
        18,           850,   66449,   31492,  -97942,   78146,   35512,  -98577,  -91504,  -32248,   59778,   33591,  -28378,   30284,   33591,  -28378,   30284,  -91504,  -32361,   59778,   33591,  -28378,   30284
        19,           900,   65029,   33275,  -98305,   76445,   37290,  -98777,  -91191,  -28971,   59672,   33702,  -24952,   30292,   33702,  -24952,   30292,  -91191,  -29090,   59672,   33702,  -24952,   30292
        20,           950,   63585,   35047,  -98633,   74718,   39034,  -98925,  -90907,  -25775,   59573,   33810,  -21616,   30300,   33810,  -21616,   30300,  -90907,  -25899,   59573,   33810,  -21616,   30300
        21,          1000,   62119,   36806,  -98926,   72971,   40742,  -99025,  -90651,  -22658,   59481,   33916,  -18366,   30308,   33916,  -18366,   30308,  -90651,  -22787,   59481,   33916,  -18366,   30308
        22,          1050,   60631,   38552,  -99184,   71208,   42412,  -99080,  -90423,  -19618,   59398,   34021,  -15200,   30316,   34021,  -15200,   30316,  -90423,  -19752,   59398,   34021,  -15200,   30316
        23,          1100,   59122,   40284,  -99407,   69435,   44043,  -99092,  -90224,  -16653,   59324,   34123,  -12117,   30325,   34123,  -12117,   30325,  -90224,  -16792,   59324,   34123,  -12117,   30325
        24,          1150,   57591,   42002,  -99594,   67658,   45633,  -99064,  -90052,  -13761,   59259,   34224,   -9113,   30333,   34224,   -9113,   30333,  -90052,  -13905,   59259,   34224,   -9113,   30333
        25,          1200,   56040,   43705,  -99746,   65881,   47181,  -99000,  -89908,  -10940,   59204,   34322,   -6188,   30341,   34322,   -6188,   30341,  -89908,  -11089,   59204,   34322,   -6188,   30341
        26,          1250,   54469,   45393,  -99863,   64110,   48686,  -98903,  -89792,   -8189,   59160,   34419,   -3338,   30350,   34419,   -3338,   30350,  -89792,   -8343,   59160,   34419,   -3338,   30350
        27,          1300,   52878,   47064,  -99944,   62350,   50148,  -98776,  -89702,   -5507,   59129,   34514,    -563,   30359,   34514,    -563,   30359,  -89702,   -5665,   59129,   34514,    -563,   30359
        28,          1350,   51269,   48719,  -99989,   60604,   51566,  -98623,  -89640,   -2890,   59110,   34607,    2140,   30368,   34607,    2140,   30368,  -89640,   -3052,   59110,   34607,    2140,   30368
        29,          1400,   49641,   50356,  -99999,   58876,   52941,  -98445,  -89603,    -338,   59107,   34699,    4773,   30377,   34699,    4773,   30377,  -89603,    -505,   59107,   34699,    4773,   30377
        30,          1450,   47996,   51976,  -99974,   57169,   54273,  -98248,  -89593,    2151,   59119,   34788,    7338,   30386,   34788,    7338,   30386,  -89593,    1980,   59119,   34788,    7338,   30386
        31,          1500,   46334,   53577,  -99913,   55486,   55563,  -98031,  -89609,    4579,   59149,   34876,    9836,   30395,   34876,    9836,   30395,  -89609,    4404,   59149,   34876,    9836,   30395
        32,          1550,   44655,   55159,  -99816,   53830,   56811,  -97800,  -89650,    6946,   59198,   34962,   12269,   30405,   34962,   12269,   30405,  -89650,    6767,   59198,   34962,   12269,   30405
        33,          1600,   42961,   56722,  -99684,   52201,   58018,  -97554,  -89715,    9255,   59269,   35046,   14638,   30414,   35046,   14638,   30414,  -89715,    9073,   59269,   35046,   14638,   30414
        34,          1650,   41251,   58264,  -99517,   50600,   59185,  -97297,  -89805,   11508,   59364,   35128,   16946,   30424,   35128,   16946,   30424,  -89805,   11321,   59364,   35128,   16946,   30424
        35,          1700,   39527,   59785,  -99314,   49028,   60315,  -97029,  -89918,   13704,   59487,   35209,   19194,   30434,   35209,   19194,   30434,  -89918,   13514,   59487,   35209,   19194,   30434
        36,          1750,   37788,   61286,  -99076,   47484,   61408,  -96752,  -90054,   15846,   59640,   35288,   21383,   30444,   35288,   21383,   30444,  -90054,   15653,   59640,   35288,   21383,   30444
        37,          1800,   36036,   62764,  -98802,   45968,   62467,  -96466,  -90213,   17936,   59827,   35366,   23515,   30454,   35366,   23515,   30454,  -90213,   17738,   59827,   35366,   23515,   30454
        38,          1850,   34271,   64220,  -98494,   44478,   63492,  -96172,  -90392,   19974,   60055,   35442,   25592,   30465,   35442,   25592,   30465,  -90392,   19773,   60055,   35442,   25592,   30465
        39,          1900,   32494,   65654,  -98150,   43013,   64486,  -95871,  -90591,   21961,   60328,   35517,   27614,   30475,   35517,   27614,   30475,  -90591,   21757,   60328,   35517,   27614,   30475
        40,          1950,   30706,   67064,  -97772,   41570,   65450,  -95561,  -90809,   23900,   60653,   35590,   29584,   30486,   35590,   29584,   30486,  -90809,   23692,   60653,   35590,   29584,   30486
        41,          2000,   28907,   68450,  -97359,   40147,   66387,  -95243,  -91044,   25790,   61040,   35662,   31502,   30497,   35662,   31502,   30497,  -91044,   25580,   61040,   35662,   31502,   30497
        42,          2050,   27097,   69812,  -96911,   38741,   67297,  -94915,  -91294,   27634,   61500,   35733,   33371,   30507,   35733,   33371,   30507,  -91294,   27420,   61500,   35733,   33371,   30507
        43,          2100,   25278,   71149,  -96429,   37351,   68182,  -94577,  -91557,   29432,   62045,   35802,   35190,   30518,   35802,   35190,   30518,  -91557,   29216,   62045,   35802,   35190,   30518
        44,          2150,   23450,   72461,  -95913,   35972,   69043,  -94229,  -91830,   31186,   62692,   35870,   36962,   30529,   35870,   36962,   30529,  -91830,   30967,   62692,   35870,   36962,   30529
        45,          2200,   21613,   73747,  -95362,   34603,   69881,  -93867,  -92108,   32897,   63464,   35938,   38688,   30540,   35938,   38688,   30540,  -92108,   32675,   63464,   35938,   38688,   30540
        46,          2250,   19769,   75007,  -94778,   33242,   70696,  -93492,  -92386,   34565,   64386,   36004,   40369,   30551,   36004,   40369,   30551,  -92386,   34340,   64386,   36004,   40369,   30551
        47,          2300,   17918,   76240,  -94160,   31886,   71489,  -93101,  -92657,   36193,   65494,   36069,   42005,   30561,   36069,   42005,   30561,  -92657,   35965,   65494,   36069,   42005,   30561
        48,          2350,   16060,   77446,  -93509,   30534,   72258,  -92692,  -92909,   37780,   66830,   36133,   43599,   30572,   36133,   43599,   30572,  -92909,   37549,   66830,   36133,   43599,   30572
        49,          2400,   14197,   78625,  -92824,   29185,   73002,  -92264,  -93128,   39328,   68443,   36196,   45151,   30583,   36196,   45151,   30583,  -93128,   39094,   68443,   36196,   45151,   30583
        50,          2450,   12329,   79775,  -92106,   27839,   73720,  -91815,  -93292,   40837,   70386,   36259,   46663,   30594,   36259,   46663,   30594,  -93292,   40601,   70386,   36259,   46663,   30594
        51,          2500,   10456,   80898,  -91356,   26495,   74409,  -91343,  -93373,   42310,   72695,   36320,   48134,   30604,   36320,   48134,   30604,  -93373,   42071,   72695,   36320,   48134,   30604
        52,          2550,    8580,   81991,  -90573,   25153,   75069,  -90846,  -93339,   43746,   75363,   36381,   49568,   30615,   36381,   49568,   30615,  -93339,   43505,   75363,   36381,   49568,   30615
        53,          2600,    6700,   83056,  -89758,   23810,   75700,  -90323,  -93157,   45146,   78302,   36441,   50963,   30625,   36441,   50963,   30625,  -93157,   44903,   78302,   36441,   50963,   30625
        54,          2650,    4819,   84091,  -88912,   22461,   76304,  -89772,  -92809,   46512,   81329,   36501,   52322,   30636,   36501,   52322,   30636,  -92809,   46267,   81329,   36501,   52322,   30636
        55,          2700,    2935,   85096,  -88033,   21101,   76884,  -89191,  -92304,   47844,   84219,   36560,   53645,   30646,   36560,   53645,   30646,  -92304,   47597,   84219,   36560,   53645,   30646
        56,          2750,    1051,   86071,  -87124,   19725,   77445,  -88580,  -91676,   49144,   86800,   36619,   54933,   30656,   36619,   54933,   30656,  -91676,   48894,   86800,   36619,   54933,   30656
        57,          2800,    -834,   87015,  -86183,   18332,   77985,  -87937,  -90965,   50411,   89003,   36677,   56187,   30666,   36677,   56187,   30666,  -90965,   50159,   89003,   36677,   56187,   30666
        58,          2850,   -2719,   87928,  -85212,   16921,   78504,  -87261,  -90203,   51647,   90845,   36734,   57408,   30676,   36734,   57408,   30676,  -90203,   51393,   90845,   36734,   57408,   30676
        59,          2900,   -4603,   88810,  -84210,   15496,   78998,  -86552,  -89406,   52852,   92382,   36791,   58597,   30686,   36791,   58597,   30686,  -89406,   52596,   92382,   36791,   58597,   30686
        60,          2950,   -6485,   89661,  -83179,   14057,   79467,  -85810,  -88581,   54028,   93669,   36847,   59755,   30695,   36847,   59755,   30695,  -88581,   53770,   93669,   36847,   59755,   30695
        61,          3000,   -8364,   90480,  -82118,   12606,   79909,  -85034,  -87729,   55175,   94753,   36903,   60881,   30705,   36903,   60881,   30705,  -87729,   54915,   94753,   36903,   60881,   30705
        62,          3050,  -10241,   91266,  -81028,   11145,   80323,  -84225,  -86853,   56293,   95668,   36958,   61978,   30714,   36958,   61978,   30714,  -86853,   56031,   95668,   36958,   61978,   30714
        63,          3100,  -12114,   92020,  -79909,    9673,   80709,  -83383,  -85952,   57384,   96444,   37013,   63046,   30723,   37013,   63046,   30723,  -85952,   57120,   96444,   37013,   63046,   30723
        64,          3150,  -13983,   92742,  -78761,    8192,   81067,  -82509,  -85028,   58448,   97101,   37067,   64085,   30731,   37067,   64085,   30731,  -85028,   58182,   97101,   37067,   64085,   30731
        65,          3200,  -15847,   93430,  -77586,    6701,   81397,  -81603,  -84082,   59485,   97658,   37121,   65097,   30740,   37121,   65097,   30740,  -84082,   59218,   97658,   37121,   65097,   30740
        66,          3250,  -17705,   94085,  -76383,    5203,   81700,  -80666,  -83116,   60497,   98130,   37175,   66082,   30748,   37175,   66082,   30748,  -83116,   60228,   98130,   37175,   66082,   30748
        67,          3300,  -19557,   94707,  -75153,    3697,   81976,  -79700,  -82130,   61484,   98527,   37228,   67040,   30756,   37228,   67040,   30756,  -82130,   61214,   98527,   37228,   67040,   30756
        68,          3350,  -21402,   95295,  -73896,    2183,   82226,  -78706,  -81126,   62446,   98860,   37280,   67973,   30764,   37280,   67973,   30764,  -81126,   62175,   98860,   37280,   67973,   30764
        69,          3400,  -23239,   95850,  -72613,     663,   82452,  -77684,  -80104,   63385,   99137,   37332,   68881,   30772,   37332,   68881,   30772,  -80104,   63112,   99137,   37332,   68881,   30772
        70,          3450,  -25068,   96370,  -71304,    -862,   82653,  -76636,  -79067,   64301,   99365,   37383,   69764,   30780,   37383,   69764,   30780,  -79067,   64026,   99365,   37383,   69764,   30780
        71,          3500,  -26888,   96856,  -69970,   -2393,   82831,  -75564,  -78015,   65194,   99550,   37434,   70624,   30787,   37434,   70624,   30787,  -78015,   64917,   99550,   37434,   70624,   30787
        72,          3550,  -28699,   97308,  -68611,   -3927,   82986,  -74470,  -76949,   66065,   99697,   37485,   71461,   30794,   37485,   71461,   30794,  -76949,   65787,   99697,   37485,   71461,   30794
        73,          3600,  -30499,   97725,  -67228,   -5464,   83120,  -73353,  -75870,   66914,   99811,   37534,   72275,   30802,   37534,   72275,   30802,  -75870,   66635,   99811,   37534,   72275,   30802
        74,          3650,  -32289,   98107,  -65821,   -7003,   83232,  -72216,  -74779,   67743,   99895,   37584,   73068,   30808,   37584,   73068,   30808,  -74779,   67462,   99895,   37584,   73068,   30808
        75,          3700,  -34067,   98454,  -64390,   -8544,   83324,  -71061,  -73678,   68551,   99952,   37632,   73839,   30815,   37632,   73839,   30815,  -73678,   68269,   99952,   37632,   73839,   30815
        76,          3750,  -35833,   98767,  -62936,  -10083,   83396,  -69888,  -72567,   69339,   99986,   37680,   74589,   30822,   37680,   74589,   30822,  -72567,   69055,   99986,   37680,   74589,   30822
        77,          3800,  -37586,   99044,  -61461,  -11622,   83448,  -68699,  -71448,   70107,   99998,   37728,   75319,   30828,   37728,   75319,   30828,  -71448,   69823,   99998,   37728,   75319,   30828
        78,          3850,  -39326,   99286,  -59963,  -13158,   83480,  -67494,  -70321,   70857,   99992,   37775,   76029,   30834,   37775,   76029,   30834,  -70321,   70571,   99992,   37775,   76029,   30834
        79,          3900,  -41052,   99493,  -58444,  -14691,   83493,  -66276,  -69186,   71588,   99969,   37821,   76720,   30841,   37821,   76720,   30841,  -69186,   71301,   99969,   37821,   76720,   30841
        80,          3950,  -42764,   99665,  -56904,  -16218,   83487,  -65044,  -68046,   72301,   99930,   37867,   77392,   30847,   37867,   77392,   30847,  -68046,   72013,   99930,   37867,   77392,   30847
        81,          4000,  -44460,   99801,  -55344,  -17740,   83461,  -63799,  -66901,   72997,   99878,   37912,   78046,   30852,   37912,   78046,   30852,  -66901,   72707,   99878,   37912,   78046,   30852
