GTPPLOT creates from ieee13_pv_l1c2b4t1.pl4,999,1999                            
21,21A, 0D
  1,SBUS A          V-node,A, , V,  .938954055309296, -.015625        , 0.0,-99999, 99999,1.0,1.0,P
  2,SBUS B          V-node,B, , V,  .938969969749451, -.00390625      , 0.0,-99999, 99999,1.0,1.0,P
  3,SBUS C          V-node,C, , V,  .938955903053284, -.58984375      , 0.0,-99999, 99999,1.0,1.0,P
  4,SBUS A 22   A I-branch,A, , A,  .847266564961E-4, .976594209671021, 0.0,-99999, 99999,1.0,1.0,P
  5,SBUS B 22   B I-branch,B, , A,  .846671100589E-4, .003480434417725, 0.0,-99999, 99999,1.0,1.0,P
  6,SBUS C 22   C I-branch,C, , A,  .106205261545E-3, -.40370321273804, 0.0,-99999, 99999,1.0,1.0,P
  7,TACS   PV001V I-branch,S, , A,  .001405746908858, 140.573287963867, 0.0,-99999, 99999,1.0,1.0,P
  8,TACS   PV001I I-branch,S, , A,  .133233872475E-3, 13.3232545852661, 0.0,-99999, 99999,1.0,1.0,P
  9,TACS   PV001W I-branch,S, , A,  .002324781147763, 232.475784301758, 0.0,-99999, 99999,1.0,1.0,P
 10,TACS   PV002V I-branch,S, , A,  .002565402537584, 256.537689208984, 0.0,-99999, 99999,1.0,1.0,P
 11,TACS   PV002I I-branch,S, , A,  .001354210777208, 135.419723510742, 0.0,-99999, 99999,1.0,1.0,P
 12,TACS   PV002W I-branch,S, , A,  .533467846253E-5, 377.359619140625, 0.0,-99999, 99999,1.0,1.0,P
 13,TACS   ST001V I-branch,S, , A,  .002565402537584, 256.537689208984, 0.0,-99999, 99999,1.0,1.0,P
 14,TACS   ST001I I-branch,S, , A,  .564254529309E-3, 56.4248886108398, 0.0,-99999, 99999,1.0,1.0,P
 15,TACS   ST001W I-branch,S, , A,  .533467846253E-5, 377.359619140625, 0.0,-99999, 99999,1.0,1.0,P
 16,TACS   ST002V I-branch,S, , A,  .001405746908858, 140.573287963867, 0.0,-99999, 99999,1.0,1.0,P
 17,TACS   ST002I I-branch,S, , A,  .133457273478E-3, 13.3455934524536, 0.0,-99999, 99999,1.0,1.0,P
 18,TACS   ST002W I-branch,S, , A,  .002324781147763, 232.475784301758, 0.0,-99999, 99999,1.0,1.0,P
 19,TACS   ST003V I-branch,S, , A,  .002565402537584, 256.537689208984, 0.0,-99999, 99999,1.0,1.0,P
 20,TACS   ST003I I-branch,S, , A,  .65682863351E-3 , 65.6822052001953, 0.0,-99999, 99999,1.0,1.0,P
 21,TACS   ST003W I-branch,S, , A,  .925299478695E-3, 285.364044189453, 0.0,-99999, 99999,1.0,1.0,P
 50
1
     20000,  12001
18/12/2022,22:55:48.000000
18/12/2022,22:55:48.000000
ASCII 
    1.000000
         1,             0,   86604,      -8,  -86597,   99998,    1862,  -86687,  -99999,  -99999,  -99999,  -99999,  -99999,  -69080,  -99999,  -99999,  -69080,  -99999,  -99999,  -99999,  -99999,  -99999,   99024
         2,            50,   85646,    1877,  -87524,   99355,    4289,  -88109,  -99984,  -97525,   62162,   87106,  -97368,  -69080,   87106,  -97368,  -69080,  -99984,  -97529,   62162,   87106,  -98191,   99024
         3,           100,   84659,    3761,  -88421,   98568,    6713,  -89413,  -99655,  -92636,   62162,   87153,  -92170,  -68845,   87153,  -92170,  -68845,  -99655,  -92648,   62162,   87153,  -94619,   99025
         4,           150,   83641,    5644,  -89286,   97527,    9133,  -90513,  -98956,  -87868,   61968,   87297,  -87103,  -67867,   87297,  -87103,  -67867,  -98956,  -87888,   61968,   87297,  -91137,   99031
         5,           200,   82593,    7525,  -90119,   96339,   11548,  -91490,  -98243,  -83218,   61673,   87485,  -82166,  -66425,   87485,  -82166,  -66425,  -98243,  -83246,   61673,   87485,  -87744,   99039
         6,           250,   81516,    9403,  -90920,   95119,   13945,  -92427,  -97543,  -78682,   61483,   87687,  -77357,  -65012,   87687,  -77357,  -65012,  -97543,  -78718,   61483,   87687,  -84438,   99047
         7,           300,   80410,   11278,  -91688,   93864,   16320,  -93320,  -96876,  -74259,   61310,   87884,  -72671,  -63565,   87884,  -72671,  -63565,  -96876,  -74302,   61310,   87884,  -81218,   99055
         8,           350,   79275,   13149,  -92424,   92568,   18676,  -94164,  -96239,  -69945,   61146,   88077,  -68107,  -62089,   88077,  -68107,  -62089,  -96239,  -69995,   61146,   88077,  -78082,   99064
         9,           400,   78112,   15015,  -93128,   91227,   21011,  -94956,  -95633,  -65737,   60987,   88265,  -63661,  -60590,   88265,  -63661,  -60590,  -95633,  -65794,   60987,   88265,  -75026,   99073
        10,           450,   76921,   16875,  -93798,   89838,   23326,  -95693,  -95056,  -61633,   60833,   88450,  -59330,  -59063,   88450,  -59330,  -59063,  -95056,  -61697,   60833,   88450,  -72049,   99081
        11,           500,   75703,   18730,  -94435,   88399,   25618,  -96373,  -94509,  -57631,   60683,   88632,  -55111,  -57518,   88632,  -55111,  -57518,  -94509,  -57701,   60683,   88632,  -69150,   99090
        12,           550,   74459,   20578,  -95038,   86910,   27888,  -96994,  -93991,  -53727,   60539,   88809,  -51001,  -55951,   88809,  -51001,  -55951,  -93991,  -53804,   60539,   88809,  -66325,   99099
        13,           600,   73187,   22419,  -95608,   85370,   30132,  -97555,  -93503,  -49920,   60398,   88984,  -46997,  -54366,   88984,  -46997,  -54366,  -93503,  -50003,   60398,   88984,  -63574,   99109
        14,           650,   71890,   24252,  -96143,   83780,   32351,  -98055,  -93045,  -46206,   60263,   89155,  -43097,  -52764,   89155,  -43097,  -52764,  -93045,  -46296,   60263,   89155,  -60893,   99118
        15,           700,   70567,   26077,  -96645,   82143,   34541,  -98495,  -92616,  -42585,   60133,   89323,  -39298,  -51146,   89323,  -39298,  -51146,  -92616,  -42681,   60133,   89323,  -58282,   99127
        16,           750,   69219,   27892,  -97112,   80462,   36701,  -98876,  -92216,  -39053,   60009,   89488,  -35597,  -49509,   89488,  -35597,  -49509,  -92216,  -39155,   60009,   89488,  -55739,   99137
        17,           800,   67846,   29697,  -97544,   78739,   38828,  -99197,  -91846,  -35608,   59890,   89651,  -31992,  -47862,   89651,  -31992,  -47862,  -91846,  -35715,   59890,   89651,  -53262,   99146
        18,           850,   66450,   31491,  -97942,   76979,   40921,  -99461,  -91504,  -32248,   59778,   89810,  -28481,  -46197,   89810,  -28481,  -46197,  -91504,  -32361,   59778,   89810,  -50849,   99156
        19,           900,   65029,   33275,  -98305,   75187,   42976,  -99670,  -91191,  -28971,   59672,   89967,  -25060,  -44515,   89967,  -25060,  -44515,  -91191,  -29090,   59672,   89967,  -48498,   99165
        20,           950,   63586,   35046,  -98633,   73367,   44991,  -99825,  -90907,  -25775,   59573,   90120,  -21729,  -42816,   90120,  -21729,  -42816,  -90907,  -25899,   59573,   90120,  -46208,   99175
        21,          1000,   62120,   36805,  -98927,   71526,   46965,  -99930,  -90651,  -22658,   59481,   90272,  -18483,  -41100,   90272,  -18483,  -41100,  -90651,  -22787,   59481,   90272,  -43978,   99185
        22,          1050,   60632,   38551,  -99184,   69669,   48895,  -99987,  -90423,  -19618,   59398,   90420,  -15322,  -39361,   90420,  -15322,  -39361,  -90423,  -19752,   59398,   90420,  -41805,   99195
        23,          1100,   59122,   40284,  -99407,   67802,   50779,  -99999,  -90224,  -16653,   59324,   90566,  -12243,  -37599,   90566,  -12243,  -37599,  -90224,  -16792,   59324,   90566,  -39689,   99205
        24,          1150,   57591,   42002,  -99595,   65930,   52616,  -99971,  -90052,  -13761,   59259,   90709,   -9244,  -35820,   90709,   -9244,  -35820,  -90052,  -13905,   59259,   90709,  -37628,   99215
        25,          1200,   56040,   43705,  -99747,   64058,   54405,  -99904,  -89908,  -10940,   59204,   90849,   -6323,  -34007,   90849,   -6323,  -34007,  -89908,  -11089,   59204,   90849,  -35621,   99226
        26,          1250,   54469,   45393,  -99863,   62193,   56145,  -99802,  -89792,   -8189,   59160,   90986,   -3478,  -32176,   90986,   -3478,  -32176,  -89792,   -8343,   59160,   90986,  -33665,   99236
        27,          1300,   52879,   47064,  -99944,   60338,   57834,  -99669,  -89702,   -5507,   59129,   91121,    -706,  -30311,   91121,    -706,  -30311,  -89702,   -5665,   59129,   91121,  -31761,   99247
        28,          1350,   51269,   48719,  -99990,   58499,   59473,  -99508,  -89640,   -2890,   59110,   91254,    1993,  -28412,   91254,    1993,  -28412,  -89640,   -3052,   59110,   91254,  -29905,   99258
        29,          1400,   49642,   50356,  -99999,   56678,   61062,  -99323,  -89603,    -338,   59107,   91383,    4622,  -26490,   91383,    4622,  -26490,  -89603,    -505,   59107,   91383,  -28098,   99269
        30,          1450,   47997,   51976,  -99974,   54881,   62601,  -99116,  -89593,    2151,   59119,   91510,    7183,  -24528,   91510,    7183,  -24528,  -89593,    1980,   59119,   91510,  -26339,   99281
        31,          1500,   46334,   53577,  -99913,   53108,   64091,  -98890,  -89609,    4579,   59149,   91635,    9677,  -22537,   91635,    9677,  -22537,  -89609,    4404,   59149,   91635,  -24624,   99292
        32,          1550,   44656,   55159,  -99816,   51363,   65533,  -98647,  -89650,    6946,   59198,   91757,   12107,  -20512,   91757,   12107,  -20512,  -89650,    6767,   59198,   91757,  -22955,   99304
        33,          1600,   42961,   56721,  -99684,   49647,   66928,  -98390,  -89715,    9255,   59269,   91877,   14473,  -18452,   91877,   14473,  -18452,  -89715,    9073,   59269,   91877,  -21329,   99316
        34,          1650,   41251,   58264,  -99517,   47961,   68277,  -98120,  -89805,   11508,   59364,   91994,   16777,  -16359,   91994,   16777,  -16359,  -89805,   11321,   59364,   91994,  -19745,   99328
        35,          1700,   39527,   59785,  -99314,   46305,   69583,  -97840,  -89918,   13704,   59487,   92109,   19022,  -14236,   92109,   19022,  -14236,  -89918,   13514,   59487,   92109,  -18203,   99340
        36,          1750,   37788,   61285,  -99076,   44679,   70846,  -97550,  -90054,   15846,   59640,   92221,   21208,  -12080,   92221,   21208,  -12080,  -90054,   15653,   59640,   92221,  -16700,   99352
        37,          1800,   36036,   62764,  -98802,   43082,   72069,  -97251,  -90213,   17936,   59827,   92331,   23337,   -9900,   92331,   23337,   -9900,  -90213,   17738,   59827,   92331,  -15237,   99365
        38,          1850,   34272,   64220,  -98494,   41512,   73254,  -96943,  -90392,   19974,   60055,   92440,   25410,   -7692,   92440,   25410,   -7692,  -90392,   19773,   60055,   92440,  -13812,   99378
        39,          1900,   32495,   65654,  -98150,   39968,   74402,  -96627,  -90591,   21961,   60328,   92546,   27430,   -5455,   92546,   27430,   -5455,  -90591,   21757,   60328,   92546,  -12424,   99391
        40,          1950,   30706,   67064,  -97772,   38448,   75517,  -96303,  -90809,   23900,   60653,   92650,   29397,   -3201,   92650,   29397,   -3201,  -90809,   23692,   60653,   92650,  -11072,   99404
        41,          2000,   28907,   68450,  -97359,   36949,   76599,  -95970,  -91044,   25790,   61040,   92752,   31313,    -930,   92752,   31313,    -930,  -91044,   25580,   61040,   92752,   -9756,   99417
        42,          2050,   27097,   69812,  -96911,   35468,   77651,  -95627,  -91294,   27634,   61500,   92852,   33178,    1358,   92852,   33178,    1358,  -91294,   27420,   61500,   92852,   -8473,   99430
        43,          2100,   25278,   71149,  -96429,   34003,   78673,  -95274,  -91557,   29432,   62045,   92951,   34995,    3658,   92951,   34995,    3658,  -91557,   29216,   62045,   92951,   -7225,   99443
        44,          2150,   23450,   72461,  -95913,   32551,   79668,  -94908,  -91830,   31186,   62692,   93048,   36765,    5963,   93048,   36765,    5963,  -91830,   30967,   62692,   93048,   -6009,   99456
        45,          2200,   21614,   73747,  -95362,   31109,   80637,  -94530,  -92108,   32897,   63464,   93143,   38488,    8274,   93143,   38488,    8274,  -92108,   32675,   63464,   93143,   -4824,   99470
        46,          2250,   19769,   75007,  -94778,   29675,   81579,  -94137,  -92386,   34565,   64386,   93237,   40166,   10585,   93237,   40166,   10585,  -92386,   34340,   64386,   93237,   -3671,   99483
        47,          2300,   17918,   76240,  -94160,   28246,   82495,  -93727,  -92657,   36193,   65494,   93330,   41800,   12897,   93330,   41800,   12897,  -92657,   35965,   65494,   93330,   -2548,   99496
        48,          2350,   16061,   77446,  -93509,   26822,   83384,  -93300,  -92909,   37780,   66830,   93421,   43392,   15196,   93421,   43392,   15196,  -92909,   37549,   66830,   93421,   -1454,   99510
        49,          2400,   14197,   78625,  -92824,   25401,   84244,  -92852,  -93128,   39328,   68443,   93511,   44942,   17490,   93511,   44942,   17490,  -93128,   39094,   68443,   93511,    -389,   99523
        50,          2450,   12329,   79775,  -92106,   23983,   85073,  -92382,  -93292,   40837,   70386,   93600,   46451,   19778,   93600,   46451,   19778,  -93292,   40601,   70386,   93600,     648,   99536
        51,          2500,   10456,   80898,  -91356,   22568,   85869,  -91888,  -93373,   42310,   72695,   93687,   47921,   22050,   93687,   47921,   22050,  -93373,   42071,   72695,   93687,    1658,   99549
        52,          2550,    8580,   81991,  -90573,   21154,   86632,  -91368,  -93339,   43746,   75363,   93774,   49352,   24309,   93774,   49352,   24309,  -93339,   43505,   75363,   93774,    2642,   99562
        53,          2600,    6701,   83056,  -89758,   19739,   87361,  -90820,  -93157,   45146,   78302,   93859,   50745,   26557,   93859,   50745,   26557,  -93157,   44903,   78302,   93859,    3599,   99575
        54,          2650,    4819,   84091,  -88912,   18318,   88059,  -90243,  -92809,   46512,   81329,   93944,   52102,   28788,   93944,   52102,   28788,  -92809,   46267,   81329,   93944,    4532,   99588
        55,          2700,    2935,   85096,  -88033,   16886,   88730,  -89635,  -92304,   47844,   84219,   94028,   53423,   30991,   94028,   53423,   30991,  -92304,   47597,   84219,   94028,    5440,   99601
        56,          2750,    1051,   86071,  -87124,   15436,   89377,  -88995,  -91676,   49144,   86800,   94111,   54710,   33165,   94111,   54710,   33165,  -91676,   48894,   86800,   94111,    6324,   99613
        57,          2800,    -834,   87015,  -86183,   13968,   90002,  -88321,  -90965,   50411,   89003,   94194,   55962,   35304,   94194,   55962,   35304,  -90965,   50159,   89003,   94194,    7185,   99626
        58,          2850,   -2719,   87928,  -85212,   12483,   90601,  -87614,  -90203,   51647,   90845,   94275,   57181,   37404,   94275,   57181,   37404,  -90203,   51393,   90845,   94275,    8023,   99638
        59,          2900,   -4602,   88810,  -84210,   10981,   91173,  -86872,  -89406,   52852,   92382,   94356,   58368,   39463,   94356,   58368,   39463,  -89406,   52596,   92382,   94356,    8838,   99649
        60,          2950,   -6484,   89661,  -83179,    9465,   91715,  -86095,  -88581,   54028,   93669,   94436,   59524,   41477,   94436,   59524,   41477,  -88581,   53770,   93669,   94436,    9633,   99661
        61,          3000,   -8364,   90479,  -82118,    7937,   92226,  -85282,  -87729,   55175,   94753,   94515,   60649,   43450,   94515,   60649,   43450,  -87729,   54915,   94753,   94515,   10406,   99672
        62,          3050,  -10241,   91266,  -81028,    6397,   92704,  -84435,  -86853,   56293,   95668,   94594,   61745,   45390,   94594,   61745,   45390,  -86853,   56031,   95668,   94594,   11159,   99684
        63,          3100,  -12114,   92020,  -79909,    4847,   93150,  -83554,  -85952,   57384,   96444,   94672,   62811,   47289,   94672,   62811,   47289,  -85952,   57120,   96444,   94672,   11891,   99695
        64,          3150,  -13983,   92742,  -78761,    3286,   93563,  -82639,  -85028,   58448,   97101,   94749,   63849,   49148,   94749,   63849,   49148,  -85028,   58182,   97101,   94749,   12605,   99705
        65,          3200,  -15846,   93430,  -77586,    1716,   93944,  -81690,  -84082,   59485,   97658,   94825,   64859,   50967,   94825,   64859,   50967,  -84082,   59218,   97658,   94825,   13299,   99716
        66,          3250,  -17705,   94085,  -76383,     138,   94294,  -80710,  -83116,   60497,   98130,   94901,   65842,   52746,   94901,   65842,   52746,  -83116,   60228,   98130,   94901,   13975,   99726
        67,          3300,  -19556,   94707,  -75153,   -1449,   94613,  -79698,  -82130,   61484,   98527,   94977,   66799,   54491,   94977,   66799,   54491,  -82130,   61214,   98527,   94977,   14632,   99736
        68,          3350,  -21401,   95295,  -73896,   -3043,   94903,  -78657,  -81126,   62446,   98860,   95051,   67731,   56190,   95051,   67731,   56190,  -81126,   62175,   98860,   95051,   15273,   99746
        69,          3400,  -23239,   95850,  -72613,   -4644,   95163,  -77588,  -80104,   63385,   99137,   95125,   68637,   57849,   95125,   68637,   57849,  -80104,   63112,   99137,   95125,   15896,   99755
        70,          3450,  -25068,   96370,  -71304,   -6251,   95396,  -76491,  -79067,   64301,   99365,   95198,   69520,   59474,   95198,   69520,   59474,  -79067,   64026,   99365,   95198,   16502,   99765
        71,          3500,  -26888,   96856,  -69970,   -7863,   95601,  -75369,  -78015,   65194,   99550,   95270,   70378,   61058,   95270,   70378,   61058,  -78015,   64917,   99550,   95270,   17092,   99774
        72,          3550,  -28699,   97308,  -68611,   -9480,   95781,  -74223,  -76949,   66065,   99697,   95342,   71214,   62603,   95342,   71214,   62603,  -76949,   65787,   99697,   95342,   17666,   99783
        73,          3600,  -30499,   97725,  -67228,  -11099,   95935,  -73054,  -75870,   66914,   99811,   95412,   72027,   64113,   95412,   72027,   64113,  -75870,   66635,   99811,   95412,   18225,   99792
        74,          3650,  -32289,   98107,  -65821,  -12721,   96065,  -71864,  -74779,   67743,   99895,   95482,   72818,   65583,   95482,   72818,   65583,  -74779,   67462,   99895,   95482,   18769,   99800
        75,          3700,  -34067,   98454,  -64390,  -14343,   96171,  -70654,  -73678,   68551,   99952,   95551,   73588,   67019,   95551,   73588,   67019,  -73678,   68269,   99952,   95551,   19298,   99808
        76,          3750,  -35833,   98767,  -62936,  -15965,   96254,  -69426,  -72567,   69339,   99986,   95620,   74337,   68421,   95620,   74337,   68421,  -72567,   69055,   99986,   95620,   19813,   99816
        77,          3800,  -37586,   99044,  -61460,  -17586,   96314,  -68181,  -71448,   70107,   99998,   95687,   75066,   69788,   95687,   75066,   69788,  -71448,   69823,   99998,   95687,   20314,   99824
        78,          3850,  -39326,   99286,  -59963,  -19204,   96352,  -66920,  -70321,   70857,   99992,   95754,   75775,   71127,   95754,   75775,   71127,  -70321,   70571,   99992,   95754,   20801,   99832
        79,          3900,  -41052,   99493,  -58444,  -20818,   96367,  -65644,  -69186,   71588,   99969,   95819,   76465,   72431,   95819,   76465,   72431,  -69186,   71301,   99969,   95819,   21275,   99840
        80,          3950,  -42764,   99665,  -56904,  -22428,   96360,  -64355,  -68046,   72301,   99930,   95884,   77136,   73701,   95884,   77136,   73701,  -68046,   72013,   99930,   95884,   21737,   99847
        81,          4000,  -44460,   99801,  -55344,  -24031,   96330,  -63052,  -66901,   72997,   99878,   95948,   77789,   74948,   95948,   77789,   74948,  -66901,   72707,   99878,   95948,   22185,   99854
