GTPPLOT creates from ieee13_pv_l2c1b2t2.pl4,999,1999                            
21,21A, 0D
  1,SBUS A          V-node,A, , V,  .938907563686371, 0.0             , 0.0,-99999, 99999,1.0,1.0,P
  2,SBUS B          V-node,B, , V,  .938926041126251, -.0390625       , 0.0,-99999, 99999,1.0,1.0,P
  3,SBUS C          V-node,C, , V,  .938896179199219, -.0859375       , 0.0,-99999, 99999,1.0,1.0,P
  4,SBUS A 22   A I-branch,A, , A,  .171425315784E-3, .592789649963379, 0.0,-99999, 99999,1.0,1.0,P
  5,SBUS B 22   B I-branch,B, , A,  .180055896635E-3, .059123992919922, 0.0,-99999, 99999,1.0,1.0,P
  6,SBUS C 22   C I-branch,C, , A,  .20806727116E-3 , -.14542198181152, 0.0,-99999, 99999,1.0,1.0,P
  7,TACS   PV001V I-branch,S, , A,  .001373787992634, 137.377426147461, 0.0,-99999, 99999,1.0,1.0,P
  8,TACS   PV001I I-branch,S, , A,  .111261309939E-3, 11.1260194778442, 0.0,-99999, 99999,1.0,1.0,P
  9,TACS   PV001W I-branch,S, , A,  .002319718012586, 231.969482421875, 0.0,-99999, 99999,1.0,1.0,P
 10,TACS   PV002V I-branch,S, , A,  .002502483781427, 250.245880126953, 0.0,-99999, 99999,1.0,1.0,P
 11,TACS   PV002I I-branch,S, , A,  .277039624052E-3, 27.703685760498 , 0.0,-99999, 99999,1.0,1.0,P
 12,TACS   PV002W I-branch,S, , A,  .146806280554E-5, 377.004455566406, 0.0,-99999, 99999,1.0,1.0,P
 13,TACS   ST001V I-branch,S, , A,  .002502483781427, 250.245880126953, 0.0,-99999, 99999,1.0,1.0,P
 14,TACS   ST001I I-branch,S, , A,  .577165861614E-3, 57.7160110473633, 0.0,-99999, 99999,1.0,1.0,P
 15,TACS   ST001W I-branch,S, , A,  .146806280554E-5, 377.004455566406, 0.0,-99999, 99999,1.0,1.0,P
 16,TACS   ST002V I-branch,S, , A,  .001373787992634, 137.377426147461, 0.0,-99999, 99999,1.0,1.0,P
 17,TACS   ST002I I-branch,S, , A,  .133473411552E-3, 13.3472080230713, 0.0,-99999, 99999,1.0,1.0,P
 18,TACS   ST002W I-branch,S, , A,  .002319718012586, 231.969482421875, 0.0,-99999, 99999,1.0,1.0,P
 19,TACS   ST003V I-branch,S, , A,  .002501925919205, 250.190093994141, 0.0,-99999, 99999,1.0,1.0,P
 20,TACS   ST003I I-branch,S, , A,  .668256659992E-3, 66.8249969482422, 0.0,-99999, 99999,1.0,1.0,P
 21,TACS   ST003W I-branch,S, , A,  .467460740765E-4, 372.476715087891, 0.0,-99999, 99999,1.0,1.0,P
 50
1
     20000,  12001
18/12/2022,22:55:43.000000
18/12/2022,22:55:43.000000
ASCII 
    1.000000
         1,             0,   86606,     -13,  -86596,   99998,  -25032,  -63162,  -99999,  -99999,  -99999,  -99999,  -99999,   -9116,  -99999,  -99999,   -9116,  -99999,  -99999,  -99999,  -99999,  -99999,   96572
         2,            50,   85648,    1872,  -87523,   99817,  -23031,  -64743,  -99983,  -97036,   62516,   91810,  -97427,   -9116,   91810,  -97427,   -9116,  -99983,  -97529,   62516,   91853,  -98222,   96572
         3,           100,   84660,    3756,  -88419,   99578,  -21022,  -66285,  -99648,  -91182,   62516,   91830,  -92345,  -10862,   91830,  -92345,  -10862,  -99648,  -92649,   62516,   91873,  -94710,   96517
         4,           150,   83643,    5639,  -89284,   99254,  -19005,  -67764,  -98941,  -85472,   62325,   91908,  -87390,  -12380,   91908,  -87390,  -12380,  -98941,  -87890,   62325,   91950,  -91287,   96469
         5,           200,   82595,    7520,  -90117,   98859,  -16981,  -69190,  -98224,  -79903,   62031,   92011,  -82559,  -11964,   92011,  -82559,  -11964,  -98224,  -83248,   62031,   92053,  -87949,   96482
         6,           250,   81518,    9398,  -90918,   98418,  -14953,  -70582,  -97516,  -74472,   61838,   92125,  -77851,  -11527,   92125,  -77851,  -11527,  -97516,  -78720,   61838,   92167,  -84696,   96496
         7,           300,   80412,   11273,  -91687,   97940,  -12922,  -71945,  -96835,  -69175,   61663,   92240,  -73262,  -10966,   92240,  -73262,  -10966,  -96835,  -74305,   61663,   92283,  -81525,   96514
         8,           350,   79277,   13144,  -92423,   97425,  -10890,  -73279,  -96184,  -64009,   61496,   92354,  -68790,  -10301,   92354,  -68790,  -10301,  -96184,  -69998,   61496,   92397,  -78435,   96535
         9,           400,   78114,   15010,  -93127,   96872,   -8857,  -74583,  -95564,  -58970,   61336,   92467,  -64431,   -9490,   92467,  -64431,   -9490,  -95564,  -65798,   61336,   92510,  -75423,   96560
        10,           450,   76923,   16871,  -93797,   96281,   -6825,  -75855,  -94974,  -54056,   61181,   92579,  -60183,   -8555,   92579,  -60182,   -8555,  -94974,  -61702,   61181,   92621,  -72488,   96589
        11,           500,   75705,   18725,  -94434,   95651,   -4792,  -77095,  -94414,  -49263,   61030,   92689,  -56042,   -7515,   92689,  -56042,   -7515,  -94414,  -57707,   61030,   92731,  -69627,   96622
        12,           550,   74460,   20574,  -95037,   94983,   -2762,  -78301,  -93884,  -44589,   60884,   92797,  -52007,   -6351,   92797,  -52007,   -6351,  -93884,  -53810,   60884,   92840,  -66839,   96659
        13,           600,   73189,   22415,  -95607,   94275,    -733,  -79474,  -93384,  -40030,   60743,   92905,  -48074,   -5104,   92905,  -48074,   -5104,  -93384,  -50009,   60743,   92948,  -64121,   96698
        14,           650,   71892,   24247,  -96142,   93529,    1293,  -80613,  -92913,  -35583,   60606,   93011,  -44241,   -3753,   93011,  -44241,   -3753,  -92913,  -46303,   60606,   93054,  -61473,   96740
        15,           700,   70569,   26072,  -96644,   92746,    3315,  -81717,  -92472,  -31246,   60475,   93116,  -40505,   -2339,   93116,  -40505,   -2339,  -92472,  -42688,   60475,   93159,  -58892,   96785
        16,           750,   69221,   27887,  -97111,   91925,    5332,  -82787,  -92061,  -27016,   60349,   93220,  -36865,    -842,   93220,  -36865,    -842,  -92061,  -39162,   60349,   93263,  -56376,   96832
        17,           800,   67848,   29692,  -97543,   91068,    7343,  -83821,  -91679,  -22891,   60229,   93323,  -33317,     717,   93323,  -33317,     717,  -91679,  -35723,   60229,   93366,  -53925,   96881
        18,           850,   66452,   31486,  -97941,   90177,    9347,  -84821,  -91326,  -18868,   60115,   93425,  -29859,    2338,   93425,  -29859,    2338,  -91326,  -32369,   60115,   93468,  -51536,   96931
        19,           900,   65031,   33270,  -98304,   89252,   11343,  -85785,  -91002,  -14944,   60007,   93526,  -26490,    4022,   93526,  -26490,    4022,  -91002,  -29098,   60007,   93569,  -49208,   96984
        20,           950,   63588,   35041,  -98633,   88294,   13329,  -86716,  -90706,  -11117,   59906,   93626,  -23206,    5768,   93626,  -23206,    5768,  -90706,  -25908,   59906,   93669,  -46939,   97039
        21,          1000,   62122,   36800,  -98926,   87306,   15305,  -87611,  -90440,   -7384,   59813,   93724,  -20006,    7556,   93724,  -20006,    7556,  -90440,  -22797,   59813,   93768,  -44728,   97095
        22,          1050,   60634,   38546,  -99184,   86289,   17269,  -88473,  -90202,   -3743,   59727,   93822,  -16888,    9385,   93822,  -16888,    9385,  -90202,  -19762,   59727,   93865,  -42573,   97153
        23,          1100,   59124,   40279,  -99407,   85245,   19221,  -89301,  -89992,    -193,   59650,   93919,  -13849,   11277,   93919,  -13849,   11277,  -89992,  -16802,   59650,   93962,  -40474,   97212
        24,          1150,   57594,   41997,  -99594,   84174,   21159,  -90096,  -89810,    3270,   59582,   94015,  -10888,   13210,   94015,  -10888,   13210,  -89810,  -13915,   59582,   94058,  -38427,   97273
        25,          1200,   56043,   43700,  -99746,   83079,   23082,  -90858,  -89656,    6648,   59524,   94109,   -8002,   15206,   94109,   -8002,   15206,  -89656,  -11100,   59524,   94153,  -36434,   97336
        26,          1250,   54472,   45388,  -99863,   81961,   24990,  -91588,  -89529,    9942,   59477,   94203,   -5190,   17222,   94203,   -5190,   17222,  -89529,   -8354,   59477,   94246,  -34491,   97399
        27,          1300,   52881,   47059,  -99944,   80822,   26881,  -92286,  -89429,   13154,   59441,   94296,   -2450,   19301,   94296,   -2450,   19301,  -89429,   -5676,   59441,   94339,  -32597,   97464
        28,          1350,   51272,   48714,  -99989,   79662,   28755,  -92953,  -89356,   16288,   59417,   94387,     220,   21421,   94387,     220,   21421,  -89356,   -3064,   59417,   94431,  -30753,   97531
        29,          1400,   49645,   50351,  -99999,   78482,   30612,  -93588,  -89310,   19344,   59408,   94478,    2822,   23604,   94478,    2822,   23604,  -89310,    -517,   59408,   94521,  -28955,   97599
        30,          1450,   48000,   51971,  -99974,   77285,   32451,  -94192,  -89290,   22324,   59414,   94567,    5357,   25807,   94567,    5357,   25807,  -89290,    1968,   59414,   94611,  -27203,   97669
        31,          1500,   46337,   53572,  -99913,   76071,   34271,  -94767,  -89295,   25231,   59436,   94656,    7827,   28073,   94656,    7827,   28073,  -89295,    4391,   59436,   94699,  -25497,   97740
        32,          1550,   44659,   55154,  -99817,   74840,   36071,  -95311,  -89326,   28067,   59477,   94743,   10234,   30360,   94743,   10234,   30360,  -89326,    6754,   59477,   94787,  -23833,   97811
        33,          1600,   42964,   56716,  -99685,   73593,   37853,  -95825,  -89382,   30832,   59538,   94830,   12579,   32688,   94830,   12579,   32688,  -89382,    9059,   59538,   94873,  -22213,   97885
        34,          1650,   41255,   58259,  -99517,   72331,   39614,  -96310,  -89461,   33529,   59622,   94915,   14864,   35058,   94915,   14864,   35058,  -89461,   11308,   59622,   94959,  -20634,   97959
        35,          1700,   39530,   59780,  -99315,   71055,   41356,  -96765,  -89565,   36159,   59731,   94999,   17091,   37448,   94999,   17091,   37448,  -89565,   13500,   59731,   95043,  -19096,   98034
        36,          1750,   37792,   61281,  -99077,   69763,   43077,  -97191,  -89691,   38724,   59868,   95083,   19260,   39860,   95083,   19260,   39860,  -89691,   15639,   59868,   95126,  -17597,   98110
        37,          1800,   36040,   62759,  -98803,   68458,   44778,  -97588,  -89839,   41227,   60037,   95165,   21374,   42313,   95165,   21374,   42313,  -89839,   17724,   60037,   95209,  -16136,   98187
        38,          1850,   34276,   64216,  -98495,   67138,   46459,  -97955,  -90009,   43667,   60243,   95247,   23433,   44766,   95247,   23433,   44766,  -90009,   19758,   60243,   95290,  -14714,   98264
        39,          1900,   32499,   65649,  -98152,   65804,   48119,  -98292,  -90198,   46047,   60490,   95327,   25439,   47219,   95327,   25439,   47219,  -90198,   21742,   60490,   95371,  -13327,   98341
        40,          1950,   30710,   67059,  -97773,   64455,   49759,  -98600,  -90407,   48368,   60785,   95407,   27394,   49672,   95407,   27394,   49672,  -90407,   23677,   60785,   95450,  -11977,   98418
        41,          2000,   28911,   68445,  -97361,   63093,   51377,  -98878,  -90634,   50632,   61135,   95485,   29299,   52125,   95485,   29299,   52125,  -90634,   25564,   61135,   95529,  -10661,   98495
        42,          2050,   27102,   69807,  -96913,   61715,   52975,  -99126,  -90876,   52840,   61550,   95563,   31154,   54577,   95563,   31154,   54577,  -90876,   27405,   61550,   95607,   -9379,   98572
        43,          2100,   25283,   71145,  -96431,   60323,   54552,  -99344,  -91132,   54993,   62039,   95640,   32962,   56989,   95640,   32962,   56989,  -91132,   29200,   62039,   95684,   -8130,   98648
        44,          2150,   23454,   72457,  -95915,   58917,   56108,  -99531,  -91399,   57094,   62618,   95716,   34723,   59400,   95716,   34723,   59400,  -91399,   30951,   62618,   95760,   -6913,   98724
        45,          2200,   21618,   73743,  -95365,   57496,   57642,  -99687,  -91673,   59142,   63304,   95792,   36438,   61770,   95792,   36438,   61770,  -91673,   32659,   63304,   95835,   -5728,   98798
        46,          2250,   19774,   75003,  -94780,   56060,   59153,  -99813,  -91950,   61140,   64118,   95866,   38109,   64098,   95866,   38109,   64098,  -91950,   34324,   64118,   95910,   -4573,   98871
        47,          2300,   17923,   76236,  -94163,   54610,   60642,  -99907,  -92223,   63089,   65087,   95940,   39737,   66385,   95940,   39737,   66385,  -92223,   35948,   65087,   95983,   -3448,   98943
        48,          2350,   16065,   77442,  -93511,   53147,   62108,  -99969,  -92485,   64989,   66244,   96013,   41323,   68630,   96013,   41323,   68630,  -92485,   37532,   66244,   96056,   -2352,   99013
        49,          2400,   14202,   78621,  -92827,   51670,   63549,  -99999,  -92722,   66843,   67631,   96085,   42868,   70833,   96085,   42868,   70833,  -92722,   39078,   67631,   96128,   -1285,   99083
        50,          2450,   12334,   79772,  -92109,   50181,   64964,  -99997,  -92920,   68650,   69289,   96156,   44373,   72975,   96156,   44373,   72975,  -92920,   40584,   69289,   96200,    -245,   99150
        51,          2500,   10461,   80894,  -91359,   48680,   66353,  -99962,  -93056,   70414,   71262,   96227,   45839,   75074,   96227,   45839,   75074,  -93056,   42054,   71262,   96271,     768,   99216
        52,          2550,    8584,   81988,  -90576,   47168,   67713,  -99894,  -93103,   72133,   73571,   96297,   47267,   77111,   96297,   47267,   77111,  -93103,   43488,   73571,   96341,    1755,   99280
        53,          2600,    6705,   83052,  -89762,   45647,   69044,  -99793,  -93031,   73810,   76194,   96366,   48658,   79107,   96366,   48658,   79107,  -93031,   44886,   76194,   96410,    2716,   99342
        54,          2650,    4823,   84087,  -88915,   44115,   70347,  -99658,  -92812,   75446,   79038,   96435,   50013,   81061,   96435,   50013,   81061,  -92812,   46249,   79038,   96479,    3652,   99404
        55,          2700,    2940,   85093,  -88036,   42572,   71621,  -99489,  -92435,   77041,   81935,   96503,   51333,   82953,   96503,   51333,   82953,  -92435,   47579,   81935,   96547,    4564,   99463
        56,          2750,    1055,   86068,  -87127,   41016,   72867,  -99286,  -91908,   78597,   84693,   96571,   52618,   84803,   96571,   52618,   84803,  -91908,   48876,   84693,   96614,    5452,   99521
        57,          2800,    -830,   87012,  -86186,   39446,   74088,  -99048,  -91262,   80115,   87165,   96638,   53870,   86549,   96638,   53870,   86549,  -91262,   50141,   87165,   96681,    6317,   99576
        58,          2850,   -2714,   87925,  -85215,   37860,   75283,  -98776,  -90533,   81595,   89287,   96704,   55089,   88212,   96704,   55089,   88212,  -90533,   51375,   89287,   96748,    7159,   99628
        59,          2900,   -4598,   88808,  -84214,   36261,   76452,  -98470,  -89751,   83038,   91071,   96770,   56277,   89771,   96770,   56277,   89771,  -89751,   52578,   91071,   96813,    7980,   99677
        60,          2950,   -6480,   89658,  -83182,   34647,   77594,  -98129,  -88933,   84446,   92562,   96835,   57433,   91205,   96835,   57433,   91205,  -88933,   53752,   92562,   96878,    8779,   99722
        61,          3000,   -8360,   90477,  -82121,   33021,   78709,  -97754,  -88087,   85819,   93812,   96899,   58559,   92536,   96899,   58559,   92536,  -88087,   54896,   93812,   96943,    9557,   99764
        62,          3050,  -10237,   91264,  -81031,   31383,   79796,  -97345,  -87216,   87159,   94865,   96962,   59656,   93741,   96962,   59656,   93741,  -87216,   56012,   94865,   97006,   10315,   99802
        63,          3100,  -12110,   92018,  -79912,   29733,   80854,  -96901,  -86322,   88465,   95755,   97025,   60724,   94864,   97025,   60724,   94864,  -86322,   57101,   95755,   97069,   11053,   99837
        64,          3150,  -13978,   92739,  -78765,   28072,   81884,  -96424,  -85405,   89739,   96510,   97088,   61765,   95862,   97088,   61765,   95862,  -85405,   58163,   96510,   97131,   11772,   99869
        65,          3200,  -15842,   93428,  -77590,   26400,   82885,  -95913,  -84466,   90981,   97151,   97149,   62778,   96756,   97149,   62778,   96756,  -84466,   59199,   97151,   97193,   12471,   99897
        66,          3250,  -17701,   94083,  -76387,   24718,   83858,  -95369,  -83506,   92193,   97694,   97210,   63764,   97546,   97210,   63764,   97546,  -83506,   60209,   97694,   97254,   13153,   99921
        67,          3300,  -19552,   94705,  -75157,   23025,   84802,  -94791,  -82526,   93375,   98155,   97270,   64724,   98232,   97270,   64724,   98232,  -82526,   61194,   98155,   97314,   13817,   99943
        68,          3350,  -21397,   95294,  -73900,   21322,   85719,  -94182,  -81528,   94527,   98544,   97329,   65660,   98814,   97329,   65660,   98814,  -81528,   62155,   98544,   97373,   14463,   99961
        69,          3400,  -23235,   95848,  -72617,   19608,   86609,  -93540,  -80511,   95651,   98871,   97388,   66570,   99271,   97388,   66570,   99271,  -80511,   63092,   98871,   97432,   15092,   99976
        70,          3450,  -25064,   96368,  -71309,   17884,   87472,  -92866,  -79478,   96748,   99143,   97445,   67457,   99624,   97445,   67457,   99624,  -79478,   64006,   99143,   97489,   15705,   99987
        71,          3500,  -26884,   96854,  -69974,   16149,   88308,  -92160,  -78430,   97817,   99368,   97502,   68320,   99874,   97502,   68320,   99874,  -78430,   64897,   99368,   97546,   16301,   99995
        72,          3550,  -28695,   97306,  -68616,   14405,   89118,  -91424,  -77367,   98751,   99551,   97558,   69161,   99978,   97558,   69161,   99978,  -77367,   65767,   99551,   97602,   16882,   99998
        73,          3600,  -30495,   97723,  -67232,   12651,   89902,  -90657,  -76290,   99424,   99697,   97613,   69979,   99998,   97613,   69980,   99998,  -76290,   66615,   99697,   97657,   17448,   99998
        74,          3650,  -32285,   98106,  -65825,   10887,   90659,  -89860,  -75202,   99832,   99809,   97667,   70776,   99895,   97667,   70776,   99895,  -75202,   67442,   99809,   97711,   17998,   99995
        75,          3700,  -34063,   98453,  -64394,    9115,   91391,  -89032,  -74104,   99998,   99893,   97720,   71552,   99687,   97720,   71552,   99687,  -74104,   68248,   99893,   97764,   18534,   99989
        76,          3750,  -35829,   98766,  -62941,    7334,   92096,  -88175,  -72998,   99949,   99950,   97772,   72308,   99354,   97772,   72308,   99354,  -72998,   69035,   99950,   97816,   19056,   99978
        77,          3800,  -37582,   99043,  -61465,    5544,   92776,  -87289,  -71884,   99703,   99985,   97823,   73043,   98918,   97823,   73043,   98918,  -71884,   69802,   99985,   97867,   19564,   99965
        78,          3850,  -39322,   99286,  -59967,    3748,   93429,  -86375,  -70764,   99280,   99999,   97873,   73759,   98398,   97873,   73759,   98398,  -70764,   70550,   99999,   97917,   20059,   99948
        79,          3900,  -41048,   99493,  -58448,    1946,   94055,  -85431,  -69638,   98698,   99994,   97922,   74456,   97753,   97922,   74456,   97753,  -69638,   71280,   99994,   97967,   20541,   99928
        80,          3950,  -42760,   99664,  -56909,     137,   94654,  -84460,  -68506,   97972,   99972,   97971,   75135,   97026,   97971,   75135,   97026,  -68506,   71992,   99972,   98015,   21010,   99905
        81,          4000,  -44456,   99800,  -55349,   -1676,   95225,  -83460,  -67371,   97116,   99935,   98018,   75795,   96194,   98018,   75795,   96194,  -67371,   72686,   99935,   98062,   21466,   99879
