GTPPLOT creates from ieee13_pv_l2c1b2t1.pl4,999,1999                            
21,21A, 0D
  1,SBUS A          V-node,A, , V,  .938920497894287, -.33203125      , 0.0,-99999, 99999,1.0,1.0,P
  2,SBUS B          V-node,B, , V,  .938934683799744, -.50390625      , 0.0,-99999, 99999,1.0,1.0,P
  3,SBUS C          V-node,C, , V,  .938904464244843, -.0703125       , 0.0,-99999, 99999,1.0,1.0,P
  4,SBUS A 22   A I-branch,A, , A,  .170285609784E-3, .706758499145508, 0.0,-99999, 99999,1.0,1.0,P
  5,SBUS B 22   B I-branch,B, , A,  .180055896635E-3, .059123992919922, 0.0,-99999, 99999,1.0,1.0,P
  6,SBUS C 22   C I-branch,C, , A,  .207440796657E-3, -.20806789398193, 0.0,-99999, 99999,1.0,1.0,P
  7,TACS   PV001V I-branch,S, , A,  .001374664832838, 137.465103149414, 0.0,-99999, 99999,1.0,1.0,P
  8,TACS   PV001I I-branch,S, , A,  .111261309939E-3, 11.1260194778442, 0.0,-99999, 99999,1.0,1.0,P
  9,TACS   PV001W I-branch,S, , A,  .002319718012586, 231.969482421875, 0.0,-99999, 99999,1.0,1.0,P
 10,TACS   PV002V I-branch,S, , A,  .002501925919205, 250.190093994141, 0.0,-99999, 99999,1.0,1.0,P
 11,TACS   PV002I I-branch,S, , A,  .403186568292E-3, 40.3182525634766, 0.0,-99999, 99999,1.0,1.0,P
 12,TACS   PV002W I-branch,S, , A,  .001083624782041, 348.288330078125, 0.0,-99999, 99999,1.0,1.0,P
 13,TACS   ST001V I-branch,S, , A,  .002501925919205, 250.190093994141, 0.0,-99999, 99999,1.0,1.0,P
 14,TACS   ST001I I-branch,S, , A,  .668228894938E-3, 66.8222198486328, 0.0,-99999, 99999,1.0,1.0,P
 15,TACS   ST001W I-branch,S, , A,  .001083624782041, 348.288330078125, 0.0,-99999, 99999,1.0,1.0,P
 16,TACS   ST002V I-branch,S, , A,  .001374664832838, 137.465103149414, 0.0,-99999, 99999,1.0,1.0,P
 17,TACS   ST002I I-branch,S, , A,  .133473411552E-3, 13.3472080230713, 0.0,-99999, 99999,1.0,1.0,P
 18,TACS   ST002W I-branch,S, , A,  .002319718012586, 231.969482421875, 0.0,-99999, 99999,1.0,1.0,P
 19,TACS   ST003V I-branch,S, , A,  .002501925919205, 250.190093994141, 0.0,-99999, 99999,1.0,1.0,P
 20,TACS   ST003I I-branch,S, , A,  .661331461743E-3, 66.1324844360352, 0.0,-99999, 99999,1.0,1.0,P
 21,TACS   ST003W I-branch,S, , A,  .001083624782041, 348.288330078125, 0.0,-99999, 99999,1.0,1.0,P
 50
1
     20000,  12001
18/12/2022,22:55:41.000000
18/12/2022,22:55:41.000000
ASCII 
    1.000000
         1,             0,   86605,     -12,  -86595,   99999,  -25032,  -63050,  -99999,  -99999,  -99999,  -99999,  -99999,   26487,  -99999,  -99999,   26487,  -99999,  -99999,  -99999,  -99999,  -99999,   26487
         2,            50,   85647,    1873,  -87522,   99815,  -23031,  -64637,  -99983,  -97036,   62516,   91853,  -98232,   26487,   91853,  -97777,   26487,  -99983,  -97529,   62516,   91853,  -98203,   26487
         3,           100,   84660,    3757,  -88418,   99575,  -21022,  -66183,  -99648,  -91182,   62516,   91873,  -94740,   26485,   91873,  -93388,   26485,  -99648,  -92649,   62516,   91873,  -94655,   26485
         4,           150,   83642,    5640,  -89284,   99249,  -19005,  -67666,  -98941,  -85472,   62325,   91950,  -91335,   26483,   91950,  -89108,   26483,  -98941,  -87890,   62325,   91950,  -91195,   26483
         5,           200,   82594,    7520,  -90117,   98851,  -16981,  -69096,  -98225,  -79903,   62031,   92053,  -88016,   26483,   92053,  -84936,   26483,  -98225,  -83248,   62031,   92053,  -87823,   26483
         6,           250,   81517,    9398,  -90918,   98408,  -14953,  -70493,  -97517,  -74472,   61838,   92167,  -84781,   26484,   92167,  -80869,   26484,  -97517,  -78720,   61838,   92167,  -84536,   26484
         7,           300,   80411,   11273,  -91686,   97926,  -12922,  -71861,  -96837,  -69175,   61663,   92283,  -81628,   26485,   92283,  -76906,   26485,  -96837,  -74305,   61663,   92283,  -81332,   26485
         8,           350,   79276,   13144,  -92422,   97407,  -10890,  -73199,  -96187,  -64009,   61496,   92397,  -78555,   26486,   92397,  -73043,   26486,  -96187,  -69998,   61496,   92397,  -78209,   26486
         9,           400,   78113,   15010,  -93126,   96851,   -8857,  -74506,  -95567,  -58970,   61336,   92510,  -75559,   26487,   92510,  -69278,   26487,  -95567,  -65798,   61336,   92510,  -75166,   26487
        10,           450,   76923,   16871,  -93796,   96256,   -6825,  -75782,  -94977,  -54056,   61181,   92621,  -72640,   26488,   92621,  -65609,   26488,  -94977,  -61702,   61181,   92621,  -72200,   26488
        11,           500,   75705,   18726,  -94433,   95622,   -4792,  -77025,  -94417,  -49263,   61030,   92731,  -69795,   26489,   92731,  -62032,   26489,  -94417,  -57707,   61030,   92731,  -69309,   26489
        12,           550,   74460,   20574,  -95036,   94949,   -2762,  -78236,  -93888,  -44589,   60884,   92840,  -67022,   26491,   92840,  -58547,   26491,  -93888,  -53810,   60884,   92840,  -66491,   26491
        13,           600,   73188,   22415,  -95606,   94237,    -733,  -79412,  -93388,  -40030,   60743,   92948,  -64320,   26493,   92948,  -55150,   26493,  -93388,  -50009,   60743,   92948,  -63746,   26493
        14,           650,   71891,   24248,  -96141,   93486,    1293,  -80555,  -92918,  -35583,   60606,   93054,  -61686,   26494,   93054,  -51839,   26494,  -92918,  -46303,   60606,   93054,  -61069,   26494
        15,           700,   70568,   26072,  -96643,   92697,    3315,  -81662,  -92477,  -31246,   60475,   93159,  -59119,   26496,   93159,  -48613,   26496,  -92477,  -42688,   60475,   93159,  -58461,   26496
        16,           750,   69220,   27887,  -97110,   91871,    5332,  -82735,  -92066,  -27016,   60349,   93263,  -56618,   26498,   93263,  -45468,   26498,  -92066,  -39162,   60349,   93263,  -55920,   26498
        17,           800,   67848,   29692,  -97542,   91009,    7343,  -83772,  -91684,  -22891,   60229,   93366,  -54180,   26501,   93366,  -42404,   26501,  -91684,  -35723,   60229,   93366,  -53443,   26501
        18,           850,   66451,   31487,  -97940,   90111,    9347,  -84775,  -91331,  -18868,   60115,   93468,  -51804,   26503,   93468,  -39418,   26503,  -91331,  -32369,   60115,   93468,  -51029,   26503
        19,           900,   65031,   33270,  -98304,   89180,   11343,  -85742,  -91007,  -14944,   60007,   93569,  -49489,   26505,   93569,  -36507,   26505,  -91007,  -29098,   60007,   93569,  -48676,   26505
        20,           950,   63588,   35042,  -98632,   88216,   13329,  -86675,  -90712,  -11117,   59906,   93669,  -47233,   26507,   93669,  -33671,   26507,  -90712,  -25908,   59906,   93669,  -46383,   26507
        21,          1000,   62122,   36801,  -98925,   87221,   15305,  -87574,  -90446,   -7384,   59813,   93768,  -45034,   26510,   93768,  -30907,   26510,  -90446,  -22797,   59813,   93768,  -44149,   26510
        22,          1050,   60633,   38547,  -99183,   86198,   17269,  -88438,  -90208,   -3743,   59727,   93865,  -42891,   26512,   93865,  -28214,   26512,  -90208,  -19762,   59727,   93865,  -41972,   26512
        23,          1100,   59124,   40279,  -99406,   85146,   19221,  -89269,  -89998,    -193,   59650,   93962,  -40803,   26515,   93962,  -25589,   26515,  -89998,  -16802,   59650,   93962,  -39850,   26515
        24,          1150,   57593,   41997,  -99593,   84068,   21159,  -90066,  -89816,    3270,   59582,   94058,  -38768,   26517,   94058,  -23031,   26517,  -89816,  -13915,   59582,   94058,  -37783,   26517
        25,          1200,   56042,   43700,  -99745,   82966,   23082,  -90831,  -89662,    6648,   59524,   94153,  -36786,   26520,   94153,  -20539,   26520,  -89662,  -11100,   59524,   94153,  -35768,   26520
        26,          1250,   54471,   45388,  -99862,   81840,   24990,  -91563,  -89536,    9942,   59477,   94246,  -34853,   26523,   94246,  -18110,   26523,  -89536,   -8354,   59477,   94246,  -33805,   26523
        27,          1300,   52881,   47059,  -99943,   80693,   26881,  -92263,  -89436,   13154,   59441,   94339,  -32971,   26526,   94339,  -15743,   26526,  -89436,   -5676,   59441,   94339,  -31892,   26526
        28,          1350,   51272,   48714,  -99989,   79525,   28755,  -92931,  -89363,   16288,   59417,   94431,  -31136,   26529,   94431,  -13437,   26529,  -89363,   -3064,   59417,   94431,  -30027,   26529
        29,          1400,   49644,   50351,  -99999,   78338,   30612,  -93568,  -89317,   19344,   59408,   94521,  -29348,   26532,   94521,  -11190,   26532,  -89317,    -517,   59408,   94521,  -28211,   26532
        30,          1450,   47999,   51971,  -99973,   77133,   32451,  -94175,  -89297,   22324,   59414,   94611,  -27606,   26535,   94611,   -9000,   26535,  -89297,    1968,   59414,   94611,  -26441,   26535
        31,          1500,   46337,   53572,  -99912,   75911,   34271,  -94751,  -89302,   25231,   59436,   94699,  -25909,   26538,   94699,   -6867,   26538,  -89302,    4391,   59436,   94699,  -24716,   26538
        32,          1550,   44659,   55154,  -99816,   74671,   36071,  -95297,  -89333,   28067,   59477,   94787,  -24255,   26541,   94787,   -4788,   26541,  -89333,    6754,   59477,   94787,  -23036,   26541
        33,          1600,   42964,   56716,  -99684,   73417,   37853,  -95813,  -89388,   30832,   59538,   94873,  -22644,   26544,   94873,   -2762,   26544,  -89388,    9059,   59538,   94873,  -21398,   26544
        34,          1650,   41255,   58259,  -99516,   72146,   39614,  -96299,  -89468,   33529,   59622,   94959,  -21074,   26547,   94959,    -789,   26547,  -89468,   11308,   59622,   94959,  -19803,   26547
        35,          1700,   39530,   59780,  -99314,   70861,   41356,  -96756,  -89571,   36159,   59731,   95043,  -19544,   26550,   95043,    1134,   26550,  -89571,   13500,   59731,   95043,  -18249,   26550
        36,          1750,   37792,   61281,  -99076,   69561,   43077,  -97183,  -89697,   38724,   59868,   95126,  -18053,   26554,   95126,    3008,   26554,  -89697,   15639,   59868,   95126,  -16734,   26554
        37,          1800,   36040,   62759,  -98802,   68247,   44778,  -97580,  -89845,   41227,   60037,   95209,  -16601,   26557,   95209,    4834,   26557,  -89845,   17724,   60037,   95209,  -15258,   26557
        38,          1850,   34275,   64215,  -98494,   66918,   46459,  -97948,  -90015,   43667,   60243,   95290,  -15186,   26560,   95290,    6612,   26560,  -90015,   19758,   60243,   95290,  -13821,   26560
        39,          1900,   32499,   65649,  -98151,   65575,   48119,  -98287,  -90205,   46047,   60490,   95371,  -13807,   26564,   95371,    8345,   26564,  -90205,   21742,   60490,   95371,  -12420,   26564
        40,          1950,   30710,   67059,  -97773,   64217,   49759,  -98596,  -90413,   48368,   60785,   95450,  -12464,   26567,   95450,   10034,   26567,  -90413,   23677,   60785,   95450,  -11055,   26567
        41,          2000,   28911,   68445,  -97360,   62846,   51377,  -98875,  -90640,   50632,   61135,   95529,  -11156,   26570,   95529,   11678,   26570,  -90640,   25564,   61135,   95529,   -9725,   26570
        42,          2050,   27102,   69807,  -96912,   61459,   52975,  -99123,  -90882,   52840,   61550,   95607,   -9881,   26574,   95607,   13281,   26574,  -90882,   27405,   61550,   95607,   -8430,   26574
        43,          2100,   25283,   71144,  -96430,   60058,   54552,  -99342,  -91137,   54993,   62039,   95684,   -8639,   26577,   95684,   14842,   26577,  -91137,   29200,   62039,   95684,   -7168,   26577
        44,          2150,   23454,   72456,  -95914,   58642,   56108,  -99530,  -91404,   57094,   62618,   95760,   -7429,   26580,   95760,   16363,   26580,  -91404,   30951,   62618,   95760,   -5938,   26580
        45,          2200,   21618,   73743,  -95364,   57211,   57642,  -99687,  -91678,   59142,   63304,   95835,   -6250,   26583,   95835,   17845,   26583,  -91678,   32659,   63304,   95835,   -4741,   26583
        46,          2250,   19774,   75002,  -94780,   55766,   59153,  -99812,  -91955,   61140,   64118,   95910,   -5101,   26586,   95910,   19289,   26586,  -91955,   34324,   64118,   95910,   -3574,   26586
        47,          2300,   17923,   76236,  -94162,   54307,   60642,  -99907,  -92228,   63089,   65087,   95983,   -3983,   26590,   95983,   20695,   26590,  -92228,   35948,   65087,   95983,   -2437,   26590
        48,          2350,   16065,   77442,  -93510,   52833,   62108,  -99969,  -92490,   64989,   66244,   96056,   -2893,   26593,   96056,   22065,   26593,  -92490,   37532,   66244,   96056,   -1330,   26593
        49,          2400,   14202,   78621,  -92826,   51346,   63549,  -99999,  -92727,   66843,   67631,   96128,   -1831,   26596,   96128,   23399,   26596,  -92727,   39078,   67631,   96128,    -251,   26596
        50,          2450,   12334,   79771,  -92108,   49847,   64964,  -99997,  -92925,   68650,   69289,   96200,    -797,   26598,   96200,   24699,   26598,  -92925,   40584,   69289,   96200,     800,   26598
        51,          2500,   10461,   80894,  -91358,   48336,   66353,  -99962,  -93060,   70414,   71262,   96271,     210,   26601,   96271,   25965,   26601,  -93060,   42054,   71262,   96271,    1823,   26601
        52,          2550,    8585,   81988,  -90576,   46815,   67713,  -99894,  -93108,   72133,   73571,   96341,    1191,   26604,   96341,   27199,   26604,  -93108,   43488,   73571,   96341,    2820,   26604
        53,          2600,    6705,   83052,  -89761,   45283,   69044,  -99792,  -93035,   73810,   76194,   96410,    2147,   26607,   96410,   28400,   26607,  -93035,   44886,   76194,   96410,    3791,   26607
        54,          2650,    4824,   84087,  -88914,   43741,   70347,  -99657,  -92817,   75446,   79038,   96479,    3078,   26609,   96479,   29570,   26609,  -92817,   46249,   79038,   96479,    4737,   26609
        55,          2700,    2940,   85092,  -88036,   42187,   71621,  -99487,  -92439,   77041,   81935,   96547,    3985,   26612,   96547,   30710,   26612,  -92439,   47579,   81935,   96547,    5659,   26612
        56,          2750,    1055,   86067,  -87126,   40621,   72867,  -99283,  -91913,   78597,   84693,   96614,    4868,   26614,   96614,   31820,   26614,  -91913,   48876,   84693,   96614,    6556,   26614
        57,          2800,    -829,   87012,  -86186,   39040,   74088,  -99045,  -91268,   80115,   87165,   96681,    5728,   26617,   96681,   32901,   26617,  -91268,   50141,   87165,   96681,    7430,   26617
        58,          2850,   -2714,   87925,  -85214,   37445,   75283,  -98773,  -90539,   81595,   89287,   96748,    6566,   26619,   96748,   33954,   26619,  -90539,   51375,   89287,   96748,    8281,   26619
        59,          2900,   -4598,   88807,  -84213,   35834,   76452,  -98465,  -89758,   83038,   91071,   96813,    7382,   26621,   96813,   34980,   26621,  -89758,   52578,   91071,   96813,    9110,   26621
        60,          2950,   -6480,   89658,  -83182,   34210,   77594,  -98124,  -88940,   84446,   92562,   96878,    8176,   26623,   96878,   35979,   26623,  -88940,   53752,   92562,   96878,    9918,   26623
        61,          3000,   -8359,   90477,  -82121,   32573,   78709,  -97747,  -88094,   85819,   93812,   96943,    8950,   26625,   96943,   36952,   26625,  -88094,   54896,   93812,   96943,   10704,   26625
        62,          3050,  -10236,   91263,  -81031,   30923,   79796,  -97337,  -87224,   87159,   94865,   97006,    9704,   26627,   97006,   37899,   26627,  -87224,   56012,   94865,   97006,   11470,   26627
        63,          3100,  -12109,   92018,  -79912,   29262,   80854,  -96892,  -86331,   88465,   95755,   97069,   10438,   26628,   97069,   38822,   26628,  -86331,   57101,   95755,   97069,   12216,   26628
        64,          3150,  -13978,   92739,  -78764,   27590,   81884,  -96413,  -85414,   89739,   96510,   97131,   11153,   26629,   97131,   39720,   26629,  -85414,   58163,   96510,   97131,   12942,   26629
        65,          3200,  -15842,   93428,  -77589,   25908,   82885,  -95901,  -84476,   90981,   97151,   97193,   11849,   26631,   97193,   40595,   26631,  -84476,   59199,   97151,   97193,   13649,   26631
        66,          3250,  -17700,   94083,  -76386,   24214,   83858,  -95355,  -83517,   92193,   97694,   97254,   12526,   26632,   97254,   41447,   26632,  -83517,   60209,   97694,   97254,   14338,   26632
        67,          3300,  -19552,   94705,  -75156,   22510,   84802,  -94776,  -82537,   93375,   98155,   97314,   13186,   26633,   97314,   42277,   26633,  -82537,   61194,   98155,   97314,   15009,   26633
        68,          3350,  -21397,   95293,  -73900,   20795,   85719,  -94164,  -81539,   94527,   98544,   97373,   13829,   26633,   97373,   43084,   26633,  -81539,   62155,   98544,   97373,   15661,   26633
        69,          3400,  -23234,   95848,  -72617,   19070,   86609,  -93520,  -80524,   95651,   98871,   97432,   14455,   26634,   97432,   43871,   26634,  -80524,   63092,   98871,   97432,   16297,   26634
        70,          3450,  -25063,   96368,  -71308,   17334,   87472,  -92844,  -79491,   96748,   99143,   97489,   15064,   26635,   97489,   44637,   26635,  -79491,   64006,   99143,   97489,   16916,   26635
        71,          3500,  -26883,   96854,  -69974,   15588,   88308,  -92137,  -78443,   97817,   99368,   97546,   15657,   26635,   97546,   45383,   26635,  -78443,   64897,   99368,   97546,   17519,   26635
        72,          3550,  -28694,   97306,  -68615,   13832,   89118,  -91398,  -77381,   98751,   99551,   97602,   16235,   26635,   97602,   46109,   26635,  -77381,   65767,   99551,   97602,   18106,   26635
        73,          3600,  -30494,   97723,  -67232,   12066,   89902,  -90629,  -76306,   99424,   99697,   97657,   16797,   26635,   97657,   46816,   26635,  -76306,   66615,   99697,   97657,   18678,   26635
        74,          3650,  -32284,   98105,  -65824,   10291,   90659,  -89829,  -75218,   99832,   99809,   97711,   17345,   26635,   97711,   47504,   26635,  -75218,   67442,   99809,   97711,   19234,   26635
        75,          3700,  -34062,   98453,  -64394,    8506,   91391,  -88999,  -74121,   99998,   99893,   97764,   17878,   26635,   97764,   48174,   26635,  -74121,   68248,   99893,   97764,   19776,   26635
        76,          3750,  -35828,   98765,  -62940,    6713,   92096,  -88140,  -73015,   99949,   99950,   97816,   18397,   26634,   97816,   48826,   26634,  -73015,   69035,   99950,   97816,   20303,   26634
        77,          3800,  -37581,   99043,  -61464,    4912,   92776,  -87251,  -71902,   99703,   99985,   97867,   18902,   26634,   97867,   49462,   26634,  -71902,   69802,   99985,   97867,   20816,   26634
        78,          3850,  -39321,   99285,  -59967,    3104,   93429,  -86333,  -70782,   99280,   99999,   97917,   19394,   26633,   97917,   50080,   26633,  -70782,   70550,   99999,   97917,   21316,   26633
        79,          3900,  -41047,   99492,  -58448,    1289,   94055,  -85387,  -69657,   98698,   99994,   97967,   19873,   26632,   97967,   50682,   26632,  -69657,   71280,   99994,   97967,   21803,   26632
        80,          3950,  -42759,   99664,  -56908,    -531,   94654,  -84413,  -68527,   97972,   99972,   98015,   20340,   26631,   98015,   51268,   26631,  -68527,   71992,   99972,   98015,   22277,   26631
        81,          4000,  -44455,   99800,  -55348,   -2356,   95225,  -83410,  -67392,   97116,   99935,   98062,   20794,   26630,   98062,   51839,   26630,  -67392,   72686,   99935,   98062,   22738,   26630
