GTPPLOT creates from ieee13_pv_l3c2b3t1.pl4,999,1999                            
21,21A, 0D
  1,SBUS A          V-node,A, , V,  .938896179199219, -.15625         , 0.0,-99999, 99999,1.0,1.0,P
  2,SBUS B          V-node,B, , V,  .938885986804962, -.00390625      , 0.0,-99999, 99999,1.0,1.0,P
  3,SBUS C          V-node,C, , V,  .938876211643219, -.0078125       , 0.0,-99999, 99999,1.0,1.0,P
  4,SBUS A 22   A I-branch,A, , A,  .242830938078E-3, 1.28650093078613, 0.0,-99999, 99999,1.0,1.0,P
  5,SBUS B 22   B I-branch,B, , A,  .255035789451E-3, .129179000854492, 0.0,-99999, 99999,1.0,1.0,P
  6,SBUS C 22   C I-branch,C, , A,  .291091448162E-3, -.34662914276123, 0.0,-99999, 99999,1.0,1.0,P
  7,TACS   PV001V I-branch,S, , A,  .001360253780149, 136.024017333984, 0.0,-99999, 99999,1.0,1.0,P
  8,TACS   PV001I I-branch,S, , A,  .133291789098E-3, 13.3290462493896, 0.0,-99999, 99999,1.0,1.0,P
  9,TACS   PV001W I-branch,S, , A,  .002314885146916, 231.486190795898, 0.0,-99999, 99999,1.0,1.0,P
 10,TACS   PV002V I-branch,S, , A,  .002482420997694, 248.239624023438, 0.0,-99999, 99999,1.0,1.0,P
 11,TACS   PV002I I-branch,S, , A,  .001404200913385, 140.418685913086, 0.0,-99999, 99999,1.0,1.0,P
 12,TACS   PV002W I-branch,S, , A,  .341434088114E-5, 377.036285400391, 0.0,-99999, 99999,1.0,1.0,P
 13,TACS   ST001V I-branch,S, , A,  .002482420997694, 248.239624023438, 0.0,-99999, 99999,1.0,1.0,P
 14,TACS   ST001I I-branch,S, , A,  .585083733313E-3, 58.5077857971191, 0.0,-99999, 99999,1.0,1.0,P
 15,TACS   ST001W I-branch,S, , A,  .341434088114E-5, 377.036285400391, 0.0,-99999, 99999,1.0,1.0,P
 16,TACS   ST002V I-branch,S, , A,  .001360253780149, 136.024017333984, 0.0,-99999, 99999,1.0,1.0,P
 17,TACS   ST002I I-branch,S, , A,  .133476976771E-3, 13.3475637435913, 0.0,-99999, 99999,1.0,1.0,P
 18,TACS   ST002W I-branch,S, , A,  .002314885146916, 231.486190795898, 0.0,-99999, 99999,1.0,1.0,P
 19,TACS   ST003V I-branch,S, , A,  .002482420997694, 248.239624023438, 0.0,-99999, 99999,1.0,1.0,P
 20,TACS   ST003I I-branch,S, , A,  .468066980829E-3, 46.8062286376953, 0.0,-99999, 99999,1.0,1.0,P
 21,TACS   ST003W I-branch,S, , A,  .341434088114E-5, 377.036285400391, 0.0,-99999, 99999,1.0,1.0,P
 50
1
     20000,  12001
18/12/2022,22:55:55.000000
18/12/2022,22:55:55.000000
ASCII 
    1.000000
         1,             0,   86605,     -17,  -86591,   99998,  -36320,  -55272,  -99999,  -99999,  -99999,  -99999,  -99999,  -13238,  -99999,  -99999,  -13238,  -99999,  -99999,  -99999,  -99999,  -99999,  -13238
         2,            50,   85647,    1868,  -87518,   99979,  -34334,  -56997,  -99983,  -97526,   62856,   93360,  -97461,  -13238,   93360,  -97461,  -13238,  -99983,  -97529,   62856,   93360,  -97461,  -13238
         3,           100,   84660,    3752,  -88415,   99903,  -32336,  -58684,  -99645,  -92639,   62856,   93352,  -92448,  -15016,   93352,  -92448,  -15016,  -99645,  -92649,   62856,   93352,  -92448,  -15016
         4,           150,   83642,    5635,  -89280,   99740,  -30328,  -60306,  -98936,  -87873,   62666,   93376,  -87559,  -17725,   93376,  -87559,  -17725,  -98936,  -87890,   62666,   93376,  -87559,  -17725
         5,           200,   82594,    7515,  -90113,   99496,  -28311,  -61870,  -98222,  -83225,   62374,   93435,  -82791,  -19557,   93435,  -82791,  -19557,  -98222,  -83248,   62374,   93435,  -82791,  -19557
         6,           250,   81517,    9394,  -90914,   99197,  -26286,  -63395,  -97514,  -78691,   62179,   93516,  -78143,  -21345,   93516,  -78143,  -21345,  -97514,  -78721,   62179,   93516,  -78143,  -21345
         7,           300,   80411,   11268,  -91683,   98855,  -24255,  -64889,  -96829,  -74270,   62002,   93605,  -73612,  -23016,   93605,  -73612,  -23016,  -96829,  -74306,   62002,   93605,  -73612,  -23016
         8,           350,   79277,   13139,  -92419,   98473,  -22220,  -66353,  -96172,  -69958,   61833,   93696,  -69195,  -24562,   93696,  -69195,  -24562,  -96172,  -69999,   61833,   93696,  -69195,  -24562
         9,           400,   78114,   15005,  -93123,   98052,  -20182,  -67788,  -95544,  -65752,   61671,   93787,  -64889,  -25983,   93787,  -64889,  -25983,  -95544,  -65799,   61671,   93787,  -64889,  -25983
        10,           450,   76923,   16866,  -93793,   97593,  -18141,  -69193,  -94947,  -61650,   61514,   93877,  -60693,  -27253,   93877,  -60693,  -27253,  -94947,  -61703,   61514,   93877,  -60693,  -27253
        11,           500,   75706,   18721,  -94430,   97094,  -16098,  -70567,  -94379,  -57649,   61361,   93967,  -56602,  -28397,   93967,  -56602,  -28397,  -94379,  -57708,   61361,   93967,  -56602,  -28397
        12,           550,   74461,   20569,  -95033,   96556,  -14053,  -71909,  -93841,  -53747,   61214,   94057,  -52614,  -29416,   94057,  -52614,  -29416,  -93841,  -53811,   61214,   94057,  -52614,  -29416
        13,           600,   73190,   22410,  -95603,   95979,  -12009,  -73219,  -93332,  -49941,   61071,   94145,  -48728,  -30309,   94145,  -48728,  -30309,  -93332,  -50011,   61071,   94145,  -48728,  -30309
        14,           650,   71892,   24243,  -96139,   95362,   -9965,  -74496,  -92853,  -46230,   60933,   94233,  -44939,  -31105,   94233,  -44939,  -31105,  -92853,  -46304,   60933,   94233,  -44939,  -31105
        15,           700,   70570,   26068,  -96640,   94707,   -7922,  -75739,  -92404,  -42610,   60800,   94320,  -41247,  -31784,   94320,  -41247,  -31784,  -92404,  -42689,   60800,   94320,  -41247,  -31784
        16,           750,   69222,   27883,  -97107,   94014,   -5882,  -76949,  -91983,  -39079,   60673,   94407,  -37648,  -32374,   94407,  -37648,  -32374,  -91983,  -39164,   60673,   94407,  -37648,  -32374
        17,           800,   67849,   29688,  -97540,   93285,   -3845,  -78124,  -91592,  -35636,   60551,   94494,  -34140,  -32875,   94494,  -34140,  -32875,  -91592,  -35725,   60551,   94494,  -34140,  -32875
        18,           850,   66453,   31482,  -97938,   92520,   -1813,  -79266,  -91230,  -32277,   60435,   94580,  -30720,  -33295,   94580,  -30720,  -33295,  -91230,  -32371,   60435,   94580,  -30720,  -33295
        19,           900,   65032,   33266,  -98301,   91720,     214,  -80375,  -90897,  -29002,   60325,   94665,  -27388,  -33634,   94665,  -27388,  -33634,  -90897,  -29100,   60325,   94665,  -27388,  -33634
        20,           950,   63589,   35037,  -98630,   90888,    2234,  -81450,  -90593,  -25807,   60222,   94750,  -24140,  -33894,   94750,  -24140,  -33894,  -90593,  -25910,   60222,   94750,  -24140,  -33894
        21,          1000,   62123,   36797,  -98923,   90024,    4245,  -82492,  -90317,  -22691,   60126,   94835,  -20974,  -34090,   94835,  -20974,  -34090,  -90317,  -22799,   60126,   94835,  -20974,  -34090
        22,          1050,   60635,   38543,  -99181,   89130,    6248,  -83501,  -90069,  -19653,   60038,   94919,  -17889,  -34215,   94919,  -17889,  -34215,  -90069,  -19764,   60038,   94919,  -17889,  -34215
        23,          1100,   59126,   40275,  -99404,   88209,    8241,  -84478,  -89849,  -16689,   59958,   95002,  -14882,  -34269,   95002,  -14882,  -34269,  -89849,  -16804,   59958,   95002,  -14882,  -34269
        24,          1150,   57595,   41993,  -99591,   87260,   10222,  -85423,  -89658,  -13798,   59887,   95085,  -11951,  -34260,   95085,  -11951,  -34260,  -89658,  -13918,   59887,   95085,  -11951,  -34260
        25,          1200,   56044,   43696,  -99743,   86286,   12192,  -86337,  -89494,  -10979,   59825,   95167,   -9095,  -34198,   95167,   -9095,  -34198,  -89494,  -11102,   59825,   95167,   -9095,  -34198
        26,          1250,   54473,   45384,  -99860,   85288,   14149,  -87219,  -89357,   -8229,   59774,   95249,   -6312,  -34072,   95249,   -6312,  -34072,  -89357,   -8357,   59774,   95249,   -6312,  -34072
        27,          1300,   52883,   47056,  -99941,   84268,   16093,  -88070,  -89248,   -5548,   59734,   95330,   -3599,  -33885,   95330,   -3599,  -33885,  -89248,   -5679,   59734,   95330,   -3599,  -33885
        28,          1350,   51274,   48710,  -99987,   83226,   18022,  -88892,  -89165,   -2932,   59706,   95410,    -956,  -33643,   95410,    -956,  -33643,  -89165,   -3067,   59706,   95410,    -956,  -33643
        29,          1400,   49646,   50348,  -99997,   82164,   19937,  -89683,  -89109,    -381,   59691,   95489,    1621,  -33357,   95489,    1621,  -33357,  -89109,    -519,   59691,   95489,    1621,  -33357
        30,          1450,   48001,   51968,  -99972,   81083,   21836,  -90445,  -89079,    2107,   59691,   95568,    4131,  -33009,   95568,    4131,  -33009,  -89079,    1965,   59691,   95568,    4131,  -33009
        31,          1500,   46339,   53569,  -99911,   79983,   23720,  -91178,  -89075,    4533,   59706,   95646,    6578,  -32624,   95646,    6578,  -32624,  -89075,    4388,   59706,   95646,    6578,  -32624
        32,          1550,   44661,   55151,  -99814,   78865,   25587,  -91882,  -89096,    6900,   59740,   95723,    8962,  -32186,   95723,    8962,  -32186,  -89096,    6752,   59740,   95723,    8962,  -32186
        33,          1600,   42966,   56713,  -99682,   77731,   27438,  -92557,  -89142,    9208,   59792,   95800,   11285,  -31704,   95800,   11285,  -31704,  -89142,    9057,   59792,   95800,   11285,  -31704
        34,          1650,   41257,   58256,  -99515,   76579,   29273,  -93204,  -89212,   11459,   59866,   95875,   13550,  -31185,   95875,   13550,  -31185,  -89212,   11305,   59866,   95875,   13550,  -31185
        35,          1700,   39532,   59777,  -99312,   75411,   31090,  -93822,  -89305,   13655,   59964,   95950,   15756,  -30631,   95950,   15756,  -30631,  -89305,   13497,   59964,   95950,   15756,  -30631
        36,          1750,   37794,   61278,  -99074,   74227,   32891,  -94412,  -89422,   15796,   60089,   96024,   17906,  -30050,   96024,   17906,  -30050,  -89422,   15635,   60089,   96024,   17906,  -30050
        37,          1800,   36042,   62756,  -98801,   73027,   34674,  -94973,  -89561,   17885,   60243,   96097,   20000,  -29434,   96097,   20000,  -29434,  -89561,   17721,   60243,   96097,   20000,  -29434
        38,          1850,   34278,   64213,  -98493,   71811,   36440,  -95505,  -89722,   19922,   60432,   96170,   22042,  -28799,   96170,   22042,  -28799,  -89722,   19755,   60432,   96170,   22042,  -28799
        39,          1900,   32501,   65646,  -98150,   70578,   38189,  -96010,  -89903,   21908,   60659,   96242,   24031,  -28138,   96242,   24031,  -28138,  -89903,   21739,   60659,   96242,   24031,  -28138
        40,          1950,   30713,   67056,  -97772,   69330,   39920,  -96485,  -90103,   23846,   60930,   96312,   25969,  -27467,   96312,   25969,  -27467,  -90103,   23674,   60930,   96312,   25969,  -27467
        41,          2000,   28913,   68443,  -97359,   68066,   41634,  -96931,  -90321,   25736,   61251,   96383,   27857,  -26788,   96383,   27857,  -26788,  -90321,   25561,   61251,   96383,   27857,  -26788
        42,          2050,   27104,   69805,  -96911,   66785,   43330,  -97349,  -90556,   27579,   61631,   96452,   29698,  -26100,   96452,   29698,  -26100,  -90556,   27402,   61631,   96452,   29698,  -26100
        43,          2100,   25285,   71142,  -96429,   65487,   45008,  -97737,  -90804,   29376,   62078,   96521,   31490,  -25411,   96521,   31490,  -25411,  -90804,   29197,   62078,   96521,   31490,  -25411
        44,          2150,   23457,   72454,  -95913,   64173,   46668,  -98095,  -91065,   31129,   62606,   96588,   33237,  -24723,   96588,   33237,  -24723,  -91065,   30947,   62606,   96588,   33237,  -24723
        45,          2200,   21620,   73740,  -95363,   62843,   48310,  -98424,  -91334,   32839,   63228,   96656,   34939,  -24053,   96656,   34939,  -24053,  -91334,   32655,   63228,   96656,   34939,  -24053
        46,          2250,   19776,   75000,  -94779,   61495,   49933,  -98722,  -91608,   34507,   63961,   96722,   36598,  -23382,   96722,   36598,  -23382,  -91608,   34320,   63961,   96722,   36598,  -23382
        47,          2300,   17925,   76234,  -94161,   60131,   51538,  -98990,  -91881,   36133,   64830,   96788,   38213,  -22739,   96788,   38213,  -22739,  -91881,   35945,   64830,   96788,   38213,  -22739
        48,          2350,   16068,   77440,  -93510,   58751,   53123,  -99227,  -92147,   37720,   65859,   96852,   39787,  -22104,   96852,   39787,  -22104,  -92147,   37529,   65859,   96852,   39788,  -22104
        49,          2400,   14204,   78619,  -92826,   57355,   54688,  -99433,  -92395,   39267,   67083,   96917,   41321,  -21497,   96917,   41321,  -21497,  -92395,   39074,   67083,   96917,   41321,  -21497
        50,          2450,   12336,   79770,  -92108,   55942,   56232,  -99608,  -92612,   40776,   68538,   96980,   42815,  -20916,   96980,   42815,  -20916,  -92612,   40581,   68538,   96980,   42815,  -20916
        51,          2500,   10463,   80892,  -91358,   54515,   57754,  -99751,  -92782,   42248,   70262,   97043,   44271,  -20352,   97043,   44271,  -20352,  -92782,   42050,   70262,   97043,   44271,  -20352
        52,          2550,    8587,   81986,  -90575,   53073,   59254,  -99862,  -92883,   43683,   72287,   97105,   45689,  -19825,   97105,   45689,  -19825,  -92883,   43484,   72287,   97105,   45689,  -19825
        53,          2600,    6708,   83050,  -89761,   51617,   60729,  -99941,  -92887,   45083,   74617,   97166,   47071,  -19316,   97166,   47071,  -19316,  -92887,   44882,   74617,   97166,   47071,  -19316
        54,          2650,    4826,   84086,  -88914,   50148,   62181,  -99986,  -92768,   46448,   77215,   97227,   48417,  -18842,   97227,   48417,  -18842,  -92768,   46245,   77215,   97227,   48417,  -18842
        55,          2700,    2942,   85091,  -88036,   48665,   63608,  -99999,  -92504,   47780,   79976,   97287,   49728,  -18395,   97287,   49728,  -18395,  -92504,   47575,   79976,   97287,   49728,  -18395
        56,          2750,    1058,   86066,  -87126,   47167,   65010,  -99979,  -92089,   49079,   82746,   97346,   51005,  -17975,   97346,   51005,  -17975,  -92089,   48872,   82746,   97346,   51005,  -17975
        57,          2800,    -827,   87010,  -86186,   45656,   66389,  -99926,  -91536,   50346,   85358,   97405,   52249,  -17591,   97405,   52249,  -17591,  -91536,   50137,   85358,   97405,   52249,  -17591
        58,          2850,   -2711,   87924,  -85214,   44128,   67744,  -99839,  -90871,   51581,   87696,   97463,   53461,  -17251,   97463,   53461,  -17251,  -90871,   51371,   87696,   97463,   53461,  -17251
        59,          2900,   -4595,   88806,  -84213,   42585,   69075,  -99718,  -90128,   52786,   89710,   97520,   54642,  -16956,   97520,   54642,  -16956,  -90128,   52574,   89710,   97520,   54642,  -16956
        60,          2950,   -6477,   89657,  -83182,   41027,   70383,  -99564,  -89331,   53961,   91411,   97577,   55792,  -16706,   97577,   55792,  -16706,  -89331,   53747,   91411,   97577,   55792,  -16706
        61,          3000,   -8357,   90476,  -82121,   39454,   71666,  -99376,  -88499,   55107,   92838,   97633,   56913,  -16509,   97633,   56913,  -16509,  -88499,   54892,   92838,   97633,   56913,  -16509
        62,          3050,  -10233,   91262,  -81031,   37866,   72924,  -99153,  -87639,   56225,   94036,   97688,   58004,  -16375,   97688,   58004,  -16375,  -87639,   56008,   94036,   97688,   58004,  -16375
        63,          3100,  -12107,   92017,  -79912,   36265,   74156,  -98898,  -86755,   57315,   95047,   97742,   59067,  -16286,   97742,   59067,  -16286,  -86755,   57097,   95047,   97742,   59067,  -16286
        64,          3150,  -13975,   92738,  -78765,   34651,   75362,  -98608,  -85849,   58379,   95902,   97796,   60102,  -16259,   97796,   60102,  -16259,  -85849,   58159,   95902,   97796,   60102,  -16259
        65,          3200,  -15839,   93427,  -77590,   33025,   76542,  -98285,  -84922,   59416,   96628,   97849,   61110,  -16277,   97849,   61110,  -16277,  -84922,   59195,   96628,   97849,   61110,  -16277
        66,          3250,  -17697,   94082,  -76387,   31386,   77695,  -97928,  -83975,   60427,   97245,   97901,   62093,  -16348,   97901,   62093,  -16348,  -83975,   60205,   97245,   97901,   62093,  -16348
        67,          3300,  -19549,   94704,  -75157,   29735,   78822,  -97538,  -83007,   61414,   97769,   97952,   63049,  -16473,   97952,   63049,  -16473,  -83007,   61190,   97769,   97952,   63049,  -16473
        68,          3350,  -21394,   95293,  -73900,   28072,   79922,  -97115,  -82021,   62376,   98214,   98002,   63981,  -16643,   98002,   63981,  -16643,  -82021,   62151,   98214,   98002,   63981,  -16643
        69,          3400,  -23231,   95847,  -72617,   26398,   80995,  -96658,  -81017,   63314,   98590,   98051,   64889,  -16876,   98051,   64889,  -16876,  -81017,   63088,   98590,   98051,   64889,  -16876
        70,          3450,  -25061,   96367,  -71309,   24713,   82042,  -96169,  -79996,   64229,   98906,   98100,   65772,  -17153,   98100,   65772,  -17153,  -79996,   64002,   98906,   98100,   65772,  -17153
        71,          3500,  -26881,   96854,  -69975,   23017,   83061,  -95648,  -78960,   65122,   99169,   98147,   66633,  -17483,   98147,   66633,  -17483,  -78960,   64893,   99169,   98147,   66633,  -17483
        72,          3550,  -28691,   97305,  -68616,   21310,   84055,  -95094,  -77908,   65993,   99387,   98194,   67472,  -17868,   98194,   67472,  -17868,  -77908,   65762,   99387,   98194,   67472,  -17868
        73,          3600,  -30492,   97723,  -67233,   19593,   85021,  -94508,  -76843,   66842,   99564,   98240,   68288,  -18306,   98240,   68288,  -18306,  -76843,   66610,   99564,   98240,   68288,  -18306
        74,          3650,  -32281,   98105,  -65825,   17866,   85961,  -93891,  -75765,   67670,   99706,   98284,   69084,  -18797,   98284,   69084,  -18797,  -75765,   67437,   99706,   98284,   69084,  -18797
        75,          3700,  -34059,   98453,  -64395,   16129,   86874,  -93242,  -74675,   68478,   99815,   98327,   69858,  -19342,   98327,   69858,  -19342,  -74675,   68244,   99815,   98327,   69858,  -19342
        76,          3750,  -35825,   98765,  -62942,   14382,   87760,  -92561,  -73575,   69265,   99896,   98370,   70613,  -19932,   98370,   70613,  -19932,  -73575,   69030,   99896,   98370,   70613,  -19932
        77,          3800,  -37579,   99043,  -61466,   12628,   88618,  -91850,  -72465,   70034,   99952,   98411,   71347,  -20576,   98411,   71347,  -20576,  -72465,   69798,   99952,   98411,   71347,  -20576
        78,          3850,  -39319,   99285,  -59968,   10865,   89450,  -91108,  -71346,   70783,   99986,   98451,   72063,  -21264,   98451,   72063,  -21264,  -71346,   70546,   99986,   98451,   72063,  -21264
        79,          3900,  -41045,   99492,  -58449,    9094,   90253,  -90335,  -70220,   71514,   99998,   98490,   72760,  -21997,   98490,   72760,  -21997,  -70220,   71276,   99998,   98490,   72760,  -21997
        80,          3950,  -42756,   99664,  -56910,    7317,   91029,  -89532,  -69086,   72226,   99993,   98528,   73438,  -22775,   98528,   73438,  -22775,  -69086,   71987,   99993,   98528,   73438,  -22775
        81,          4000,  -44452,   99800,  -55350,    5534,   91776,  -88699,  -67947,   72922,   99971,   98565,   74099,  -23597,   98565,   74099,  -23597,  -67947,   72682,   99971,   98565,   74099,  -23597
