GTPPLOT creates from ieee13_pv_l1c2b3t2.pl4,999,1999                            
21,21A, 0D
  1,SBUS A          V-node,A, , V,  .938954055309296, -.015625        , 0.0,-99999, 99999,1.0,1.0,P
  2,SBUS B          V-node,B, , V,  .938969969749451, -.00390625      , 0.0,-99999, 99999,1.0,1.0,P
  3,SBUS C          V-node,C, , V,  .938955903053284, -.58984375      , 0.0,-99999, 99999,1.0,1.0,P
  4,SBUS A 22   A I-branch,A, , A,  .822859292384E-4, 1.22066402435303, 0.0,-99999, 99999,1.0,1.0,P
  5,SBUS B 22   B I-branch,B, , A,  .80443394836E-4 , .118399858474731, 0.0,-99999, 99999,1.0,1.0,P
  6,SBUS C 22   C I-branch,C, , A,  .10350941011E-3 , -.67328548431396, 0.0,-99999, 99999,1.0,1.0,P
  7,TACS   PV001V I-branch,S, , A,  .001405746908858, 140.573287963867, 0.0,-99999, 99999,1.0,1.0,P
  8,TACS   PV001I I-branch,S, , A,  .133233872475E-3, 13.3232545852661, 0.0,-99999, 99999,1.0,1.0,P
  9,TACS   PV001W I-branch,S, , A,  .002324781147763, 232.475784301758, 0.0,-99999, 99999,1.0,1.0,P
 10,TACS   PV002V I-branch,S, , A,  .002565402537584, 256.537689208984, 0.0,-99999, 99999,1.0,1.0,P
 11,TACS   PV002I I-branch,S, , A,  .001351898768917, 135.188522338867, 0.0,-99999, 99999,1.0,1.0,P
 12,TACS   PV002W I-branch,S, , A,  .46411596486E-5 , 377.428955078125, 0.0,-99999, 99999,1.0,1.0,P
 13,TACS   ST001V I-branch,S, , A,  .002565402537584, 256.537689208984, 0.0,-99999, 99999,1.0,1.0,P
 14,TACS   ST001I I-branch,S, , A,  .563291134313E-3, 56.3285484313965, 0.0,-99999, 99999,1.0,1.0,P
 15,TACS   ST001W I-branch,S, , A,  .46411596486E-5 , 377.428955078125, 0.0,-99999, 99999,1.0,1.0,P
 16,TACS   ST002V I-branch,S, , A,  .001405746908858, 140.573287963867, 0.0,-99999, 99999,1.0,1.0,P
 17,TACS   ST002I I-branch,S, , A,  .133546331199E-3, 13.3544998168945, 0.0,-99999, 99999,1.0,1.0,P
 18,TACS   ST002W I-branch,S, , A,  .002324781147763, 232.475784301758, 0.0,-99999, 99999,1.0,1.0,P
 19,TACS   ST003V I-branch,S, , A,  .002565402537584, 256.537689208984, 0.0,-99999, 99999,1.0,1.0,P
 20,TACS   ST003I I-branch,S, , A,  .450632913271E-3, 45.0628395080566, 0.0,-99999, 99999,1.0,1.0,P
 21,TACS   ST003W I-branch,S, , A,  .46411596486E-5 , 377.428955078125, 0.0,-99999, 99999,1.0,1.0,P
 50
1
     20000,  12001
18/12/2022,22:55:50.000000
18/12/2022,22:55:50.000000
ASCII 
    1.000000
         1,             0,   86604,      -8,  -86597,   99999,     531,  -86341,  -99999,  -99999,  -99999,  -99999,  -99999,  -94345,  -99999,  -99999,  -94345,  -99999,  -99999,  -99999,  -99999,  -99999,  -94345
         2,            50,   85646,    1877,  -87524,   99336,    3085,  -87799,  -99984,  -97525,   62162,   87106,  -97363,  -94345,   87106,  -97363,  -94345,  -99984,  -97530,   62162,   87106,  -97363,  -94345
         3,           100,   84659,    3761,  -88421,   98526,    5636,  -89138,  -99655,  -92636,   62162,   87153,  -92157,  -94075,   87153,  -92157,  -94075,  -99655,  -92653,   62162,   87153,  -92157,  -94075
         4,           150,   83641,    5644,  -89286,   97454,    8184,  -90265,  -98956,  -87868,   61968,   87297,  -87081,  -92951,   87297,  -87081,  -92951,  -98956,  -87896,   61968,   87297,  -87081,  -92951
         5,           200,   82593,    7525,  -90119,   96230,   10725,  -91268,  -98243,  -83218,   61673,   87485,  -82136,  -91294,   87485,  -82136,  -91294,  -98243,  -83257,   61673,   87485,  -82136,  -91294
         6,           250,   81516,    9403,  -90920,   94974,   13248,  -92230,  -97543,  -78682,   61483,   87687,  -77318,  -89670,   87687,  -77318,  -89670,  -97543,  -78732,   61483,   87687,  -77318,  -89670
         7,           300,   80410,   11278,  -91688,   93682,   15749,  -93146,  -96876,  -74259,   61310,   87884,  -72625,  -88006,   87884,  -72625,  -88006,  -96876,  -74319,   61310,   87884,  -72625,  -88006
         8,           350,   79275,   13149,  -92424,   92348,   18228,  -94012,  -96239,  -69945,   61146,   88077,  -68053,  -86309,   88077,  -68053,  -86309,  -96239,  -70015,   61146,   88077,  -68053,  -86309
         9,           400,   78112,   15015,  -93128,   90967,   20686,  -94825,  -95633,  -65737,   60987,   88265,  -63599,  -84587,   88265,  -63599,  -84587,  -95633,  -65817,   60987,   88265,  -63599,  -84587
        10,           450,   76921,   16875,  -93798,   89537,   23122,  -95581,  -95056,  -61633,   60833,   88450,  -59260,  -82831,   88450,  -59260,  -82831,  -95056,  -61723,   60833,   88450,  -59260,  -82831
        11,           500,   75703,   18730,  -94435,   88055,   25535,  -96278,  -94509,  -57631,   60683,   88632,  -55034,  -81056,   88632,  -55034,  -81056,  -94509,  -57730,   60683,   88632,  -55034,  -81056
        12,           550,   74459,   20578,  -95038,   86522,   27923,  -96915,  -93991,  -53727,   60539,   88809,  -50917,  -79254,   88809,  -50917,  -79254,  -93991,  -53835,   60539,   88809,  -50917,  -79254
        13,           600,   73187,   22419,  -95608,   84936,   30286,  -97491,  -93503,  -49920,   60398,   88984,  -46906,  -77433,   88984,  -46906,  -77433,  -93503,  -50037,   60398,   88984,  -46906,  -77433
        14,           650,   71890,   24252,  -96143,   83299,   32621,  -98005,  -93045,  -46206,   60263,   89155,  -43000,  -75592,   89155,  -43000,  -75592,  -93045,  -46332,   60263,   89155,  -43000,  -75592
        15,           700,   70567,   26077,  -96645,   81614,   34926,  -98456,  -92616,  -42585,   60133,   89323,  -39194,  -73731,   89323,  -39194,  -73731,  -92616,  -42719,   60133,   89323,  -39194,  -73731
        16,           750,   69219,   27892,  -97112,   79882,   37199,  -98846,  -92216,  -39053,   60009,   89488,  -35487,  -71850,   89488,  -35487,  -71850,  -92216,  -39195,   60009,   89488,  -35487,  -71850
        17,           800,   67846,   29697,  -97544,   78108,   39438,  -99176,  -91846,  -35608,   59890,   89651,  -31876,  -69956,   89651,  -31876,  -69956,  -91846,  -35758,   59890,   89651,  -31876,  -69956
        18,           850,   66450,   31491,  -97942,   76296,   41641,  -99447,  -91504,  -32248,   59778,   89810,  -28359,  -68043,   89810,  -28359,  -68043,  -91504,  -32406,   59778,   89810,  -28359,  -68043
        19,           900,   65029,   33275,  -98305,   74451,   43804,  -99661,  -91191,  -28971,   59672,   89967,  -24932,  -66110,   89967,  -24932,  -66110,  -91191,  -29137,   59672,   89967,  -24932,  -66110
        20,           950,   63586,   35046,  -98633,   72577,   45925,  -99821,  -90907,  -25775,   59573,   90120,  -21595,  -64157,   90120,  -21595,  -64157,  -90907,  -25949,   59573,   90120,  -21595,  -64157
        21,          1000,   62120,   36805,  -98927,   70682,   48002,  -99928,  -90651,  -22658,   59481,   90272,  -18344,  -62184,   90272,  -18344,  -62184,  -90651,  -22839,   59481,   90272,  -18344,  -62184
        22,          1050,   60632,   38551,  -99184,   68770,   50034,  -99987,  -90423,  -19618,   59398,   90420,  -15178,  -60185,   90420,  -15178,  -60185,  -90423,  -19806,   59398,   90420,  -15178,  -60185
        23,          1100,   59122,   40284,  -99407,   66847,   52017,  -99999,  -90224,  -16653,   59324,   90566,  -12093,  -58160,   90566,  -12093,  -58160,  -90224,  -16848,   59324,   90566,  -12093,  -58160
        24,          1150,   57591,   42002,  -99595,   64919,   53950,  -99970,  -90052,  -13761,   59259,   90709,   -9089,  -56115,   90709,   -9089,  -56115,  -90052,  -13962,   59259,   90709,   -9089,  -56115
        25,          1200,   56040,   43705,  -99747,   62992,   55833,  -99901,  -89908,  -10940,   59204,   90849,   -6163,  -54031,   90849,   -6163,  -54031,  -89908,  -11149,   59204,   90849,   -6163,  -54031
        26,          1250,   54469,   45393,  -99863,   61072,   57664,  -99797,  -89792,   -8189,   59160,   90986,   -3313,  -51927,   90986,   -3313,  -51927,  -89792,   -8404,   59160,   90986,   -3313,  -51927
        27,          1300,   52879,   47064,  -99944,   59162,   59442,  -99661,  -89702,   -5507,   59129,   91121,    -536,  -49783,   91121,    -536,  -49783,  -89702,   -5728,   59129,   91121,    -536,  -49783
        28,          1350,   51269,   48719,  -99990,   57268,   61167,  -99496,  -89640,   -2890,   59110,   91254,    2168,  -47600,   91254,    2168,  -47600,  -89640,   -3117,   59110,   91254,    2168,  -47600
        29,          1400,   49642,   50356,  -99999,   55393,   62840,  -99305,  -89603,    -338,   59107,   91383,    4801,  -45391,   91383,    4801,  -45391,  -89603,    -571,   59107,   91383,    4801,  -45391
        30,          1450,   47997,   51976,  -99974,   53542,   64459,  -99093,  -89593,    2151,   59119,   91510,    7366,  -43135,   91510,    7366,  -43135,  -89593,    1912,   59119,   91510,    7366,  -43135
        31,          1500,   46334,   53577,  -99913,   51717,   66028,  -98861,  -89609,    4579,   59149,   91635,    9865,  -40847,   91635,    9865,  -40847,  -89609,    4334,   59149,   91635,    9865,  -40847
        32,          1550,   44656,   55159,  -99816,   49920,   67545,  -98612,  -89650,    6946,   59198,   91757,   12298,  -38519,   91757,   12298,  -38519,  -89650,    6696,   59198,   91757,   12298,  -38519
        33,          1600,   42961,   56721,  -99684,   48153,   69013,  -98348,  -89715,    9255,   59269,   91877,   14668,  -36152,   91877,   14668,  -36152,  -89715,    9000,   59269,   91877,   14668,  -36152
        34,          1650,   41251,   58264,  -99517,   46417,   70434,  -98071,  -89805,   11508,   59364,   91994,   16977,  -33746,   91994,   16977,  -33746,  -89805,   11247,   59364,   91994,   16977,  -33746
        35,          1700,   39527,   59785,  -99314,   44712,   71808,  -97784,  -89918,   13704,   59487,   92109,   19225,  -31306,   92109,   19225,  -31306,  -89918,   13438,   59487,   92109,   19225,  -31306
        36,          1750,   37788,   61285,  -99076,   43038,   73137,  -97486,  -90054,   15846,   59640,   92221,   21415,  -28827,   92221,   21415,  -28827,  -90054,   15575,   59640,   92221,   21415,  -28827
        37,          1800,   36036,   62764,  -98802,   41393,   74424,  -97179,  -90213,   17936,   59827,   92331,   23548,  -26322,   92331,   23548,  -26322,  -90213,   17660,   59827,   92331,   23548,  -26322
        38,          1850,   34272,   64220,  -98494,   39777,   75672,  -96864,  -90392,   19974,   60055,   92440,   25625,  -23784,   92440,   25625,  -23784,  -90392,   19693,   60055,   92440,   25625,  -23784
        39,          1900,   32495,   65654,  -98150,   38188,   76880,  -96539,  -90591,   21961,   60328,   92546,   27648,  -21213,   92546,   27648,  -21213,  -90591,   21676,   60328,   92546,   27648,  -21213
        40,          1950,   30706,   67064,  -97772,   36623,   78053,  -96207,  -90809,   23900,   60653,   92650,   29618,  -18622,   92650,   29618,  -18622,  -90809,   23610,   60653,   92650,   29618,  -18622
        41,          2000,   28907,   68450,  -97359,   35079,   79192,  -95865,  -91044,   25790,   61040,   92752,   31537,  -16012,   92752,   31537,  -16012,  -91044,   25496,   61040,   92752,   31537,  -16012
        42,          2050,   27097,   69812,  -96911,   33554,   80299,  -95513,  -91294,   27634,   61500,   92852,   33406,  -13381,   92852,   33406,  -13381,  -91294,   27335,   61500,   92852,   33406,  -13381
        43,          2100,   25278,   71149,  -96429,   32046,   81376,  -95150,  -91557,   29432,   62045,   92951,   35226,  -10738,   92951,   35226,  -10738,  -91557,   29130,   62045,   92951,   35226,  -10738
        44,          2150,   23450,   72461,  -95913,   30551,   82423,  -94776,  -91830,   31186,   62692,   93048,   36999,   -8088,   93048,   36999,   -8088,  -91830,   30879,   62692,   93048,   36999,   -8088
        45,          2200,   21614,   73747,  -95362,   29066,   83442,  -94388,  -92108,   32897,   63464,   93143,   38725,   -5432,   93143,   38725,   -5432,  -92108,   32586,   63464,   93143,   38725,   -5432
        46,          2250,   19769,   75007,  -94778,   27589,   84434,  -93984,  -92386,   34565,   64386,   93237,   40406,   -2775,   93237,   40406,   -2775,  -92386,   34251,   64386,   93237,   40406,   -2775
        47,          2300,   17918,   76240,  -94160,   26118,   85398,  -93564,  -92657,   36193,   65494,   93330,   42043,    -119,   93330,   42043,    -119,  -92657,   35874,   65494,   93330,   42043,    -119
        48,          2350,   16061,   77446,  -93509,   24652,   86333,  -93125,  -92909,   37780,   66830,   93421,   43637,    2524,   93421,   43637,    2524,  -92909,   37457,   66830,   93421,   43637,    2524
        49,          2400,   14197,   78625,  -92824,   23189,   87238,  -92665,  -93128,   39328,   68443,   93511,   45190,    5161,   93511,   45190,    5161,  -93128,   39002,   68443,   93511,   45190,    5161
        50,          2450,   12329,   79775,  -92106,   21729,   88111,  -92183,  -93292,   40837,   70386,   93600,   46702,    7791,   93600,   46702,    7791,  -93292,   40508,   70386,   93600,   46702,    7791
        51,          2500,   10456,   80898,  -91356,   20271,   88950,  -91676,  -93373,   42310,   72695,   93687,   48174,   10402,   93687,   48174,   10402,  -93373,   41977,   72695,   93687,   48174,   10402
        52,          2550,    8580,   81991,  -90573,   18816,   89752,  -91143,  -93339,   43746,   75363,   93774,   49607,   12999,   93774,   49607,   12999,  -93339,   43409,   75363,   93774,   49607,   12999
        53,          2600,    6701,   83056,  -89758,   17359,   90519,  -90581,  -93157,   45146,   78302,   93859,   51003,   15583,   93859,   51003,   15583,  -93157,   44806,   78302,   93859,   51003,   15583
        54,          2650,    4819,   84091,  -88912,   15896,   91254,  -89989,  -92809,   46512,   81329,   93944,   52362,   18148,   93944,   52362,   18148,  -92809,   46169,   81329,   93944,   52362,   18148
        55,          2700,    2935,   85096,  -88033,   14420,   91960,  -89365,  -92304,   47844,   84219,   94028,   53686,   20679,   94028,   53686,   20679,  -92304,   47498,   84219,   94028,   53686,   20679
        56,          2750,    1051,   86071,  -87124,   12928,   92642,  -88708,  -91676,   49144,   86800,   94111,   54974,   23178,   94111,   54974,   23178,  -91676,   48795,   86800,   94111,   54974,   23178
        57,          2800,    -834,   87015,  -86183,   11417,   93299,  -88017,  -90965,   50411,   89003,   94194,   56229,   25637,   94194,   56229,   25637,  -90965,   50059,   89003,   94194,   56229,   25637
        58,          2850,   -2719,   87928,  -85212,    9887,   93929,  -87291,  -90203,   51647,   90845,   94275,   57450,   28050,   94275,   57450,   28050,  -90203,   51292,   90845,   94275,   57450,   28050
        59,          2900,   -4602,   88810,  -84210,    8341,   94531,  -86530,  -89406,   52852,   92382,   94356,   58639,   30417,   94356,   58639,   30417,  -89406,   52495,   92382,   94356,   58639,   30417
        60,          2950,   -6484,   89661,  -83179,    6780,   95102,  -85732,  -88581,   54028,   93669,   94436,   59797,   32732,   94436,   59797,   32732,  -88581,   53668,   93669,   94436,   59797,   32732
        61,          3000,   -8364,   90479,  -82118,    5206,   95639,  -84899,  -87729,   55175,   94753,   94515,   60924,   35000,   94515,   60924,   35000,  -87729,   54812,   94753,   94515,   60924,   35000
        62,          3050,  -10241,   91266,  -81028,    3621,   96143,  -84030,  -86853,   56293,   95668,   94594,   62021,   37230,   94594,   62021,   37230,  -86853,   55927,   95668,   94594,   62021,   37230
        63,          3100,  -12114,   92020,  -79909,    2024,   96612,  -83126,  -85952,   57384,   96444,   94672,   63089,   39413,   94672,   63089,   39413,  -85952,   57015,   96444,   94672,   63089,   39413
        64,          3150,  -13983,   92742,  -78761,     418,   97047,  -82187,  -85028,   58448,   97101,   94749,   64129,   41550,   94749,   64129,   41550,  -85028,   58077,   97101,   94749,   64129,   41550
        65,          3200,  -15846,   93430,  -77586,   -1199,   97448,  -81213,  -84082,   59485,   97658,   94825,   65141,   43641,   94825,   65141,   43641,  -84082,   59112,   97658,   94825,   65141,   43641
        66,          3250,  -17705,   94085,  -76383,   -2824,   97817,  -80208,  -83116,   60497,   98130,   94901,   66126,   45686,   94901,   66126,   45686,  -83116,   60121,   98130,   94901,   66126,   45686
        67,          3300,  -19556,   94707,  -75153,   -4458,   98153,  -79170,  -82130,   61484,   98527,   94977,   67084,   47691,   94977,   67084,   47691,  -82130,   61106,   98527,   94977,   67084,   47691
        68,          3350,  -21401,   95295,  -73896,   -6100,   98457,  -78101,  -81126,   62446,   98860,   95051,   68018,   49644,   95051,   68018,   49644,  -81126,   62066,   98860,   95051,   68018,   49644
        69,          3400,  -23239,   95850,  -72613,   -7748,   98731,  -77004,  -80104,   63385,   99137,   95125,   68926,   51551,   95125,   68926,   51551,  -80104,   63003,   99137,   95125,   68926,   51551
        70,          3450,  -25068,   96370,  -71304,   -9403,   98976,  -75879,  -79067,   64301,   99365,   95198,   69809,   53418,   95198,   69809,   53418,  -79067,   63916,   99365,   95198,   69809,   53418
        71,          3500,  -26888,   96856,  -69970,  -11063,   99192,  -74727,  -78015,   65194,   99550,   95270,   70670,   55240,   95270,   70670,   55240,  -78015,   64807,   99550,   95270,   70670,   55240
        72,          3550,  -28699,   97308,  -68611,  -12727,   99381,  -73551,  -76949,   66065,   99697,   95342,   71507,   57015,   95342,   71507,   57015,  -76949,   65676,   99697,   95342,   71507,   57015
        73,          3600,  -30499,   97725,  -67228,  -14394,   99544,  -72352,  -75870,   66914,   99811,   95412,   72321,   58751,   95412,   72321,   58751,  -75870,   66524,   99811,   95412,   72321,   58751
        74,          3650,  -32289,   98107,  -65821,  -16064,   99680,  -71131,  -74779,   67743,   99895,   95482,   73114,   60441,   95482,   73114,   60441,  -74779,   67350,   99895,   95482,   73114,   60441
        75,          3700,  -34067,   98454,  -64390,  -17734,   99792,  -69890,  -73678,   68551,   99952,   95551,   73885,   62091,   95551,   73885,   62091,  -73678,   68156,   99952,   95551,   73885,   62091
        76,          3750,  -35833,   98767,  -62936,  -19405,   99880,  -68630,  -72567,   69339,   99986,   95620,   74635,   63702,   95620,   74635,   63702,  -72567,   68943,   99986,   95620,   74635,   63702
        77,          3800,  -37586,   99044,  -61460,  -21074,   99943,  -67352,  -71448,   70107,   99998,   95687,   75365,   65274,   95687,   75365,   65274,  -71448,   69709,   99998,   95687,   75365,   65274
        78,          3850,  -39326,   99286,  -59963,  -22740,   99982,  -66058,  -70321,   70857,   99992,   95754,   76076,   66812,   95754,   76076,   66812,  -70321,   70457,   99992,   95754,   76076,   66812
        79,          3900,  -41052,   99493,  -58444,  -24402,   99998,  -64749,  -69186,   71588,   99969,   95819,   76767,   68312,   95819,   76767,   68312,  -69186,   71187,   99969,   95819,   76767,   68312
        80,          3950,  -42764,   99665,  -56904,  -26059,   99991,  -63426,  -68046,   72301,   99930,   95884,   77439,   69771,   95884,   77439,   69771,  -68046,   71898,   99930,   95884,   77439,   69771
        81,          4000,  -44460,   99801,  -55344,  -27710,   99959,  -62090,  -66901,   72997,   99878,   95948,   78093,   71205,   95948,   78093,   71205,  -66901,   72592,   99878,   95948,   78093,   71205
