GTPPLOT creates from lv_network_l1c1b1f1.pl4,999,1999                           
33,33A, 0D
  1,SBUS A          V-node,A, , V,  1.97175288200378, -.09375         , 0.0,-99999, 99999,1.0,1.0,P
  2,SBUS B          V-node,B, , V,  1.97174656391144, -.0703125       , 0.0,-99999, 99999,1.0,1.0,P
  3,SBUS C          V-node,C, , V,  1.97173547744751, -.125           , 0.0,-99999, 99999,1.0,1.0,P
  4,SBUS A 1    A I-branch,A, , A,  .519453373272E-3, 3.81668090820313, 0.0,-99999, 99999,1.0,1.0,P
  5,SBUS B 1    B I-branch,B, , A,  .561626278795E-3, -3.3324966430664, 0.0,-99999, 99999,1.0,1.0,P
  6,SBUS C 1    C I-branch,C, , A,  .588374969084E-3, 2.36006927490234, 0.0,-99999, 99999,1.0,1.0,P
  7,FAULTA        I-branch,A, , A,  6.51784229278564, -28461.96875    , 0.0,-99999, 99999,1.0,1.0,P
  8,FAULTB        I-branch,B, , A,  7.73135805130005, 149839.4375     , 0.0,-99999, 99999,1.0,1.0,P
  9,FAULTC        I-branch,C, , A,  7.64667320251465, -141370.625     , 0.0,-99999, 99999,1.0,1.0,P
 10,TACS   PV001V I-branch,S, , A,  .002616245299578, 261.621917724609, 0.0,-99999, 99999,1.0,1.0,P
 11,TACS   PV001I I-branch,S, , A,  .007317073177546, 731.700012207031, 0.0,-99999, 99999,1.0,1.0,P
 12,TACS   PV001W I-branch,S, , A,  .182895499165E-3, 358.996490478516, 0.0,-99999, 99999,1.0,1.0,P
 13,TACS   PV002V I-branch,S, , A,  .002616916084662, 261.688995361328, 0.0,-99999, 99999,1.0,1.0,P
 14,TACS   PV002I I-branch,S, , A,  .007317073177546, 731.700012207031, 0.0,-99999, 99999,1.0,1.0,P
 15,TACS   PV002W I-branch,S, , A,  .179268754437E-3, 359.427154541016, 0.0,-99999, 99999,1.0,1.0,P
 16,TACS   PV003V I-branch,S, , A,  .002611531643197, 261.150543212891, 0.0,-99999, 99999,1.0,1.0,P
 17,TACS   PV003I I-branch,S, , A,  .007317073177546, 731.700012207031, 0.0,-99999, 99999,1.0,1.0,P
 18,TACS   PV003W I-branch,S, , A,  .187011304661E-3, 358.58349609375 , 0.0,-99999, 99999,1.0,1.0,P
 19,TACS   PV004V I-branch,S, , A,  .002612216863781, 261.219085693359, 0.0,-99999, 99999,1.0,1.0,P
 20,TACS   PV004I I-branch,S, , A,  .007317073177546, 731.700012207031, 0.0,-99999, 99999,1.0,1.0,P
 21,TACS   PV004W I-branch,S, , A,  .188642181456E-3, 358.420715332031, 0.0,-99999, 99999,1.0,1.0,P
 22,TACS   PV005V I-branch,S, , A,  .002606407972053, 260.63818359375 , 0.0,-99999, 99999,1.0,1.0,P
 23,TACS   PV005I I-branch,S, , A,  .007317073177546, 731.700012207031, 0.0,-99999, 99999,1.0,1.0,P
 24,TACS   PV005W I-branch,S, , A,  .187046694919E-3, 358.627075195313, 0.0,-99999, 99999,1.0,1.0,P
 25,TACS   PV006V I-branch,S, , A,  .002609509974718, 260.948394775391, 0.0,-99999, 99999,1.0,1.0,P
 26,TACS   PV006I I-branch,S, , A,  .007317073177546, 731.700012207031, 0.0,-99999, 99999,1.0,1.0,P
 27,TACS   PV006W I-branch,S, , A,  .188639576663E-3, 358.436676025391, 0.0,-99999, 99999,1.0,1.0,P
 28,TACS   PV007V I-branch,S, , A,  .00262340856716 , 262.338226318359, 0.0,-99999, 99999,1.0,1.0,P
 29,TACS   PV007I I-branch,S, , A,  .007317073177546, 731.700012207031, 0.0,-99999, 99999,1.0,1.0,P
 30,TACS   PV007W I-branch,S, , A,  .182915799087E-3, 358.928161621094, 0.0,-99999, 99999,1.0,1.0,P
 31,TACS   PV008V I-branch,S, , A,  .002603726228699, 260.370025634766, 0.0,-99999, 99999,1.0,1.0,P
 32,TACS   PV008I I-branch,S, , A,  .007317073177546, 731.700012207031, 0.0,-99999, 99999,1.0,1.0,P
 33,TACS   PV008W I-branch,S, , A,  .185430471902E-3, 358.824890136719, 0.0,-99999, 99999,1.0,1.0,P
 50
1
     20000,  12001
10/10/2022,21:54:50.000000
10/10/2022,21:54:50.000000
ASCII 
    1.000000
         1,             0,   99998,  -50005,  -49995,   90144,  -95832,    7047,    4366,  -19381,   18487,  -99999,  -99999,   98387,  -99999,  -99999,   97975,  -99999,  -99999,   98430,  -99999,  -99999,   98442,  -99999,  -99999,   98178,  -99999,  -99999,   98359,  -99999,  -99999,   98750,  -99999,  -99999,   97967
         2,            50,   99980,  -48364,  -51618,   91369,  -94741,    4924,    4366,  -19381,   18487,   83470,  -98782,   98387,   83423,  -98782,   97975,   83801,  -98782,   98430,   83752,  -98782,   98442,   84162,  -98782,   98178,   83943,  -98782,   98359,   82969,  -98782,   98750,   84352,  -98782,   97967
         3,           100,   99927,  -46706,  -53223,   92512,  -93614,    2838,    4366,  -19381,   18487,   83335,  -96376,   97519,   83288,  -96376,   97092,   83662,  -96376,   97584,   83615,  -96376,   97601,   84019,  -96376,   97330,   83804,  -96376,   97519,   82841,  -96376,   97889,   84207,  -96376,   97110
         4,           150,   99840,  -45031,  -54811,   93415,  -92451,     931,    4366,  -19381,   18487,   83057,  -94026,   95810,   83014,  -94026,   95353,   83372,  -94026,   95918,   83328,  -94026,   95946,   83721,  -94026,   95658,   83513,  -94026,   95867,   82583,  -94026,   96193,   83906,  -94026,   95421
         5,           200,   99717,  -43340,  -56379,   93950,  -91256,    -683,    4366,  -19381,   18487,   82777,  -91731,   94148,   82744,  -91731,   93661,   83074,  -91731,   94297,   83031,  -91731,   94335,   83414,  -91730,   94032,   83211,  -91730,   94259,   82325,  -91732,   94543,   83598,  -91730,   93778
         6,           250,   99557,  -41634,  -57926,   94271,  -90036,   -2129,    4366,  -19381,   18487,   82527,  -89489,   92525,   82507,  -89489,   92010,   82805,  -89488,   92716,   82761,  -89488,   92764,   83136,  -89487,   92446,   82938,  -89488,   92691,   82092,  -89490,   92935,   83320,  -89487,   92174
         7,           300,   99362,  -39913,  -59451,   94649,  -88803,   -3640,    4366,  -19381,   18487,   82299,  -87299,   90942,   82289,  -87300,   90400,   82558,  -87297,   91172,   82513,  -87297,   91230,   82880,  -87296,   90897,   82686,  -87297,   91159,   81878,  -87301,   91366,   83065,  -87296,   90608
         8,           350,   99131,  -38177,  -60956,   95130,  -87560,   -5251,    4366,  -19381,   18487,   82087,  -85160,   89397,   82087,  -85162,   88829,   82328,  -85157,   89666,   82283,  -85158,   89734,   82644,  -85156,   89385,   82452,  -85157,   89665,   81678,  -85164,   89836,   82829,  -85156,   89079
         9,           400,   98866,  -36428,  -62440,   95569,  -86306,   -6836,    4366,  -19381,   18487,   81890,  -83071,   87889,   81898,  -83073,   87298,   82114,  -83067,   88196,   82068,  -83068,   88273,   82423,  -83065,   87909,   82234,  -83067,   88206,   81492,  -83076,   88344,   82609,  -83065,   87587
        10,           450,   98566,  -34666,  -63901,   95908,  -85033,   -8352,    4366,  -19381,   18487,   81707,  -81032,   86418,   81723,  -81034,   85803,   81915,  -81026,   86762,   81868,  -81027,   86847,   82217,  -81023,   86469,   82031,  -81025,   86783,   81320,  -81038,   86888,   82404,  -81023,   86131
        11,           500,   98230,  -32892,  -65339,   96234,  -83738,   -9876,    4366,  -19381,   18487,   81539,  -79040,   84982,   81564,  -79044,   84345,   81732,  -79033,   85361,   81684,  -79033,   85455,   82028,  -79029,   85062,   81845,  -79032,   85392,   81164,  -79047,   85467,   82215,  -79029,   84708
        12,           550,   97859,  -31106,  -66755,   96602,  -82426,  -11452,    4366,  -19381,   18487,   81388,  -77095,   83579,   81420,  -77100,   82921,   81566,  -77086,   83992,   81517,  -77087,   84095,   81855,  -77082,   83688,   81675,  -77085,   84034,   81023,  -77104,   84080,   82043,  -77082,   83318
        13,           600,   97454,  -29309,  -68146,   96968,  -81104,  -13038,    4366,  -19381,   18487,   81250,  -75197,   82209,   81289,  -75202,   81530,   81414,  -75186,   82655,   81365,  -75186,   82766,   81697,  -75181,   82345,   81519,  -75184,   82706,   80895,  -75207,   82726,   81886,  -75180,   81960
        14,           650,   97014,  -27502,  -69514,   97285,  -79767,  -14593,    4366,  -19381,   18487,   81126,  -73343,   80871,   81171,  -73350,   80172,   81277,  -73330,   81349,   81227,  -73330,   81468,   81554,  -73324,   81033,   81379,  -73328,   81409,   80781,  -73355,   81403,   81743,  -73324,   80633
        15,           700,   96539,  -25685,  -70856,   97570,  -78411,  -16139,    4366,  -19381,   18487,   81017,  -71534,   79562,   81068,  -71541,   78846,   81155,  -71519,   80072,   81104,  -71519,   80198,   81426,  -71512,   79750,   81253,  -71516,   80141,   80681,  -71548,   80110,   81615,  -71511,   79335
        16,           750,   96030,  -23859,  -72174,   97858,  -77037,  -17705,    4366,  -19381,   18487,   80921,  -69768,   78283,   80978,  -69776,   77548,   81048,  -69750,   78823,   80996,  -69750,   78956,   81313,  -69742,   78494,   81143,  -69747,   78900,   80595,  -69783,   78846,   81502,  -69742,   78066
        17,           800,   95488,  -22024,  -73465,   98144,  -75650,  -19282,    4366,  -19381,   18487,   80840,  -68044,   77032,   80901,  -68054,   76280,   80955,  -68024,   77600,   80902,  -68024,   77741,   81214,  -68015,   77266,   81046,  -68020,   77686,   80521,  -68062,   77610,   81404,  -68015,   76823
        18,           850,   94911,  -20182,  -74731,   98404,  -74250,  -20848,    4366,  -19381,   18487,   80771,  -66362,   75807,   80838,  -66373,   75040,   80875,  -66340,   76404,   80821,  -66339,   76552,   81130,  -66329,   76064,   80964,  -66335,   76497,   80461,  -66381,   76402,   81319,  -66329,   75607
        19,           900,   94300,  -18332,  -75970,   98635,  -72834,  -22404,    4366,  -19381,   18487,   80716,  -64720,   74609,   80787,  -64733,   73826,   80810,  -64695,   75233,   80755,  -64695,   75387,   81059,  -64684,   74887,   80896,  -64690,   75334,   80413,  -64742,   75220,   81248,  -64684,   74417
        20,           950,   93656,  -16476,  -77182,   98851,  -71400,  -23963,    4366,  -19381,   18487,   80674,  -63118,   73436,   80749,  -63132,   72638,   80758,  -63091,   74087,   80702,  -63091,   74247,   81002,  -63079,   73734,   80841,  -63085,   74194,   80379,  -63143,   74062,   81191,  -63079,   73251
        21,          1000,   92979,  -14614,  -78367,   99058,  -69953,  -25528,    4366,  -19381,   18487,   80644,  -61556,   72286,   80723,  -61571,   71475,   80719,  -61526,   72963,   80663,  -61526,   73129,   80958,  -61512,   72604,   80800,  -61519,   73077,   80357,  -61582,   72928,   81147,  -61512,   72108
        22,          1050,   92269,  -12747,  -79524,   99246,  -68492,  -27088,    4366,  -19381,   18487,   80628,  -60032,   71160,   80710,  -60048,   70336,   80693,  -59999,   71861,   80637,  -59998,   72034,   80927,  -59984,   71496,   80771,  -59992,   71982,   80346,  -60060,   71818,   81116,  -59984,   70987
        23,          1100,   91525,  -10875,  -80653,   99409,  -67017,  -28640,    4366,  -19381,   18487,   80623,  -58545,   70055,   80708,  -58563,   69219,   80680,  -58509,   70781,   80623,  -58509,   70960,   80910,  -58493,   70410,   80756,  -58501,   70909,   80348,  -58575,   70730,   81098,  -58493,   69888
        24,          1150,   90750,   -8999,  -81753,   99552,  -65527,  -30188,    4366,  -19381,   18487,   80630,  -57095,   68972,   80719,  -57114,   68124,   80680,  -57056,   69722,   80622,  -57056,   69906,   80905,  -57038,   69344,   80753,  -57048,   69855,   80362,  -57128,   69663,   81093,  -57039,   68810
        25,          1200,   89942,   -7120,  -82824,   99679,  -64022,  -31736,    4366,  -19381,   18487,   80650,  -55681,   67910,   80741,  -55701,   67051,   80692,  -55639,   68682,   80634,  -55639,   68871,   80912,  -55620,   68298,   80763,  -55630,   68820,   80388,  -55716,   68617,   81100,  -55620,   67751
        26,          1250,   89102,   -5239,  -83865,   99786,  -62504,  -33280,    4366,  -19381,   18487,   80681,  -54302,   66867,   80774,  -54324,   65997,   80716,  -54258,   67660,   80657,  -54257,   67855,   80932,  -54237,   67270,   80785,  -54247,   67805,   80424,  -54339,   67590,   81119,  -54237,   66712
        27,          1300,   88231,   -3356,  -84877,   99871,  -60973,  -34817,    4366,  -19381,   18487,   80723,  -52958,   65842,   80819,  -52981,   64963,   80752,  -52910,   66657,   80692,  -52909,   66858,   80964,  -52888,   66261,   80819,  -52900,   66807,   80472,  -52997,   66582,   81150,  -52888,   65691
        28,          1350,   87328,   -1472,  -85858,   99934,  -59428,  -36347,    4366,  -19381,   18487,   80777,  -51647,   64836,   80874,  -51672,   63947,   80800,  -51597,   65671,   80739,  -51596,   65877,   81007,  -51573,   65269,   80864,  -51585,   65826,   80531,  -51689,   65591,   81192,  -51574,   64687
        29,          1400,   86394,     413,  -86809,   99977,  -57869,  -37873,    4366,  -19381,   18487,   80841,  -50370,   63846,   80940,  -50396,   62949,   80858,  -50317,   64702,   80797,  -50315,   64912,   81061,  -50292,   64293,   80920,  -50304,   64861,   80601,  -50415,   64618,   81246,  -50292,   63700
        30,          1450,   85429,    2298,  -87730,   99998,  -56297,  -39392,    4366,  -19381,   18487,   80916,  -49125,   62873,   81017,  -49153,   61967,   80928,  -49069,   63748,   80866,  -49067,   63964,   81127,  -49043,   63333,   80988,  -49056,   63912,   80680,  -49172,   63662,   81310,  -49043,   62729
        31,          1500,   84434,    4182,  -88619,   99998,  -54713,  -40904,    4366,  -19381,   18487,   81002,  -47912,   61916,   81103,  -47941,   61002,   81008,  -47853,   62809,   80946,  -47851,   63030,   81203,  -47825,   62389,   81067,  -47839,   62978,   80770,  -47962,   62721,   81386,  -47825,   61773
        32,          1550,   83409,    6065,  -89476,   99974,  -53116,  -42407,    4366,  -19381,   18487,   81097,  -46730,   60974,   81200,  -46761,   60052,   81099,  -46668,   61885,   81036,  -46667,   62111,   81290,  -46639,   61458,   81155,  -46654,   62059,   80870,  -46782,   61795,   81472,  -46639,   60832
        33,          1600,   82355,    7945,  -90302,   99928,  -51507,  -43903,    4366,  -19381,   18487,   81202,  -45579,   60046,   81306,  -45611,   59117,   81200,  -45514,   60975,   81136,  -45512,   61205,   81387,  -45483,   60542,   81255,  -45499,   61152,   80980,  -45633,   60884,   81568,  -45483,   59904
        34,          1650,   81271,    9822,  -91096,   99859,  -49885,  -45390,    4366,  -19381,   18487,   81317,  -44458,   59131,   81422,  -44491,   58197,   81311,  -44390,   60078,   81246,  -44388,   60313,   81495,  -44357,   59638,   81364,  -44374,   60259,   81099,  -44514,   59986,   81674,  -44357,   58991
        35,          1700,   80158,   11696,  -91857,   99768,  -48251,  -46869,    4366,  -19381,   18487,   81441,  -43366,   58230,   81547,  -43400,   57289,   81432,  -43295,   59193,   81366,  -43293,   59433,   81612,  -43261,   58748,   81483,  -43278,   59379,   81227,  -43425,   59101,   81790,  -43261,   58089
        36,          1750,   79017,   13566,  -92586,   99652,  -46606,  -48337,    4366,  -19381,   18487,   81575,  -42302,   57341,   81680,  -42338,   56395,   81562,  -42229,   58320,   81496,  -42226,   58565,   81738,  -42193,   57869,   81611,  -42211,   58510,   81364,  -42364,   58229,   81915,  -42193,   57200
        37,          1800,   77848,   15431,  -93281,   99512,  -44949,  -49794,    4366,  -19381,   18487,   81717,  -41267,   56465,   81823,  -41304,   55513,   81701,  -41191,   57459,   81634,  -41188,   57709,   81873,  -41154,   57001,   81748,  -41172,   57652,   81510,  -41331,   57369,   82049,  -41153,   56323
        38,          1850,   76651,   17291,  -93944,   99348,  -43281,  -51242,    4366,  -19381,   18487,   81867,  -40260,   55599,   81973,  -40297,   54642,   81848,  -40181,   56609,   81781,  -40178,   56863,   82018,  -40142,   56145,   81894,  -40161,   56806,   81664,  -40326,   56520,   82192,  -40141,   55456
        39,          1900,   75427,   19144,  -94573,   99159,  -41603,  -52678,    4366,  -19381,   18487,   82026,  -39279,   54745,   82132,  -39318,   53782,   82004,  -39197,   55769,   81936,  -39194,   56028,   82171,  -39157,   55299,   82049,  -39177,   55969,   81826,  -39348,   55682,   82344,  -39156,   54600
        40,          1950,   74176,   20991,  -95169,   98946,  -39913,  -54102,    4366,  -19381,   18487,   82193,  -38325,   53900,   82299,  -38365,   52933,   82169,  -38240,   54939,   82100,  -38237,   55202,   82332,  -38198,   54463,   82212,  -38219,   55143,   81996,  -38396,   54854,   82504,  -38197,   53755
        41,          2000,   72899,   22830,  -95731,   98708,  -38214,  -55514,    4366,  -19381,   18487,   82367,  -37396,   53066,   82473,  -37437,   52095,   82341,  -37309,   54118,   82272,  -37306,   54386,   82501,  -37265,   53637,   82382,  -37287,   54325,   82174,  -37470,   54037,   82671,  -37264,   52918
        42,          2050,   71596,   24661,  -96259,   98444,  -36504,  -56913,    4366,  -19381,   18487,   82549,  -36493,   52241,   82655,  -36535,   51266,   82521,  -36404,   53307,   82451,  -36400,   53579,   82677,  -36358,   52819,   82561,  -36381,   53517,   82358,  -36569,   53228,   82846,  -36357,   52091
        43,          2100,   70267,   26483,  -96752,   98155,  -34785,  -58299,    4366,  -19381,   18487,   82738,  -35615,   51425,   82843,  -35658,   50446,   82708,  -35523,   52504,   82638,  -35519,   52781,   82862,  -35476,   52010,   82746,  -35499,   52717,   82550,  -35693,   52428,   83029,  -35474,   51273
        44,          2150,   68913,   28296,  -97211,   97840,  -33056,  -59671,    4366,  -19381,   18487,   82933,  -34761,   50617,   83039,  -34805,   49634,   82902,  -34666,   51709,   82831,  -34662,   51990,   83053,  -34617,   51209,   82939,  -34642,   51926,   82749,  -34841,   51637,   83219,  -34615,   50463
        45,          2200,   67535,   30099,  -97636,   97499,  -31318,  -61029,    4366,  -19381,   18487,   83135,  -33931,   49818,   83240,  -33976,   48831,   83103,  -33833,   50922,   83032,  -33829,   51208,   83251,  -33783,   50417,   83139,  -33808,   51142,   82953,  -34013,   50854,   83415,  -33781,   49661
        46,          2250,   66133,   31891,  -98026,   97132,  -29572,  -62371,    4366,  -19381,   18487,   83344,  -33124,   49026,   83448,  -33169,   48036,   83310,  -33024,   50142,   83238,  -33019,   50433,   83455,  -32972,   49631,   83344,  -32998,   50365,   83165,  -33208,   50079,   83618,  -32969,   48866
        47,          2300,   64708,   33671,  -98381,   96739,  -27818,  -63699,    4366,  -19381,   18487,   83558,  -32339,   48241,   83662,  -32386,   47248,   83524,  -32237,   49369,   83451,  -32232,   49665,   83665,  -32184,   48853,   83557,  -32210,   49595,   83381,  -32426,   49310,   83827,  -32181,   48079
        48,          2350,   63259,   35440,  -98702,   96319,  -26055,  -65010,    4366,  -19381,   18487,   83778,  -31577,   47464,   83881,  -31625,   46468,   83743,  -31473,   48603,   83670,  -31468,   48903,   83882,  -31418,   48081,   83774,  -31445,   48832,   83604,  -31666,   48549,   84041,  -31415,   47298
        49,          2400,   61788,   37196,  -98987,   95872,  -24286,  -66305,    4366,  -19381,   18487,   84003,  -30837,   46693,   84106,  -30885,   45694,   83968,  -30730,   47844,   83894,  -30725,   48149,   84104,  -30673,   47316,   83998,  -30702,   48076,   83832,  -30928,   47795,   84261,  -30670,   46524
        50,          2450,   60295,   38939,  -99237,   95398,  -22509,  -67583,    4366,  -19381,   18487,   84234,  -30118,   45929,   84335,  -30167,   44927,   84198,  -30009,   47090,   84124,  -30003,   47400,   84331,  -29951,   46557,   84227,  -29980,   47325,   84064,  -30211,   47046,   84487,  -29947,   45756
