GTPPLOT creates from lv_network_l1c3b1f2.pl4,999,1999                           
33,33A, 0D
  1,SBUS A          V-node,A, , V,  1.97176122665405, -.1484375       , 0.0,-99999, 99999,1.0,1.0,P
  2,SBUS B          V-node,B, , V,  1.97175467014313, -.1015625       , 0.0,-99999, 99999,1.0,1.0,P
  3,SBUS C          V-node,C, , V,  2.02264952659607, 28.234375       , 0.0,-99999, 99999,1.0,1.0,P
  4,SBUS A 1    A I-branch,A, , A,  .465845077997E-3, 5.75585174560547, 0.0,-99999, 99999,1.0,1.0,P
  5,SBUS B 1    B I-branch,B, , A,  .511414546054E-3, -6.0132827758789, 0.0,-99999, 99999,1.0,1.0,P
  6,SBUS C 1    C I-branch,C, , A,  .486687204102E-3, -1.9268207550049, 0.0,-99999, 99999,1.0,1.0,P
  7,FAULTA        I-branch,A, , A,  6.20567321777344, -26783.3125     , 0.0,-99999, 99999,1.0,1.0,P
  8,FAULTB        I-branch,B, , A,  0.0             , 0.0             , 0.0,-99999, 99999,1.0,1.0,P
  9,FAULTC        I-branch,C, , A,  0.0             , 0.0             , 0.0,-99999, 99999,1.0,1.0,P
 10,TACS   PV001V I-branch,S, , A,  .002620571292937, 262.054504394531, 0.0,-99999, 99999,1.0,1.0,P
 11,TACS   PV001I I-branch,S, , A,  .007317073177546, 731.700012207031, 0.0,-99999, 99999,1.0,1.0,P
 12,TACS   PV001W I-branch,S, , A,  .115850918519E-3, 368.254760742188, 0.0,-99999, 99999,1.0,1.0,P
 13,TACS   PV002V I-branch,S, , A,  .002622201573104, 262.217529296875, 0.0,-99999, 99999,1.0,1.0,P
 14,TACS   PV002I I-branch,S, , A,  .007317073177546, 731.700012207031, 0.0,-99999, 99999,1.0,1.0,P
 15,TACS   PV002W I-branch,S, , A,  .114833455882E-3, 368.424194335938, 0.0,-99999, 99999,1.0,1.0,P
 16,TACS   PV003V I-branch,S, , A,  .002614857628942, 261.483154296875, 0.0,-99999, 99999,1.0,1.0,P
 17,TACS   PV003I I-branch,S, , A,  .007317073177546, 731.700012207031, 0.0,-99999, 99999,1.0,1.0,P
 18,TACS   PV003W I-branch,S, , A,  .116486909974E-3, 368.13134765625 , 0.0,-99999, 99999,1.0,1.0,P
 19,TACS   PV004V I-branch,S, , A,  .002615141449496, 261.511535644531, 0.0,-99999, 99999,1.0,1.0,P
 20,TACS   PV004I I-branch,S, , A,  .007317073177546, 731.700012207031, 0.0,-99999, 99999,1.0,1.0,P
 21,TACS   PV004W I-branch,S, , A,  .116643313959E-3, 368.104309082031, 0.0,-99999, 99999,1.0,1.0,P
 22,TACS   PV005V I-branch,S, , A,  .002609753282741, 260.972717285156, 0.0,-99999, 99999,1.0,1.0,P
 23,TACS   PV005I I-branch,S, , A,  .007317073177546, 731.700012207031, 0.0,-99999, 99999,1.0,1.0,P
 24,TACS   PV005W I-branch,S, , A,  .117063245852E-3, 368.082244873047, 0.0,-99999, 99999,1.0,1.0,P
 25,TACS   PV006V I-branch,S, , A,  .002612442243844, 261.241607666016, 0.0,-99999, 99999,1.0,1.0,P
 26,TACS   PV006I I-branch,S, , A,  .007317073177546, 731.700012207031, 0.0,-99999, 99999,1.0,1.0,P
 27,TACS   PV006W I-branch,S, , A,  .116777751828E-3, 368.088195800781, 0.0,-99999, 99999,1.0,1.0,P
 28,TACS   PV007V I-branch,S, , A,  .002627665176988, 262.763885498047, 0.0,-99999, 99999,1.0,1.0,P
 29,TACS   PV007I I-branch,S, , A,  .007317073177546, 731.700012207031, 0.0,-99999, 99999,1.0,1.0,P
 30,TACS   PV007W I-branch,S, , A,  .114331436635E-3, 368.411071777344, 0.0,-99999, 99999,1.0,1.0,P
 31,TACS   PV008V I-branch,S, , A,  .002607456874102, 260.743072509766, 0.0,-99999, 99999,1.0,1.0,P
 32,TACS   PV008I I-branch,S, , A,  .007317073177546, 731.700012207031, 0.0,-99999, 99999,1.0,1.0,P
 33,TACS   PV008W I-branch,S, , A,  .117205301649E-3, 368.090515136719, 0.0,-99999, 99999,1.0,1.0,P
 50
1
     20000,  12001
10/10/2022,21:56:50.000000
10/10/2022,21:56:50.000000
ASCII 
    1.000000
         1,             0,   99997,  -50005,  -48750,   96354,  -99999,   17328,    4315,       0,       0,  -99999,  -99999,   75409,  -99999,  -99999,   74602,  -99999,  -99999,   76057,  -99999,  -99999,   76187,  -99999,  -99999,   76102,  -99999,  -99999,   76238,  -99999,  -99999,   75045,  -99999,  -99999,   75940
         2,            50,   99980,  -48364,  -50333,   97721,  -98801,   14761,    4315,       0,       0,   83167,  -97970,   75409,   83053,  -97970,   74602,   83567,  -97970,   76057,   83547,  -97970,   76187,   83926,  -97970,   76102,   83737,  -97970,   76238,   82672,  -97970,   75045,   84088,  -97970,   75940
         3,           100,   99927,  -46706,  -51898,   98961,  -97563,   12272,    4315,       0,       0,   83032,  -93960,   74040,   82919,  -93960,   73224,   83428,  -93960,   74699,   83410,  -93960,   74828,   83783,  -93960,   74747,   83598,  -93960,   74882,   82545,  -93960,   73668,   83944,  -93960,   74583
         4,           150,   99840,  -45031,  -53446,   99780,  -96285,   10146,    4315,       0,       0,   82761,  -90044,   71341,   82653,  -90044,   70509,   83142,  -90044,   72024,   83126,  -90044,   72150,   83488,  -90044,   72076,   83310,  -90044,   72212,   82296,  -90045,   70953,   83647,  -90043,   71911
         5,           200,   99718,  -43340,  -54976,   99944,  -94975,    8612,    4315,       0,       0,   82499,  -86219,   68716,   82409,  -86219,   67865,   82857,  -86218,   69422,   82840,  -86218,   69545,   83193,  -86218,   69477,   83019,  -86218,   69615,   82062,  -86220,   68312,   83351,  -86217,   69310
         6,           250,   99559,  -41633,  -56484,   99735,  -93645,    7415,    4315,       0,       0,   82276,  -82483,   66153,   82207,  -82484,   65286,   82607,  -82481,   66882,   82586,  -82481,   67002,   82933,  -82480,   66941,   82761,  -82481,   67080,   81857,  -82486,   65738,   83093,  -82480,   66772
         7,           300,   99363,  -39912,  -57970,   99660,  -92314,    6088,    4315,       0,       0,   82076,  -78835,   63652,   82024,  -78837,   62771,   82381,  -78831,   64403,   82357,  -78831,   64521,   82699,  -78829,   64464,   82528,  -78830,   64606,   81671,  -78839,   63227,   82862,  -78829,   64293
         8,           350,   99132,  -38177,  -59437,   99805,  -90992,    4560,    4315,       0,       0,   81892,  -75272,   61213,   81856,  -75276,   60319,   82173,  -75266,   61984,   82146,  -75266,   62100,   82483,  -75263,   62048,   82313,  -75265,   62191,   81500,  -75278,   60781,   82650,  -75263,   61874
         9,           400,   98867,  -36428,  -60884,   99899,  -89672,    3083,    4315,       0,       0,   81720,  -71793,   58834,   81699,  -71799,   57931,   81978,  -71784,   59626,   81947,  -71784,   59739,   82282,  -71781,   59691,   82112,  -71782,   59836,   81338,  -71802,   58397,   82452,  -71781,   59514
        10,           450,   98567,  -34666,  -62308,   99837,  -88341,    1743,    4315,       0,       0,   81561,  -68397,   56516,   81554,  -68404,   55603,   81797,  -68385,   57325,   81763,  -68384,   57435,   82094,  -68380,   57392,   81925,  -68382,   57538,   81190,  -68408,   56072,   82268,  -68380,   57212
        11,           500,   98231,  -32892,  -63710,   99778,  -86994,     384,    4315,       0,       0,   81417,  -65081,   54253,   81424,  -65091,   53332,   81632,  -65065,   55079,   81595,  -65064,   55187,   81923,  -65059,   55147,   81754,  -65061,   55295,   81057,  -65094,   53804,   82100,  -65060,   54964
        12,           550,   97860,  -31106,  -65090,   99825,  -85640,   -1083,    4315,       0,       0,   81288,  -61843,   52043,   81307,  -61856,   51116,   81483,  -61824,   52886,   81443,  -61823,   52990,   81768,  -61816,   52955,   81599,  -61819,   53103,   80938,  -61860,   51591,   81947,  -61817,   52769
        13,           600,   97454,  -29309,  -66446,   99898,  -84289,   -2573,    4315,       0,       0,   81172,  -58683,   49887,   81203,  -58699,   48954,   81348,  -58659,   50744,   81305,  -58658,   50845,   81626,  -58650,   50814,   81458,  -58654,   50963,   80831,  -58702,   49431,   81808,  -58652,   50626
        14,           650,   97015,  -27502,  -67779,   99908,  -82935,   -4006,    4315,       0,       0,   81068,  -55599,   47781,   81109,  -55617,   46844,   81225,  -55570,   48653,   81180,  -55568,   48750,   81498,  -55560,   48722,   81330,  -55563,   48872,   80736,  -55621,   47324,   81683,  -55562,   48532
        15,           700,   96540,  -25685,  -69088,   99889,  -81567,   -5425,    4315,       0,       0,   80977,  -52588,   45725,   81029,  -52610,   44785,   81118,  -52555,   46609,   81069,  -52552,   46702,   81384,  -52542,   46678,   81217,  -52546,   46829,   80654,  -52613,   45265,   81571,  -52545,   46486
        16,           750,   96031,  -23858,  -70372,   99905,  -80188,   -6890,    4315,       0,       0,   80900,  -49650,   43715,   80962,  -49675,   42773,   81024,  -49611,   44611,   80973,  -49608,   44700,   81285,  -49597,   44680,   81119,  -49602,   44831,   80586,  -49678,   43254,   81474,  -49601,   44485
        17,           800,   95488,  -22024,  -71632,   99947,  -78806,   -8382,    4315,       0,       0,   80835,  -46783,   41751,   80906,  -46811,   40808,   80944,  -46739,   42657,   80890,  -46735,   42742,   81200,  -46723,   42725,   81034,  -46728,   42877,   80529,  -46814,   41290,   81390,  -46727,   42529
        18,           850,   94911,  -20181,  -72865,   99971,  -77421,   -9860,    4315,       0,       0,   80782,  -43985,   39830,   80862,  -44017,   38887,   80877,  -43935,   40746,   80821,  -43931,   40827,   81127,  -43918,   40813,   80962,  -43923,   40965,   80484,  -44020,   39370,   81319,  -43922,   40615
        19,           900,   94301,  -18331,  -74073,   99970,  -76028,  -11324,    4315,       0,       0,   80742,  -41255,   37952,   80830,  -41291,   37010,   80822,  -41200,   38876,   80764,  -41194,   38952,   81068,  -41180,   38942,   80904,  -41185,   39094,   80451,  -41294,   37492,   81261,  -41185,   38742
        20,           950,   93657,  -16475,  -75255,   99973,  -74623,  -12803,    4315,       0,       0,   80714,  -38592,   36114,   80809,  -38631,   35174,   80781,  -38531,   37046,   80721,  -38524,   37117,   81022,  -38509,   37111,   80858,  -38515,   37262,   80431,  -38634,   35656,   81216,  -38515,   36909
        21,          1000,   92979,  -14613,  -76410,   99988,  -73211,  -14301,    4315,       0,       0,   80699,  -35994,   34315,   80800,  -36037,   33378,   80753,  -35927,   35253,   80691,  -35920,   35320,   80989,  -35903,   35316,   80826,  -35909,   35468,   80422,  -36040,   33858,   81184,  -35909,   35113
        22,          1050,   92269,  -12746,  -77538,   99998,  -71795,  -15799,    4315,       0,       0,   80694,  -33460,   32553,   80803,  -33507,   31620,   80737,  -33386,   33497,   80673,  -33379,   33559,   80968,  -33360,   33559,   80807,  -33367,   33709,   80424,  -33510,   32099,   81164,  -33367,   33354
        23,          1100,   91526,  -10874,  -78638,   99994,  -70371,  -17290,    4315,       0,       0,   80702,  -30989,   30827,   80816,  -31040,   29899,   80733,  -30909,   31776,   80668,  -30900,   31832,   80959,  -30881,   31835,   80799,  -30888,   31986,   80437,  -31042,   30377,   81157,  -30888,   31629
        24,          1150,   90750,   -8998,  -79710,   99981,  -68938,  -18784,    4315,       0,       0,   80720,  -28578,   29135,   80840,  -28633,   28214,   80742,  -28492,   30088,   80674,  -28483,   30140,   80963,  -28462,   30146,   80804,  -28469,   30296,   80462,  -28636,   28689,   81161,  -28470,   29938
        25,          1200,   89942,   -7120,  -80754,   99969,  -67496,  -20289,    4315,       0,       0,   80750,  -26229,   27477,   80875,  -26287,   26561,   80762,  -26136,   28433,   80693,  -26125,   28479,   80979,  -26103,   28488,   80821,  -26111,   28637,   80498,  -26290,   27034,   81177,  -26112,   28279
        26,          1250,   89102,   -5238,  -81769,   99953,  -66047,  -21796,    4315,       0,       0,   80791,  -23937,   25849,   80920,  -24000,   24942,   80794,  -23838,   26808,   80723,  -23827,   26849,   81006,  -23803,   26861,   80849,  -23811,   27009,   80544,  -24003,   25412,   81205,  -23813,   26651
        27,          1300,   88231,   -3355,  -82756,   99926,  -64591,  -23300,    4315,       0,       0,   80843,  -21704,   24253,   80976,  -21771,   23353,   80837,  -21598,   25213,   80764,  -21586,   25249,   81045,  -21560,   25263,   80889,  -21569,   25410,   80601,  -21773,   23821,   81244,  -21571,   25053
        28,          1350,   87328,   -1471,  -83712,   99889,  -63126,  -24804,    4315,       0,       0,   80905,  -19527,   22685,   81042,  -19598,   21794,   80891,  -19414,   23646,   80816,  -19401,   23677,   81095,  -19374,   23694,   80940,  -19384,   23840,   80668,  -19600,   22259,   81294,  -19385,   23482
        29,          1400,   86394,     414,  -84639,   99845,  -61651,  -26311,    4315,       0,       0,   80977,  -17405,   21145,   81118,  -17480,   20264,   80955,  -17286,   22106,   80880,  -17272,   22131,   81155,  -17243,   22151,   81002,  -17253,   22296,   80745,  -17482,   20725,   81355,  -17255,   21939
        30,          1450,   85429,    2299,  -85536,   99793,  -60168,  -27820,    4315,       0,       0,   81060,  -15337,   19632,   81203,  -15416,   18761,   81031,  -15212,   20592,   80954,  -15197,   20612,   81227,  -15167,   20634,   81075,  -15177,   20778,   80833,  -15418,   19218,   81426,  -15179,   20422
        31,          1500,   84434,    4183,  -86403,   99732,  -58678,  -29327,    4315,       0,       0,   81152,  -13323,   18144,   81299,  -13405,   17284,   81117,  -13190,   19102,   81038,  -13174,   19117,   81309,  -13143,   19142,   81158,  -13154,   19284,   80929,  -13408,   17737,   81508,  -13156,   18929
        32,          1550,   83409,    6066,  -87239,   99658,  -57178,  -30832,    4315,       0,       0,   81254,  -11360,   16681,   81403,  -11446,   15832,   81212,  -11221,   17637,   81133,  -11204,   17646,   81401,  -11171,   17673,   81251,  -11183,   17814,   81036,  -11449,   16280,   81599,  -11184,   17460
        33,          1600,   82355,    7946,  -88044,   99573,  -55669,  -32336,    4315,       0,       0,   81365,   -9448,   15240,   81517,   -9538,   14404,   81318,   -9303,   16194,   81237,   -9285,   16198,   81503,   -9250,   16227,   81355,   -9262,   16366,   81151,   -9541,   14847,   81701,   -9264,   16013
        34,          1650,   81271,    9823,  -88818,   99478,  -54152,  -33840,    4315,       0,       0,   81486,   -7586,   13822,   81639,   -7680,   12998,   81433,   -7434,   14772,   81351,   -7415,   14771,   81614,   -7379,   14802,   81468,   -7392,   14940,   81275,   -7683,   13437,   81812,   -7394,   14588
        35,          1700,   80158,   11697,  -89560,   99371,  -52625,  -35341,    4315,       0,       0,   81615,   -5773,   12425,   81770,   -5871,   11614,   81558,   -5615,   13371,   81475,   -5595,   13365,   81735,   -5557,   13398,   81590,   -5570,   13534,   81408,   -5874,   12048,   81932,   -5572,   13184
        36,          1750,   79017,   13567,  -90270,   99250,  -51090,  -36839,    4315,       0,       0,   81753,   -4007,   11048,   81910,   -4109,   10251,   81691,   -3843,   11990,   81607,   -3822,   11978,   81865,   -3782,   12013,   81721,   -3796,   12147,   81550,   -4112,   10679,   82061,   -3798,   11799
        37,          1800,   77848,   15432,  -90948,   99115,  -49545,  -38333,    4315,       0,       0,   81899,   -2289,    9690,   82057,   -2394,    8907,   81834,   -2118,   10627,   81748,   -2096,   10610,   82004,   -2055,   10647,   81862,   -2069,   10779,   81700,   -2398,    9330,   82199,   -2071,   10433
        38,          1850,   76651,   17292,  -91594,   98967,  -47992,  -39824,    4315,       0,       0,   82054,    -616,    8351,   82213,    -724,    7582,   81984,    -439,    9282,   81898,    -416,    9260,   82151,    -373,    9299,   82010,    -388,    9429,   81858,    -729,    8000,   82346,    -389,    9085
        39,          1900,   75427,   19145,  -92208,   98805,  -46429,  -41311,    4315,       0,       0,   82216,    1012,    7029,   82376,     900,    6274,   82143,    1195,    7954,   82056,    1219,    7927,   82307,    1264,    7968,   82167,    1248,    8096,   82023,     895,    6687,   82500,    1247,    7754
        40,          1950,   74176,   20992,  -92788,   98627,  -44857,  -42793,    4315,       0,       0,   82386,    2596,    5724,   82546,    2481,    4984,   82310,    2785,    6642,   82222,    2810,    6610,   82471,    2856,    6652,   82332,    2840,    6779,   82196,    2475,    5391,   82663,    2840,    6439
        41,          2000,   72898,   22831,  -93336,   98433,  -43276,  -44269,    4315,       0,       0,   82563,    4137,    4435,   82724,    4019,    3710,   82485,    4332,    5346,   82396,    4358,    5309,   82642,    4406,    5352,   82505,    4389,    5477,   82376,    4013,    4110,   82833,    4389,    5139
        42,          2050,   71595,   24662,  -93850,   98223,  -41685,  -45739,    4315,       0,       0,   82747,    5636,    3160,   82909,    5514,    2451,   82667,    5837,    4064,   82577,    5864,    4022,   82821,    5914,    4067,   82685,    5895,    4189,   82563,    5508,    2846,   83011,    5896,    3855
        43,          2100,   70267,   26484,  -94332,   97997,  -40086,  -47203,    4315,       0,       0,   82938,    7094,    1900,   83100,    6969,    1206,   82856,    7301,    2796,   82765,    7328,    2749,   83007,    7380,    2796,   82873,    7361,    2916,   82757,    6962,    1595,   83195,    7362,    2584
        44,          2150,   68913,   28297,  -94779,   97753,  -38477,  -48659,    4315,       0,       0,   83136,    8511,     653,   83297,    8383,     -24,   83052,    8724,    1541,   82960,    8752,    1489,   83200,    8806,    1538,   83067,    8786,    1655,   82958,    8376,     358,   83387,    8788,    1326
        45,          2200,   67535,   30100,  -95193,   97490,  -36860,  -50107,    4315,       0,       0,   83340,    9889,    -580,   83501,    9759,   -1242,   83254,   10107,     299,   83162,   10136,     243,   83399,   10192,     292,   83268,   10171,     408,   83164,    9750,    -865,   83585,   10174,      81
        46,          2250,   66133,   31892,  -95573,   97210,  -35234,  -51548,    4315,       0,       0,   83550,   11229,   -1801,   83711,   11095,   -2447,   83462,   11452,    -931,   83369,   11482,    -992,   83605,   11539,    -942,   83475,   11518,    -828,   83377,   11086,   -2077,   83789,   11521,   -1152
        47,          2300,   64707,   33672,  -95920,   96910,  -33599,  -52979,    4315,       0,       0,   83765,   12530,   -3011,   83926,   12394,   -3640,   83677,   12759,   -2150,   83583,   12790,   -2215,   83816,   12849,   -2164,   83688,   12827,   -2053,   83594,   12384,   -3276,   83999,   12831,   -2373
        48,          2350,   63259,   35441,  -96232,   96592,  -31955,  -54401,    4315,       0,       0,   83986,   13795,   -4209,   84146,   13656,   -4822,   83897,   14029,   -3358,   83803,   14061,   -3427,   84034,   14121,   -3375,   83906,   14099,   -3266,   83818,   13645,   -4465,   84215,   14103,   -3584
        49,          2400,   61788,   37197,  -96510,   96253,  -30303,  -55812,    4315,       0,       0,   84212,   15024,   -5397,   84372,   14882,   -5993,   84122,   15263,   -4555,   84028,   15295,   -4629,   84256,   15358,   -4576,   84130,   15334,   -4469,   84046,   14870,   -5643,   84436,   15340,   -4784
        50,          2450,   60295,   38940,  -96754,   95893,  -28643,  -57213,    4315,       0,       0,   84443,   16217,   -6575,   84602,   16073,   -7155,   84353,   16461,   -5743,   84258,   16494,   -5821,   84484,   16558,   -5767,   84359,   16534,   -5663,   84280,   16060,   -6810,   84662,   16541,   -5974
