GTPPLOT creates from lv_network_l3c3b3f1.pl4,999,1999                           
33,33A, 0D
  1,SBUS A          V-node,A, , V,  1.97158312797546, -.15625         , 0.0,-99999, 99999,1.0,1.0,P
  2,SBUS B          V-node,B, , V,  1.97157216072083, -.125           , 0.0,-99999, 99999,1.0,1.0,P
  3,SBUS C          V-node,C, , V,  1.97154676914215, -.21875         , 0.0,-99999, 99999,1.0,1.0,P
  4,SBUS A 1    A I-branch,A, , A,  .001983806723729, -.32381439208984, 0.0,-99999, 99999,1.0,1.0,P
  5,SBUS B 1    B I-branch,B, , A,  .002133145928383, .892463684082031, 0.0,-99999, 99999,1.0,1.0,P
  6,SBUS C 1    C I-branch,C, , A,  .002115285489708, -.71140289306641, 0.0,-99999, 99999,1.0,1.0,P
  7,FAULTA        I-branch,A, , A,  .796699523925781, 59.0546875      , 0.0,-99999, 99999,1.0,1.0,P
  8,FAULTB        I-branch,B, , A,  .850559175014496, 967.89453125    , 0.0,-99999, 99999,1.0,1.0,P
  9,FAULTC        I-branch,C, , A,  .892678380012512, -1472.671875    , 0.0,-99999, 99999,1.0,1.0,P
 10,TACS   PV001V I-branch,S, , A,  .00257596001029 , 257.593414306641, 0.0,-99999, 99999,1.0,1.0,P
 11,TACS   PV001I I-branch,S, , A,  .00595337478444 , 595.33154296875 , 0.0,-99999, 99999,1.0,1.0,P
 12,TACS   PV001W I-branch,S, , A,  .107943276817E-3, 366.196868896484, 0.0,-99999, 99999,1.0,1.0,P
 13,TACS   PV002V I-branch,S, , A,  .002576699946076, 257.667419433594, 0.0,-99999, 99999,1.0,1.0,P
 14,TACS   PV002I I-branch,S, , A,  .00594839034602 , 594.833068847656, 0.0,-99999, 99999,1.0,1.0,P
 15,TACS   PV002W I-branch,S, , A,  .105829458334E-3, 366.408264160156, 0.0,-99999, 99999,1.0,1.0,P
 16,TACS   PV003V I-branch,S, , A,  .002565633039922, 256.560729980469, 0.0,-99999, 99999,1.0,1.0,P
 17,TACS   PV003I I-branch,S, , A,  .005987963173538, 598.790344238281, 0.0,-99999, 99999,1.0,1.0,P
 18,TACS   PV003W I-branch,S, , A,  .108986991108E-3, 366.092498779297, 0.0,-99999, 99999,1.0,1.0,P
 19,TACS   PV004V I-branch,S, , A,  .002567559480667, 256.753387451172, 0.0,-99999, 99999,1.0,1.0,P
 20,TACS   PV004I I-branch,S, , A,  .005978834349662, 597.87744140625 , 0.0,-99999, 99999,1.0,1.0,P
 21,TACS   PV004W I-branch,S, , A,  .109031701868E-3, 366.088012695313, 0.0,-99999, 99999,1.0,1.0,P
 22,TACS   PV005V I-branch,S, , A,  .002553201746196, 255.317626953125, 0.0,-99999, 99999,1.0,1.0,P
 23,TACS   PV005I I-branch,S, , A,  .006025447044522, 602.538696289063, 0.0,-99999, 99999,1.0,1.0,P
 24,TACS   PV005W I-branch,S, , A,  .11030749738E-3 , 365.96044921875 , 0.0,-99999, 99999,1.0,1.0,P
 25,TACS   PV006V I-branch,S, , A,  .00256114685908 , 256.112121582031, 0.0,-99999, 99999,1.0,1.0,P
 26,TACS   PV006I I-branch,S, , A,  .005999775137752, 599.971496582031, 0.0,-99999, 99999,1.0,1.0,P
 27,TACS   PV006W I-branch,S, , A,  .109392727609E-3, 366.051940917969, 0.0,-99999, 99999,1.0,1.0,P
 28,TACS   PV007V I-branch,S, , A,  .002593453042209, 259.342712402344, 0.0,-99999, 99999,1.0,1.0,P
 29,TACS   PV007I I-branch,S, , A,  .005895701237023, 589.564208984375, 0.0,-99999, 99999,1.0,1.0,P
 30,TACS   PV007W I-branch,S, , A,  .104097722215E-3, 366.581420898438, 0.0,-99999, 99999,1.0,1.0,P
 31,TACS   PV008V I-branch,S, , A,  .002546446630731, 254.642105102539, 0.0,-99999, 99999,1.0,1.0,P
 32,TACS   PV008I I-branch,S, , A,  .006046037655324, 604.597717285156, 0.0,-99999, 99999,1.0,1.0,P
 33,TACS   PV008W I-branch,S, , A,  .110880777356E-3, 365.903137207031, 0.0,-99999, 99999,1.0,1.0,P
 50
1
     20000,  12001
10/10/2022,21:57:40.000000
10/10/2022,21:57:40.000000
ASCII 
    1.000000
         1,             0,   99997,  -50012,  -49987,   61144,  -67243,   10531,     -75,   -1138,    1649,  -99999,  -99999,   99999,  -99999,  -99999,   99998,  -99999,  -99999,   99998,  -99999,  -99999,   99998,  -99999,  -99999,   99999,  -99999,  -99999,   99998,  -99999,  -99999,   99998,  -99999,  -99999,   99999
         2,            50,   99980,  -48371,  -51611,   61969,  -66587,    9096,     -75,   -1138,    1649,   86339,  -97505,   99999,   86285,  -97503,   99998,   87089,  -97520,   99998,   86948,  -97516,   99998,   88000,  -97535,   99999,   87417,  -97524,   99998,   85082,  -97481,   99998,   88498,  -97543,   99999
         3,           100,   99927,  -46713,  -53216,   62761,  -65908,    7668,     -75,   -1138,    1649,   86161,  -92576,   98490,   86107,  -92570,   98470,   86899,  -92619,   98515,   86764,  -92607,   98508,   87801,  -92664,   98523,   87227,  -92633,   98519,   84922,  -92503,   98461,   88295,  -92689,   98526
         4,           150,   99840,  -45038,  -54804,   63479,  -65205,    6286,     -75,   -1138,    1649,   85794,  -87761,   95518,   85746,  -87751,   95457,   86508,  -87831,   95593,   86380,  -87812,   95571,   87388,  -87906,   95616,   86833,  -87855,   95604,   84601,  -87642,   95431,   87875,  -87947,   95624
         5,           200,   99717,  -43348,  -56372,   64084,  -64481,    4988,     -75,   -1138,    1649,   85428,  -83055,   92624,   85393,  -83041,   92522,   86109,  -83151,   92748,   85988,  -83126,   92711,   86969,  -83254,   92785,   86431,  -83184,   92767,   84291,  -82893,   92480,   87448,  -83310,   92797
         6,           250,   99558,  -41641,  -57919,   64605,  -63736,    3748,     -75,   -1138,    1649,   85101,  -78456,   89796,   85086,  -78439,   89654,   85747,  -78576,   89968,   85629,  -78544,   89918,   86583,  -78706,   90018,   86062,  -78618,   89995,   84017,  -78252,   89600,   87058,  -78778,   90034
         7,           300,   99363,  -39920,  -59445,   65103,  -62973,    2512,     -75,   -1138,    1649,   84805,  -73962,   87032,   84810,  -73942,   86853,   85413,  -74105,   87253,   85299,  -74067,   87187,   86228,  -74261,   87314,   85722,  -74155,   87285,   83764,  -73719,   86792,   86699,  -74347,   87332
         8,           350,   99133,  -38185,  -60950,   65586,  -62194,    1273,     -75,   -1138,    1649,   84533,  -69571,   84332,   84556,  -69549,   84118,   85105,  -69735,   84598,   84992,  -69692,   84520,   85900,  -69916,   84670,   85406,  -69794,   84637,   83528,  -69291,   84050,   86367,  -70016,   84690
         9,           400,   98868,  -36436,  -62435,   66022,  -61399,      62,     -75,   -1138,    1649,   84282,  -65281,   81693,   84320,  -65258,   81448,   84818,  -65466,   82005,   84706,  -65416,   81913,   85594,  -65670,   82085,   85112,  -65532,   82049,   83309,  -64966,   81376,   86059,  -65784,   82106
        10,           450,   98568,  -34674,  -63896,   66418,  -60589,   -1125,     -75,   -1138,    1649,   84049,  -61091,   79114,   84102,  -61067,   78841,   84551,  -61294,   79470,   84441,  -61239,   79365,   85309,  -61521,   79558,   84838,  -61368,   79519,   83106,  -60742,   78765,   85772,  -61649,   79578
        11,           500,   98232,  -32900,  -65334,   66805,  -59764,   -2321,     -75,   -1138,    1649,   83834,  -56998,   76594,   83901,  -56974,   76295,   84304,  -57218,   76993,   84195,  -57158,   76874,   85045,  -57467,   77086,   84584,  -57299,   77045,   82920,  -56617,   76216,   85506,  -57608,   77107
        12,           550,   97861,  -31114,  -66749,   67189,  -58924,   -3527,     -75,   -1138,    1649,   83637,  -53001,   74131,   83717,  -52976,   73808,   84076,  -53237,   74570,   83967,  -53171,   74439,   84800,  -53506,   74669,   84349,  -53324,   74625,   82749,  -52589,   73726,   85260,  -53660,   74688
        13,           600,   97456,  -29317,  -68141,   67544,  -58071,   -4721,     -75,   -1138,    1649,   83456,  -49096,   71723,   83547,  -49072,   71379,   83865,  -49348,   72202,   83757,  -49276,   72058,   84574,  -49637,   72305,   84132,  -49441,   72258,   82593,  -48656,   71295,   85032,  -49803,   72322
        14,           650,   97016,  -27510,  -69509,   67871,  -57204,   -5902,     -75,   -1138,    1649,   83290,  -45284,   69368,   83392,  -45260,   69005,   83672,  -45549,   69884,   83563,  -45472,   69728,   84365,  -45857,   69991,   83932,  -45648,   69943,   82451,  -44816,   68920,   84822,  -46035,   70005
        15,           700,   96542,  -25693,  -70851,   68189,  -56324,   -7088,     -75,   -1138,    1649,   83140,  -41561,   67065,   83252,  -41538,   66685,   83495,  -41839,   67617,   83387,  -41757,   67448,   84174,  -42165,   67726,   83749,  -41944,   67676,   82324,  -41066,   66598,   84629,  -42355,   67738
        16,           750,   96033,  -23867,  -72169,   68501,  -55429,   -8283,     -75,   -1138,    1649,   83006,  -37927,   64811,   83127,  -37905,   64416,   83335,  -38216,   65398,   83227,  -38129,   65216,   84000,  -38560,   65508,   83584,  -38327,   65457,   82212,  -37406,   64328,   84454,  -38761,   65517
        17,           800,   95490,  -22032,  -73461,   68792,  -54521,   -9471,     -75,   -1138,    1649,   82886,  -34378,   62605,   83015,  -34357,   62196,   83191,  -34678,   63225,   83083,  -34587,   63031,   83842,  -35038,   63336,   83434,  -34794,   63284,   82113,  -33834,   62108,   84294,  -35251,   63342
        18,           850,   94914,  -20190,  -74727,   69058,  -53601,  -10648,     -75,   -1138,    1649,   82781,  -30914,   60446,   82918,  -30895,   60025,   83063,  -31224,   61096,   82954,  -31128,   60890,   83700,  -31600,   61207,   83299,  -31345,   61155,   82028,  -30347,   59937,   84151,  -31824,   61210
        19,           900,   94303,  -18340,  -75966,   69312,  -52668,  -11828,     -75,   -1138,    1649,   82690,  -27533,   58330,   82834,  -27515,   57899,   82950,  -27851,   59010,   82841,  -27751,   58792,   83574,  -28243,   59121,   83181,  -27977,   59068,   81956,  -26944,   57811,   84023,  -28477,   59120
        20,           950,   93659,  -16484,  -77178,   69557,  -51721,  -13012,     -75,   -1138,    1649,   82613,  -24233,   56257,   82763,  -24217,   55818,   82852,  -24559,   56966,   82744,  -24454,   56736,   83463,  -24965,   57075,   83078,  -24689,   57021,   81898,  -23623,   55731,   83910,  -25210,   57070
        21,          1000,   92982,  -14622,  -78363,   69782,  -50762,  -14191,     -75,   -1138,    1649,   82550,  -21012,   54225,   82706,  -20998,   53779,   82769,  -21346,   54961,   82660,  -21237,   54719,   83368,  -21766,   55069,   82990,  -21480,   55014,   81852,  -20382,   53693,   83813,  -22020,   55059
        22,          1050,   92272,  -12755,  -79520,   69985,  -49791,  -15360,     -75,   -1138,    1649,   82500,  -17870,   52233,   82661,  -17858,   51782,   82701,  -18210,   52994,   82591,  -18097,   52741,   83287,  -18643,   53099,   82916,  -18348,   53045,   81819,  -17221,   51696,   83730,  -18907,   53085
        23,          1100,   91529,  -10883,  -80649,   70174,  -48808,  -16529,     -75,   -1138,    1649,   82463,  -14804,   50278,   82630,  -14794,   49823,   82646,  -15150,   51064,   82537,  -15032,   50798,   83221,  -15595,   51166,   82857,  -15292,   51111,   81799,  -14137,   49739,   83662,  -15869,   51146
        24,          1150,   90753,   -9007,  -81749,   70351,  -47813,  -17698,     -75,   -1138,    1649,   82440,  -11812,   48359,   82611,  -11804,   47902,   82606,  -12164,   49168,   82496,  -12042,   48891,   83169,  -12621,   49267,   82812,  -12309,   49212,   81791,  -11128,   47819,   83608,  -12904,   49242
        25,          1200,   89946,   -7128,  -82820,   70509,  -46805,  -18862,     -75,   -1138,    1649,   82429,   -8895,   46476,   82604,   -8889,   46018,   82580,   -9251,   47306,   82469,   -9125,   47018,   83131,   -9719,   47401,   82780,   -9399,   47346,   81795,   -8194,   45937,   83568,  -10011,   47371
        26,          1250,   89106,   -5247,  -83862,   70646,  -45787,  -20017,     -75,   -1138,    1649,   82431,   -6049,   44626,   82608,   -6045,   44168,   82566,   -6409,   45476,   82455,   -6279,   45177,   83107,   -6888,   45566,   82762,   -6560,   45512,   81810,   -5332,   44089,   83541,   -7189,   45532
        27,          1300,   88234,   -3364,  -84873,   70766,  -44758,  -21169,     -75,   -1138,    1649,   82444,   -3273,   42807,   82625,   -3272,   42351,   82566,   -3638,   43677,   82454,   -3504,   43367,   83095,   -4126,   43762,   82757,   -3791,   43708,   81838,   -2542,   42274,   83527,   -4435,   43723
        28,          1350,   87332,   -1479,  -85855,   70872,  -43716,  -22318,     -75,   -1138,    1649,   82470,    -567,   41019,   82653,    -568,   40566,   82578,    -934,   41907,   82465,    -797,   41587,   83097,   -1432,   41987,   82765,   -1091,   41933,   81877,     178,   40491,   83526,   -1749,   41942
        29,          1400,   86398,     405,  -86806,   70960,  -42664,  -23461,     -75,   -1138,    1649,   82507,    2072,   39261,   82693,    2069,   38812,   82603,    1702,   40165,   82489,    1843,   39835,   83112,    1195,   40240,   82786,    1543,   40186,   81926,    2830,   38739,   83538,     870,   40189
        30,          1450,   85433,    2290,  -87726,   71027,  -41602,  -24595,     -75,   -1138,    1649,   82556,    4645,   37531,   82743,    4639,   37087,   82640,    4272,   38451,   82525,    4416,   38110,   83138,    3756,   38519,   82818,    4111,   38466,   81987,    5415,   37017,   83562,    3424,   38463
        31,          1500,   84438,    4174,  -88616,   71076,  -40530,  -25723,     -75,   -1138,    1649,   82615,    7152,   35828,   82804,    7144,   35390,   82688,    6777,   36762,   82573,    6925,   36411,   83177,    6254,   36823,   82863,    6614,   36771,   82058,    7934,   35322,   83598,    5914,   36762
        32,          1550,   83414,    6057,  -89473,   71109,  -39446,  -26847,     -75,   -1138,    1649,   82686,    9596,   34150,   82876,    9585,   33719,   82749,    9219,   35097,   82632,    9371,   34736,   83228,    8688,   35152,   82919,    9054,   35101,   82139,   10389,   33654,   83646,    8341,   35085
        33,          1600,   82359,    7937,  -90299,   71124,  -38353,  -27962,     -75,   -1138,    1649,   82767,   11977,   32497,   82958,   11964,   32074,   82820,   11599,   33456,   82703,   11754,   33086,   83290,   11061,   33504,   82986,   11432,   33453,   82231,   12781,   32012,   83704,   10707,   33431
        34,          1650,   81275,    9815,  -91093,   71118,  -37251,  -29069,     -75,   -1138,    1649,   82858,   14297,   30867,   83049,   14282,   30453,   82902,   13918,   31837,   82784,   14076,   31458,   83363,   13373,   31878,   83065,   13750,   31828,   82332,   15111,   30394,   83774,   13013,   31800
        35,          1700,   80163,   11689,  -91854,   71093,  -36139,  -30167,     -75,   -1138,    1649,   82959,   16557,   29259,   83151,   16540,   28856,   82995,   16177,   30240,   82876,   16339,   29852,   83446,   15626,   30274,   83154,   16007,   30225,   82443,   17381,   28800,   83855,   15260,   30189
        36,          1750,   79022,   13558,  -92583,   71051,  -35018,  -31259,     -75,   -1138,    1649,   83069,   18758,   27673,   83261,   18739,   27280,   83098,   18378,   28663,   82978,   18543,   28266,   83540,   17821,   28689,   83253,   18207,   28641,   82563,   19591,   27227,   83945,   17449,   28599
        37,          1800,   77853,   15423,  -93279,   70991,  -33887,  -32341,     -75,   -1138,    1649,   83189,   20902,   26108,   83381,   20881,   25726,   83211,   20521,   27105,   83089,   20690,   26700,   83645,   19959,   27124,   83362,   20349,   27076,   82692,   21743,   25676,   84046,   19582,   27028
        38,          1850,   76656,   17283,  -93942,   70909,  -32749,  -33414,     -75,   -1138,    1649,   83318,   22989,   24562,   83510,   22966,   24192,   83333,   22609,   25566,   83211,   22780,   25153,   83758,   22042,   25577,   83481,   22436,   25531,   82829,   23839,   24145,   84157,   21658,   25475
        39,          1900,   75432,   19136,  -94571,   70809,  -31601,  -34476,     -75,   -1138,    1649,   83456,   25021,   23034,   83647,   24996,   22676,   83465,   24641,   24044,   83341,   24815,   23624,   83882,   24069,   24048,   83609,   24467,   24002,   82975,   25879,   22633,   84277,   23681,   23940
        40,          1950,   74181,   20983,  -95167,   70690,  -30446,  -35530,     -75,   -1138,    1649,   83602,   26999,   21524,   83792,   26973,   21180,   83606,   26619,   22539,   83481,   26797,   22112,   84014,   26044,   22535,   83746,   26444,   22490,   83129,   27864,   21140,   84405,   25650,   22421
        41,          2000,   72904,   22822,  -95729,   70552,  -29283,  -36573,     -75,   -1138,    1649,   83756,   28925,   20031,   83946,   28896,   19700,   83755,   28544,   21050,   83629,   28725,   20617,   84156,   27965,   21038,   83892,   28369,   20995,   83291,   29796,   19664,   84543,   27567,   20918
        42,          2050,   71601,   24653,  -96257,   70394,  -28112,  -37605,     -75,   -1138,    1649,   83918,   30798,   18553,   84107,   30767,   18237,   83913,   30418,   19577,   83786,   30602,   19136,   84305,   29835,   19556,   84046,   30243,   19514,   83461,   31675,   18205,   84689,   29433,   19431
        43,          2100,   70272,   26476,  -96751,   70216,  -26934,  -38626,     -75,   -1138,    1649,   84088,   32620,   17092,   84275,   32588,   16790,   84078,   32241,   18118,   83950,   32428,   17671,   84463,   31655,   18089,   84208,   32065,   18048,   83638,   33503,   16761,   84843,   31248,   17958
        44,          2150,   68919,   28288,  -97210,   70019,  -25749,  -39636,     -75,   -1138,    1649,   84264,   34393,   15645,   84450,   34359,   15358,   84251,   34015,   16673,   84122,   34204,   16220,   84628,   33426,   16636,   84378,   33838,   16596,   83822,   35281,   15332,   85004,   33015,   16499
        45,          2200,   67541,   30091,  -97635,   69802,  -24558,  -40635,     -75,   -1138,    1649,   84448,   36117,   14211,   84633,   36082,   13940,   84432,   35739,   15241,   84301,   35931,   14782,   84801,   35148,   15195,   84555,   35563,   15157,   84012,   37010,   13918,   85173,   34733,   15053
        46,          2250,   66139,   31883,  -98025,   69565,  -23360,  -41620,     -75,   -1138,    1649,   84638,   37793,   12792,   84821,   37757,   12535,   84619,   37416,   13821,   84487,   37611,   13357,   84982,   36823,   13767,   84739,   37240,   13731,   84209,   38691,   12518,   85349,   36404,   13620
        47,          2300,   64713,   33664,  -98380,   69308,  -22156,  -42593,     -75,   -1138,    1649,   84835,   39423,   11384,   85016,   39385,   11144,   84813,   39047,   12414,   84680,   39244,   11945,   85168,   38451,   12352,   84930,   38870,   12316,   84412,   40325,   11130,   85532,   38029,   12198
        48,          2350,   63265,   35433,  -98701,   69031,  -20946,  -43554,     -75,   -1138,    1649,   85037,   41007,    9989,   85217,   40968,    9765,   85014,   40632,   11017,   84880,   40832,   10544,   85362,   40034,   10947,   85127,   40455,   10913,   84620,   41914,    9754,   85721,   39609,   10789
        49,          2400,   61794,   37189,  -98986,   68735,  -19731,  -44501,     -75,   -1138,    1649,   85245,   42546,    8605,   85423,   42506,    8397,   85220,   42172,    9632,   85085,   42375,    9155,   85561,   41573,    9554,   85330,   41996,    9521,   84835,   43457,    8391,   85917,   41145,    9390
        50,          2450,   60301,   38932,  -99236,   68418,  -18511,  -45434,     -75,   -1138,    1649,   85459,   44041,    7233,   85635,   44000,    7041,   85432,   43669,    8257,   85296,   43874,    7776,   85766,   43068,    8171,   85539,   43493,    8140,   85054,   44956,    7038,   86118,   42638,    8002
