GTPPLOT creates from lv_network_l3c1b3f1.pl4,999,1999                           
33,33A, 0D
  1,SBUS A          V-node,A, , V,  1.97157335281372, -.09375         , 0.0,-99999, 99999,1.0,1.0,P
  2,SBUS B          V-node,B, , V,  1.97156250476837, -.078125        , 0.0,-99999, 99999,1.0,1.0,P
  3,SBUS C          V-node,C, , V,  1.97153663635254, -.1328125       , 0.0,-99999, 99999,1.0,1.0,P
  4,SBUS A 1    A I-branch,A, , A,  .002072390867397, -.30431365966797, 0.0,-99999, 99999,1.0,1.0,P
  5,SBUS B 1    B I-branch,B, , A,  .002223328920081, .8721923828125  , 0.0,-99999, 99999,1.0,1.0,P
  6,SBUS C 1    C I-branch,C, , A,  .002200957387686, -.70175933837891, 0.0,-99999, 99999,1.0,1.0,P
  7,FAULTA        I-branch,A, , A,  .796263813972473, 59.1328125      , 0.0,-99999, 99999,1.0,1.0,P
  8,FAULTB        I-branch,B, , A,  .850074648857117, 964.78125       , 0.0,-99999, 99999,1.0,1.0,P
  9,FAULTC        I-branch,C, , A,  .892220318317413, -1473.5703125   , 0.0,-99999, 99999,1.0,1.0,P
 10,TACS   PV001V I-branch,S, , A,  .00257130083628 , 257.127502441406, 0.0,-99999, 99999,1.0,1.0,P
 11,TACS   PV001I I-branch,S, , A,  .003580671502277, 358.063568115234, 0.0,-99999, 99999,1.0,1.0,P
 12,TACS   PV001W I-branch,S, , A,  .109362204967E-3, 366.054992675781, 0.0,-99999, 99999,1.0,1.0,P
 13,TACS   PV002V I-branch,S, , A,  .00257104402408 , 257.101837158203, 0.0,-99999, 99999,1.0,1.0,P
 14,TACS   PV002I I-branch,S, , A,  .003579231444746, 357.919555664063, 0.0,-99999, 99999,1.0,1.0,P
 15,TACS   PV002W I-branch,S, , A,  .107603918877E-3, 366.230804443359, 0.0,-99999, 99999,1.0,1.0,P
 16,TACS   PV003V I-branch,S, , A,  .002562039997429, 256.201446533203, 0.0,-99999, 99999,1.0,1.0,P
 17,TACS   PV003I I-branch,S, , A,  .003599611110985, 359.95751953125 , 0.0,-99999, 99999,1.0,1.0,P
 18,TACS   PV003W I-branch,S, , A,  .110054963443E-3, 365.985717773438, 0.0,-99999, 99999,1.0,1.0,P
 19,TACS   PV004V I-branch,S, , A,  .002564396709204, 256.437103271484, 0.0,-99999, 99999,1.0,1.0,P
 20,TACS   PV004I I-branch,S, , A,  .003593355882913, 359.332000732422, 0.0,-99999, 99999,1.0,1.0,P
 21,TACS   PV004W I-branch,S, , A,  .109961729322E-3, 365.995025634766, 0.0,-99999, 99999,1.0,1.0,P
 22,TACS   PV005V I-branch,S, , A,  .002549570053816, 254.954452514648, 0.0,-99999, 99999,1.0,1.0,P
 23,TACS   PV005I I-branch,S, , A,  .003622283460572, 362.224731445313, 0.0,-99999, 99999,1.0,1.0,P
 24,TACS   PV005W I-branch,S, , A,  .111377761641E-3, 365.853424072266, 0.0,-99999, 99999,1.0,1.0,P
 25,TACS   PV006V I-branch,S, , A,  .002557971747592, 255.794616699219, 0.0,-99999, 99999,1.0,1.0,P
 26,TACS   PV006I I-branch,S, , A,  .003605962963775, 360.592681884766, 0.0,-99999, 99999,1.0,1.0,P
 27,TACS   PV006W I-branch,S, , A,  .110322755063E-3, 365.958923339844, 0.0,-99999, 99999,1.0,1.0,P
 28,TACS   PV007V I-branch,S, , A,  .0025889640674  , 258.893829345703, 0.0,-99999, 99999,1.0,1.0,P
 29,TACS   PV007I I-branch,S, , A,  .003545502666384, 354.546722412109, 0.0,-99999, 99999,1.0,1.0,P
 30,TACS   PV007W I-branch,S, , A,  .105515733594E-3, 366.439636230469, 0.0,-99999, 99999,1.0,1.0,P
 31,TACS   PV008V I-branch,S, , A,  .002542363945395, 254.233840942383, 0.0,-99999, 99999,1.0,1.0,P
 32,TACS   PV008I I-branch,S, , A,  .003635498462245, 363.546203613281, 0.0,-99999, 99999,1.0,1.0,P
 33,TACS   PV008W I-branch,S, , A,  .112093097414E-3, 365.781890869141, 0.0,-99999, 99999,1.0,1.0,P
 50
1
     20000,  12001
10/10/2022,21:55:42.000000
10/10/2022,21:55:42.000000
ASCII 
    1.000000
         1,             0,   99998,  -50013,  -49988,   58521,  -64506,   10116,     -75,   -1135,    1651,  -99999,  -99999,   99999,  -99999,  -99999,   99999,  -99999,  -99999,   99999,  -99999,  -99999,   99999,  -99999,  -99999,   99999,  -99999,  -99999,   99999,  -99999,  -99999,   99999,  -99999,  -99999,   99999
         2,            50,   99980,  -48372,  -51611,   59311,  -63877,    8737,     -75,   -1135,    1651,   86676,  -97511,   99999,   86695,  -97510,   99999,   87351,  -97524,   99999,   87179,  -97520,   99999,   88268,  -97540,   99999,   87649,  -97529,   99999,   85403,  -97487,   99999,   88801,  -97549,   99999
         3,           100,   99927,  -46713,  -53216,   60073,  -63226,    7361,     -75,   -1135,    1651,   86498,  -92594,   98510,   86517,  -92591,   98495,   87162,  -92633,   98530,   86994,  -92620,   98521,   88068,  -92679,   98538,   87459,  -92646,   98532,   85243,  -92520,   98482,   88598,  -92705,   98542
         4,           150,   99840,  -45039,  -54803,   60784,  -62552,    6010,     -75,   -1135,    1651,   86127,  -87790,   95576,   86149,  -87785,   95533,   86767,  -87854,   95636,   86609,  -87833,   95609,   87654,  -87929,   95658,   87064,  -87875,   95641,   84915,  -87670,   95494,   88175,  -87973,   95671
         5,           200,   99716,  -43348,  -56371,   61423,  -61856,    4707,     -75,   -1135,    1651,   85749,  -83095,   92720,   85779,  -83089,   92648,   86361,  -83182,   92819,   86210,  -83154,   92774,   87227,  -83286,   92855,   86655,  -83212,   92828,   84586,  -82931,   92584,   87740,  -83346,   92876
         6,           250,   99557,  -41642,  -57918,   62003,  -61140,    3437,     -75,   -1135,    1651,   85403,  -78507,   89930,   85445,  -78499,   89829,   85985,  -78616,   90067,   85840,  -78580,   90005,   86830,  -78747,   90116,   86275,  -78653,   90080,   84286,  -78300,   89745,   87337,  -78823,   90143
         7,           300,   99362,  -39920,  -59444,   62562,  -60405,    2169,     -75,   -1135,    1651,   85084,  -74022,   87203,   85138,  -74013,   87076,   85636,  -74152,   87378,   85495,  -74110,   87299,   86460,  -74309,   87438,   85921,  -74198,   87394,   84006,  -73776,   86975,   86961,  -74401,   87471
         8,           350,   99132,  -38185,  -60950,   63103,  -59652,     898,     -75,   -1135,    1651,   84788,  -69640,   84538,   84852,  -69631,   84387,   85310,  -69790,   84751,   85173,  -69740,   84654,   86114,  -69972,   84820,   85590,  -69843,   84769,   83745,  -69356,   84270,   86610,  -70079,   84858
         9,           400,   98867,  -36436,  -62433,   63609,  -58882,    -356,     -75,   -1135,    1651,   84511,  -65359,   81933,   84585,  -65349,   81761,   85005,  -65527,   82183,   84872,  -65471,   82070,   85791,  -65733,   82261,   85281,  -65587,   82202,   83500,  -65038,   81630,   86282,  -65854,   82303
        10,           450,   98567,  -34675,  -63895,   64082,  -58095,   -1596,     -75,   -1135,    1651,   84254,  -61176,   79387,   84337,  -61165,   79195,   84720,  -61361,   79672,   84591,  -61299,   79544,   85489,  -61590,   79758,   84992,  -61428,   79693,   83274,  -60820,   79051,   85976,  -61725,   79803
        11,           500,   98231,  -32901,  -65333,   64541,  -57291,   -2841,     -75,   -1135,    1651,   84016,  -57089,   76898,   84106,  -57079,   76688,   84456,  -57291,   77217,   84329,  -57222,   77073,   85207,  -57541,   77310,   84722,  -57364,   77239,   83064,  -56700,   76532,   85690,  -57690,   77357
        12,           550,   97860,  -31115,  -66748,   64988,  -56470,   -4091,     -75,   -1135,    1651,   83795,  -53097,   74464,   83893,  -53087,   74237,   84210,  -53314,   74816,   84086,  -53239,   74657,   84945,  -53585,   74914,   84472,  -53393,   74839,   82871,  -52676,   74070,   85424,  -53748,   74964
        13,           600,   97455,  -29318,  -68140,   65410,  -55633,   -5334,     -75,   -1135,    1651,   83592,  -49198,   72083,   83696,  -49188,   71841,   83983,  -49429,   72468,   83861,  -49348,   72293,   84702,  -49720,   72570,   84240,  -49514,   72490,   82694,  -48747,   71665,   85177,  -49896,   72620
        14,           650,   97016,  -27511,  -69508,   65806,  -54781,   -6567,     -75,   -1135,    1651,   83405,  -45389,   69753,   83515,  -45381,   69498,   83773,  -45633,   70169,   83654,  -45548,   69980,   84477,  -45944,   70275,   84026,  -45724,   70191,   82532,  -44909,   69313,   84949,  -46132,   70326
        15,           700,   96541,  -25694,  -70850,   66188,  -53914,   -7803,     -75,   -1135,    1651,   83235,  -41670,   67473,   83351,  -41662,   67206,   83581,  -41926,   67919,   83464,  -41835,   67715,   84270,  -42256,   68028,   83830,  -42023,   67939,   82386,  -41163,   67013,   84739,  -42456,   68079
        16,           750,   96032,  -23867,  -72168,   66556,  -53030,   -9043,     -75,   -1135,    1651,   83082,  -38038,   65241,   83202,  -38031,   64963,   83406,  -38306,   65716,   83292,  -38210,   65497,   84081,  -38653,   65827,   83651,  -38408,   65734,   82255,  -37505,   64763,   84546,  -38865,   65876
        17,           800,   95490,  -22033,  -73460,   66903,  -52132,  -10276,     -75,   -1135,    1651,   82944,  -34492,   63054,   83068,  -34486,   62767,   83248,  -34770,   63557,   83135,  -34669,   63325,   83908,  -35134,   63669,   83489,  -34877,   63574,   82139,  -33933,   62561,   84370,  -35358,   63718
        18,           850,   94913,  -20190,  -74726,   67226,  -51219,  -11502,     -75,   -1135,    1651,   82821,  -31029,   60912,   82949,  -31025,   60617,   83106,  -31317,   61442,   82995,  -31212,   61196,   83753,  -31697,   61554,   83343,  -31429,   61456,   82037,  -30447,   60406,   84211,  -31932,   61602
        19,           900,   94303,  -18341,  -75965,   67532,  -50291,  -12727,     -75,   -1135,    1651,   82714,  -27649,   58812,   82845,  -27646,   58510,   82981,  -27946,   59368,   82871,  -27836,   59109,   83614,  -28342,   59480,   83214,  -28063,   59380,   81950,  -27044,   58295,   84069,  -28587,   59526
        20,           950,   93659,  -16485,  -77177,   67822,  -49349,  -13953,     -75,   -1135,    1651,   82621,  -24350,   56753,   82756,  -24348,   56446,   82871,  -24655,   57334,   82763,  -24541,   57061,   83491,  -25065,   57446,   83100,  -24776,   57343,   81877,  -23723,   56226,   83943,  -25321,   57489
        21,          1000,   92982,  -14623,  -78362,   68092,  -48393,  -15174,     -75,   -1135,    1651,   82543,  -21130,   54734,   82681,  -21129,   54421,   82777,  -21443,   55338,   82670,  -21324,   55053,   83384,  -21867,   55449,   83002,  -21568,   55344,   81817,  -20482,   54199,   83832,  -22133,   55489
        22,          1050,   92272,  -12755,  -79519,   68339,  -47423,  -16386,     -75,   -1135,    1651,   82480,  -17987,   52752,   82619,  -17987,   52436,   82698,  -18307,   53379,   82591,  -18184,   53082,   83293,  -18744,   53488,   82919,  -18436,   53382,   81771,  -17320,   52212,   83737,  -19020,   53525
        23,          1100,   91528,  -10884,  -80648,   68568,  -46439,  -17595,     -75,   -1135,    1651,   82430,  -14920,   50806,   82572,  -14922,   50489,   82633,  -15247,   51456,   82528,  -15119,   51146,   83216,  -15696,   51562,   82851,  -15380,   51455,   81738,  -14235,   50262,   83657,  -15982,   51595
        24,          1150,   90753,   -9008,  -81748,   68780,  -45442,  -18802,     -75,   -1135,    1651,   82394,  -11928,   48895,   82537,  -11931,   48577,   82583,  -12260,   49566,   82479,  -12129,   49244,   83155,  -12722,   49669,   82797,  -12397,   49561,   81719,  -11225,   48349,   83592,  -13017,   49699
        25,          1200,   89945,   -7129,  -82819,   68971,  -44432,  -20002,     -75,   -1135,    1651,   82372,   -9009,   47018,   82516,   -9013,   46699,   82548,   -9347,   47709,   82444,   -9212,   47375,   83107,   -9820,   47808,   82758,   -9486,   47699,   81712,   -8289,   46471,   83541,  -10123,   47834
        26,          1250,   89106,   -5248,  -83861,   69140,  -43409,  -21194,     -75,   -1135,    1651,   82362,   -6161,   45173,   82508,   -6167,   44854,   82526,   -6504,   45882,   82422,   -6365,   45537,   83074,   -6988,   45978,   82732,   -6647,   45869,   81717,   -5425,   44626,   83504,   -7300,   45999
        27,          1300,   88234,   -3365,  -84872,   69289,  -42374,  -22381,     -75,   -1135,    1651,   82366,   -3384,   43358,   82512,   -3391,   43041,   82517,   -3731,   44086,   82414,   -3589,   43730,   83055,   -4225,   44177,   82720,   -3877,   44067,   81735,   -2633,   42814,   83482,   -4545,   44194
        28,          1350,   87331,   -1480,  -85854,   69420,  -41326,  -23562,     -75,   -1135,    1651,   82382,    -676,   41572,   82529,    -684,   41258,   82522,   -1027,   42317,   82419,    -881,   41951,   83049,   -1531,   42404,   82722,   -1176,   42294,   81765,      90,   41032,   83472,   -1858,   42416
        29,          1400,   86398,     405,  -86805,   69530,  -40266,  -24736,     -75,   -1135,    1651,   82410,    1965,   39815,   82557,    1955,   39504,   82540,    1611,   40577,   82437,    1760,   40200,   83056,    1098,   40657,   82736,    1459,   40548,   81806,    2744,   39279,   83476,     762,   40664
        30,          1450,   85433,    2289,  -87726,   69618,  -39195,  -25901,     -75,   -1135,    1651,   82450,    4540,   38084,   82597,    4529,   37778,   82570,    4182,   38862,   82467,    4335,   38475,   83076,    3661,   38937,   82763,    4028,   38828,   81859,    5332,   37555,   83492,    3318,   38939
        31,          1500,   84439,    4173,  -88615,   69685,  -38113,  -27058,     -75,   -1135,    1651,   82502,    7050,   36379,   82649,    7037,   36078,   82612,    6689,   37171,   82510,    6845,   36775,   83108,    6160,   37241,   82802,    6533,   37133,   81923,    7854,   35857,   83521,    5810,   37237
        32,          1550,   83414,    6056,  -89472,   69733,  -37019,  -28208,     -75,   -1135,    1651,   82565,    9496,   34699,   82712,    9483,   34403,   82667,    9133,   35505,   82564,    9292,   35099,   83153,    8596,   35568,   82853,    8974,   35461,   81997,   10312,   34186,   83561,    8239,   35559
        33,          1600,   82359,    7936,  -90298,   69760,  -35914,  -29350,     -75,   -1135,    1651,   82639,   11880,   33042,   82785,   11865,   32753,   82733,   11515,   33861,   82629,   11677,   33446,   83209,   10970,   33918,   82915,   11354,   33811,   82082,   12707,   32538,   83614,   10607,   33903
        34,          1650,   81276,    9814,  -91092,   69766,  -34799,  -30480,     -75,   -1135,    1651,   82724,   14203,   31408,   82869,   14187,   31125,   82810,   13836,   32239,   82706,   14001,   31816,   83277,   13285,   32289,   82989,   13673,   32184,   82178,   15041,   30915,   83678,   12915,   32268
        35,          1700,   80163,   11688,  -91854,   69750,  -33675,  -31602,     -75,   -1135,    1651,   82819,   16466,   29795,   82964,   16449,   29520,   82898,   16097,   30638,   82794,   16265,   30206,   83356,   15540,   30681,   83074,   15933,   30576,   82283,   17314,   29313,   83753,   15165,   30654
        36,          1750,   79022,   13557,  -92582,   69714,  -32540,  -32714,     -75,   -1135,    1651,   82924,   18671,   28203,   83068,   18653,   27936,   82997,   18300,   29056,   82892,   18471,   28617,   83446,   17737,   29092,   83169,   18134,   28989,   82398,   19527,   27733,   83839,   17356,   29059
        37,          1800,   77853,   15422,  -93278,   69656,  -31395,  -33816,     -75,   -1135,    1651,   83039,   20818,   26630,   83182,   20799,   26372,   83105,   20446,   27493,   83000,   20620,   27046,   83546,   19877,   27522,   83275,   20278,   27420,   82522,   21683,   26174,   83935,   19491,   27483
        38,          1850,   76656,   17282,  -93941,   69577,  -30242,  -34907,     -75,   -1135,    1651,   83163,   22908,   25076,   83305,   22888,   24827,   83224,   22535,   25948,   83118,   22712,   25494,   83656,   21962,   25969,   83390,   22366,   25869,   82656,   23782,   24634,   84041,   21570,   25924
        39,          1900,   75432,   19135,  -94571,   69477,  -29080,  -35986,     -75,   -1135,    1651,   83296,   24944,   23540,   83437,   24923,   23300,   83352,   24570,   24420,   83246,   24749,   23959,   83775,   23992,   24434,   83515,   24400,   24336,   82798,   25825,   23112,   84157,   23595,   24382
        40,          1950,   74181,   20982,  -95166,   69356,  -27909,  -37055,     -75,   -1135,    1651,   83439,   26925,   22020,   83578,   26903,   21791,   83490,   26551,   22909,   83383,   26733,   22441,   83905,   25968,   22914,   83650,   26379,   22818,   82949,   27814,   21609,   84282,   25567,   22856
        41,          2000,   72904,   22821,  -95728,   69213,  -26730,  -38111,     -75,   -1135,    1651,   83589,   28853,   20517,   83727,   28831,   20299,   83636,   28478,   21413,   83528,   28663,   20939,   84043,   27892,   21411,   83793,   28306,   21316,   83108,   29749,   20122,   84416,   27486,   21346
        42,          2050,   71601,   24652,  -96256,   69049,  -25544,  -39155,     -75,   -1135,    1651,   83748,   30730,   19030,   83884,   30707,   18822,   83791,   30355,   19931,   83682,   30542,   19453,   84190,   29764,   19922,   83945,   30181,   19829,   83274,   31632,   18651,   84559,   29355,   19850
        43,          2100,   70273,   26475,  -96750,   68863,  -24349,  -40186,     -75,   -1135,    1651,   83915,   32556,   17557,   84049,   32532,   17360,   83955,   32180,   18464,   83845,   32370,   17980,   84345,   31587,   18447,   84104,   32006,   18356,   83448,   33464,   17195,   84710,   31173,   18368
        44,          2150,   68919,   28287,  -97209,   68656,  -23148,  -41205,     -75,   -1135,    1651,   84089,   34331,   16099,   84221,   34307,   15913,   84126,   33956,   17011,   84015,   34148,   16522,   84508,   33359,   16985,   84272,   33781,   16897,   83630,   35245,   15754,   84869,   32942,   16900
        45,          2200,   67541,   30090,  -97634,   68428,  -21940,  -42210,     -75,   -1135,    1651,   84270,   36059,   14654,   84401,   36034,   14480,   84304,   35683,   15570,   84192,   35878,   15077,   84679,   35084,   15536,   84448,   35508,   15450,   83818,   36978,   14327,   85036,   34663,   15445
        46,          2250,   66139,   31882,  -98025,   68178,  -20726,  -43202,     -75,   -1135,    1651,   84458,   37738,   13222,   84587,   37713,   13060,   84490,   37362,   14141,   84377,   37560,   13644,   84857,   36761,   14100,   84630,   37187,   14016,   84014,   38662,   12914,   85210,   36337,   14002
        47,          2300,   64714,   33663,  -98380,   67906,  -19506,  -44179,     -75,   -1135,    1651,   84653,   39371,   11802,   84780,   39346,   11652,   84682,   38995,   12724,   84569,   39195,   12223,   85043,   38392,   12675,   84820,   38819,   12593,   84215,   40300,   11513,   85391,   37965,   12570
        48,          2350,   63265,   35432,  -98700,   67613,  -18280,  -45141,     -75,   -1135,    1651,   84854,   40958,   10394,   84979,   40933,   10256,   84881,   40583,   11319,   84767,   40784,   10814,   85235,   39977,   11261,   85016,   40406,   11182,   84423,   41891,   10124,   85578,   39547,   11150
        49,          2400,   61794,   37188,  -98986,   67299,  -17049,  -46089,     -75,   -1135,    1651,   85061,   42501,    8997,   85184,   42475,    8872,   85087,   42125,    9924,   84971,   42329,    9416,   85433,   41518,    9858,   85218,   41949,    9782,   84636,   43437,    8746,   85772,   41086,    9741
        50,          2450,   60301,   38931,  -99236,   66964,  -15813,  -47022,     -75,   -1135,    1651,   85273,   43999,    7611,   85395,   43973,    7498,   85298,   43624,    8539,   85181,   43830,    8029,   85637,   43016,    8466,   85426,   43448,    8392,   84854,   44939,    7379,   85972,   42581,    8342
