GTPPLOT creates from lv_network_l1c2b1f1.pl4,999,1999                           
33,33A, 0D
  1,SBUS A          V-node,A, , V,  1.97175717353821, -.1171875       , 0.0,-99999, 99999,1.0,1.0,P
  2,SBUS B          V-node,B, , V,  1.97175061702728, -.09375         , 0.0,-99999, 99999,1.0,1.0,P
  3,SBUS C          V-node,C, , V,  1.97173976898193, -.1640625       , 0.0,-99999, 99999,1.0,1.0,P
  4,SBUS A 1    A I-branch,A, , A,  .491513812449E-3, 4.85677528381348, 0.0,-99999, 99999,1.0,1.0,P
  5,SBUS B 1    B I-branch,B, , A,  .54185296176E-3 , -5.2992115020752, 0.0,-99999, 99999,1.0,1.0,P
  6,SBUS C 1    C I-branch,C, , A,  .57308760006E-3 , 3.87522125244141, 0.0,-99999, 99999,1.0,1.0,P
  7,FAULTA        I-branch,A, , A,  6.51785039901733, -28462.75       , 0.0,-99999, 99999,1.0,1.0,P
  8,FAULTB        I-branch,B, , A,  7.73136520385742, 149840.15625    , 0.0,-99999, 99999,1.0,1.0,P
  9,FAULTC        I-branch,C, , A,  7.64667415618896, -141370.6875    , 0.0,-99999, 99999,1.0,1.0,P
 10,TACS   PV001V I-branch,S, , A,  .00261840946041 , 261.838317871094, 0.0,-99999, 99999,1.0,1.0,P
 11,TACS   PV001I I-branch,S, , A,  .007317073177546, 731.700012207031, 0.0,-99999, 99999,1.0,1.0,P
 12,TACS   PV001W I-branch,S, , A,  .181828450877E-3, 359.102294921875, 0.0,-99999, 99999,1.0,1.0,P
 13,TACS   PV002V I-branch,S, , A,  .002619569422677, 261.954315185547, 0.0,-99999, 99999,1.0,1.0,P
 14,TACS   PV002I I-branch,S, , A,  .007317073177546, 731.700012207031, 0.0,-99999, 99999,1.0,1.0,P
 15,TACS   PV002W I-branch,S, , A,  .177699985215E-3, 359.536010742188, 0.0,-99999, 99999,1.0,1.0,P
 16,TACS   PV003V I-branch,S, , A,  .002613197313622, 261.317108154297, 0.0,-99999, 99999,1.0,1.0,P
 17,TACS   PV003I I-branch,S, , A,  .007317073177546, 731.700012207031, 0.0,-99999, 99999,1.0,1.0,P
 18,TACS   PV003W I-branch,S, , A,  .186215547728E-3, 358.662719726563, 0.0,-99999, 99999,1.0,1.0,P
 19,TACS   PV004V I-branch,S, , A,  .002613683696836, 261.365753173828, 0.0,-99999, 99999,1.0,1.0,P
 20,TACS   PV004I I-branch,S, , A,  .007317073177546, 731.700012207031, 0.0,-99999, 99999,1.0,1.0,P
 21,TACS   PV004W I-branch,S, , A,  .187945610378E-3, 358.490051269531, 0.0,-99999, 99999,1.0,1.0,P
 22,TACS   PV005V I-branch,S, , A,  .00260808551684 , 260.805938720703, 0.0,-99999, 99999,1.0,1.0,P
 23,TACS   PV005I I-branch,S, , A,  .007317073177546, 731.700012207031, 0.0,-99999, 99999,1.0,1.0,P
 24,TACS   PV005W I-branch,S, , A,  .186250952538E-3, 358.705902099609, 0.0,-99999, 99999,1.0,1.0,P
 25,TACS   PV006V I-branch,S, , A,  .002610975876451, 261.094970703125, 0.0,-99999, 99999,1.0,1.0,P
 26,TACS   PV006I I-branch,S, , A,  .007317073177546, 731.700012207031, 0.0,-99999, 99999,1.0,1.0,P
 27,TACS   PV006W I-branch,S, , A,  .187945915968E-3, 358.505737304688, 0.0,-99999, 99999,1.0,1.0,P
 28,TACS   PV007V I-branch,S, , A,  .002625544089824, 262.551788330078, 0.0,-99999, 99999,1.0,1.0,P
 29,TACS   PV007I I-branch,S, , A,  .007317073177546, 731.700012207031, 0.0,-99999, 99999,1.0,1.0,P
 30,TACS   PV007W I-branch,S, , A,  .181853174581E-3, 359.033508300781, 0.0,-99999, 99999,1.0,1.0,P
 31,TACS   PV008V I-branch,S, , A,  .002605597022921, 260.557098388672, 0.0,-99999, 99999,1.0,1.0,P
 32,TACS   PV008I I-branch,S, , A,  .007317073177546, 731.700012207031, 0.0,-99999, 99999,1.0,1.0,P
 33,TACS   PV008W I-branch,S, , A,  .184536300367E-3, 358.913452148438, 0.0,-99999, 99999,1.0,1.0,P
 50
1
     20000,  12001
10/10/2022,21:55:49.000000
10/10/2022,21:55:49.000000
ASCII 
    1.000000
         1,             0,   99998,  -50005,  -49994,   93152,  -95700,    4592,    4366,  -19381,   18487,  -99999,  -99999,   98382,  -99999,  -99999,   98227,  -99999,  -99999,   98425,  -99999,  -99999,   98438,  -99999,  -99999,   98174,  -99999,  -99999,   98354,  -99999,  -99999,   98747,  -99999,  -99999,   97962
         2,            50,   99980,  -48364,  -51618,   94446,  -94569,    2411,    4366,  -19381,   18487,   83318,  -98376,   98382,   83237,  -98376,   98227,   83684,  -98376,   98425,   83649,  -98376,   98438,   84044,  -98376,   98174,   83840,  -98376,   98354,   82820,  -98376,   98747,   84219,  -98376,   97962
         3,           100,   99927,  -46706,  -53223,   95639,  -93400,     284,    4366,  -19381,   18487,   83184,  -95168,   97510,   83102,  -95168,   97337,   83545,  -95168,   97575,   83512,  -95168,   97594,   83901,  -95168,   97322,   83701,  -95168,   97512,   82693,  -95168,   97881,   84075,  -95168,   97100
         4,           150,   99840,  -45031,  -54811,   96504,  -92195,   -1598,    4366,  -19381,   18487,   82909,  -92035,   95791,   82833,  -92035,   95582,   83257,  -92035,   95902,   83227,  -92035,   95932,   83604,  -92035,   95644,   83411,  -92035,   95853,   82439,  -92035,   96175,   83776,  -92035,   95403
         5,           200,   99718,  -43340,  -56380,   96864,  -90957,   -3078,    4366,  -19381,   18487,   82638,  -88975,   94118,   82576,  -88975,   93875,   82965,  -88974,   94274,   82935,  -88974,   94316,   83303,  -88974,   94011,   83115,  -88974,   94240,   82193,  -88976,   94515,   83474,  -88974,   93752
         6,           250,   99558,  -41634,  -57927,   96934,  -89697,   -4328,    4366,  -19381,   18487,   82402,  -85986,   92486,   82356,  -85987,   92208,   82705,  -85984,   92686,   82673,  -85985,   92738,   83034,  -85983,   92417,   82849,  -85984,   92665,   81974,  -85988,   92897,   83206,  -85983,   92140
         7,           300,   99362,  -39912,  -59452,   97099,  -88430,   -5668,    4366,  -19381,   18487,   82187,  -83067,   90892,   82156,  -83068,   90583,   82469,  -83064,   91135,   82435,  -83064,   91198,   82789,  -83062,   90861,   82607,  -83063,   91128,   81774,  -83070,   91319,   82963,  -83062,   90566
         8,           350,   99132,  -38177,  -60957,   97422,  -87162,   -7144,    4366,  -19381,   18487,   81990,  -80216,   89338,   81971,  -80218,   88999,   82250,  -80211,   89623,   82214,  -80211,   89696,   82563,  -80209,   89342,   82383,  -80210,   89628,   81589,  -80221,   89780,   82739,  -80209,   89030
         9,           400,   98867,  -36428,  -62441,   97698,  -85889,   -8584,    4366,  -19381,   18487,   81805,  -77432,   87822,   81798,  -77435,   87455,   82046,  -77425,   88147,   82007,  -77426,   88230,   82352,  -77422,   87861,   82173,  -77424,   88164,   81414,  -77438,   88281,   82530,  -77422,   87531
        10,           450,   98566,  -34666,  -63902,   97848,  -84601,   -9931,    4366,  -19381,   18487,   81634,  -74713,   86344,   81638,  -74718,   85949,   81856,  -74705,   86707,   81815,  -74705,   86800,   82155,  -74701,   86415,   81978,  -74703,   86735,   81254,  -74722,   86818,   82336,  -74701,   86068
        11,           500,   98230,  -32892,  -65340,   97992,  -83294,  -11290,    4366,  -19381,   18487,   81478,  -72059,   84901,   81493,  -72065,   84479,   81682,  -72048,   85301,   81639,  -72048,   85404,   81975,  -72043,   85003,   81799,  -72046,   85341,   81110,  -72069,   85390,   82157,  -72043,   84639
        12,           550,   97859,  -31106,  -66755,   98209,  -81976,  -12723,    4366,  -19381,   18487,   81338,  -69468,   83491,   81363,  -69476,   83045,   81524,  -69454,   83928,   81480,  -69454,   84040,   81811,  -69448,   83624,   81637,  -69451,   83978,   80980,  -69480,   83997,   81995,  -69448,   83244
        13,           600,   97454,  -29309,  -68147,   98436,  -80653,  -14169,    4366,  -19381,   18487,   81211,  -66938,   82115,   81245,  -66948,   81645,   81381,  -66921,   82587,   81334,  -66921,   82707,   81661,  -66914,   82277,   81489,  -66917,   82647,   80863,  -66952,   82637,   81847,  -66914,   81881
        14,           650,   97014,  -27502,  -69514,   98609,  -79321,  -15576,    4366,  -19381,   18487,   81097,  -64468,   80771,   81140,  -64480,   80279,   81251,  -64448,   81277,   81203,  -64448,   81405,   81526,  -64440,   80961,   81354,  -64444,   81347,   80758,  -64485,   81309,   81712,  -64441,   80549
        15,           700,   96540,  -25685,  -70857,   98750,  -77973,  -16972,    4366,  -19381,   18487,   80997,  -62058,   79458,   81048,  -62071,   78944,   81136,  -62034,   79996,   81086,  -62033,   80132,   81405,  -62025,   79674,   81235,  -62029,   80075,   80667,  -62077,   80012,   81593,  -62026,   79247
        16,           750,   96031,  -23859,  -72174,   98910,  -76610,  -18398,    4366,  -19381,   18487,   80910,  -59705,   78175,   80969,  -59721,   77639,   81036,  -59678,   78744,   80984,  -59677,   78888,   81299,  -59667,   78416,   81131,  -59672,   78832,   80590,  -59727,   78744,   81488,  -59668,   77974
        17,           800,   95488,  -22024,  -73466,   99081,  -75239,  -19841,    4366,  -19381,   18487,   80837,  -57409,   76920,   80903,  -57427,   76365,   80949,  -57378,   77519,   80896,  -57377,   77671,   81207,  -57366,   77185,   81040,  -57371,   77616,   80525,  -57434,   77505,   81396,  -57367,   76729
        18,           850,   94911,  -20181,  -74732,   99229,  -73860,  -21272,    4366,  -19381,   18487,   80777,  -55168,   75692,   80849,  -55189,   75119,   80876,  -55134,   76321,   80821,  -55132,   76479,   81128,  -55120,   75980,   80963,  -55126,   76425,   80472,  -55196,   76294,   81319,  -55122,   75510
        19,           900,   94301,  -18332,  -75971,   99351,  -72468,  -22692,    4366,  -19381,   18487,   80729,  -52982,   74491,   80808,  -53005,   73900,   80816,  -52944,   75148,   80760,  -52941,   75314,   81063,  -52928,   74801,   80900,  -52934,   75260,   80432,  -53012,   75109,   81254,  -52930,   74317
        20,           950,   93656,  -16476,  -77183,   99467,  -71062,  -24120,    4366,  -19381,   18487,   80694,  -50849,   73315,   80778,  -50874,   72708,   80769,  -50806,   74000,   80712,  -50804,   74172,   81011,  -50789,   73647,   80850,  -50796,   74119,   80404,  -50882,   73949,   81203,  -50792,   73149
        21,          1000,   92979,  -14613,  -78368,   99583,  -69646,  -25560,    4366,  -19381,   18487,   80671,  -48768,   72164,   80761,  -48796,   71541,   80736,  -48721,   72875,   80677,  -48718,   73053,   80973,  -48703,   72515,   80813,  -48710,   73001,   80389,  -48804,   72814,   81165,  -48705,   72004
        22,          1050,   92269,  -12746,  -79525,   99687,  -68221,  -26996,    4366,  -19381,   18487,   80661,  -46738,   71036,   80756,  -46768,   70398,   80715,  -46687,   71772,   80655,  -46684,   71957,   80947,  -46667,   71407,   80789,  -46675,   71905,   80385,  -46777,   71703,   81140,  -46670,   70883
        23,          1100,   91526,  -10874,  -80653,   99771,  -66785,  -28426,    4366,  -19381,   18487,   80662,  -44759,   69931,   80761,  -44791,   69278,   80707,  -44703,   70692,   80645,  -44699,   70882,   80934,  -44681,   70320,   80778,  -44689,   70831,   80393,  -44801,   70614,   81127,  -44684,   69783
        24,          1150,   90750,   -8999,  -81753,   99840,  -65336,  -29855,    4366,  -19381,   18487,   80675,  -42828,   68847,   80779,  -42863,   68182,   80711,  -42768,   69632,   80648,  -42764,   69828,   80934,  -42744,   69253,   80779,  -42753,   69777,   80412,  -42873,   69547,   81127,  -42747,   68704
        25,          1200,   89942,   -7120,  -82824,   99901,  -63875,  -31289,    4366,  -19381,   18487,   80700,  -40945,   67784,   80807,  -40983,   67106,   80727,  -40881,   68591,   80663,  -40876,   68793,   80945,  -40855,   68207,   80792,  -40864,   68743,   80442,  -40993,   68501,   81138,  -40858,   67646
        26,          1250,   89102,   -5239,  -83866,   99950,  -62405,  -32721,    4366,  -19381,   18487,   80736,  -39110,   66741,   80847,  -39150,   66051,   80755,  -39040,   67570,   80690,  -39035,   67778,   80969,  -39013,   67180,   80817,  -39023,   67727,   80484,  -39161,   67474,   81162,  -39017,   66606
        27,          1300,   88231,   -3355,  -84877,   99982,  -60924,  -34148,    4366,  -19381,   18487,   80783,  -37320,   65717,   80897,  -37362,   65016,   80794,  -37246,   66568,   80728,  -37241,   66780,   81004,  -37216,   66171,   80854,  -37227,   66730,   80536,  -37374,   66467,   81196,  -37221,   65586
        28,          1350,   87328,   -1471,  -85859,   99997,  -59432,  -35572,    4366,  -19381,   18487,   80841,  -35575,   64712,   80958,  -35620,   64000,   80845,  -35497,   65583,   80777,  -35491,   65800,   81050,  -35465,   65179,   80902,  -35477,   65750,   80599,  -35633,   65478,   81243,  -35470,   64583
        29,          1400,   86394,     414,  -86810,   99999,  -57928,  -36995,    4366,  -19381,   18487,   80909,  -33875,   63724,   81029,  -33923,   63002,   80907,  -33792,   64614,   80838,  -33786,   64837,   81108,  -33759,   64205,   80961,  -33771,   64786,   80673,  -33936,   64506,   81300,  -33763,   63597
        30,          1450,   85429,    2299,  -87730,   99986,  -56414,  -38416,    4366,  -19381,   18487,   80988,  -32218,   62752,   81110,  -32268,   62022,   80979,  -32131,   63662,   80910,  -32124,   63889,   81177,  -32095,   63246,   81032,  -32108,   63838,   80756,  -32282,   63552,   81368,  -32100,   62627
        31,          1500,   84434,    4183,  -88619,   99956,  -54890,  -39832,    4366,  -19381,   18487,   81077,  -30604,   61797,   81201,  -30656,   61058,   81062,  -30512,   62725,   80992,  -30504,   62957,   81256,  -30474,   62303,   81112,  -30488,   62905,   80850,  -30671,   62613,   81446,  -30479,   61672
        32,          1550,   83409,    6065,  -89477,   99908,  -53354,  -41242,    4366,  -19381,   18487,   81176,  -29031,   60857,   81301,  -29086,   60110,   81156,  -28934,   61802,   81084,  -28926,   62039,   81345,  -28894,   61374,   81204,  -28909,   61987,   80953,  -29101,   61689,   81535,  -28900,   60733
        33,          1600,   82355,    7945,  -90302,   99843,  -51808,  -42649,    4366,  -19381,   18487,   81284,  -27499,   59931,   81411,  -27556,   59176,   81259,  -27397,   60894,   81186,  -27389,   61135,   81445,  -27356,   60459,   81305,  -27371,   61082,   81065,  -27572,   60781,   81634,  -27361,   59808
        34,          1650,   81271,    9823,  -91096,   99762,  -50251,  -44050,    4366,  -19381,   18487,   81402,  -26006,   59020,   81530,  -26066,   58258,   81372,  -25901,   59999,   81299,  -25891,   60245,   81554,  -25857,   59558,   81416,  -25873,   60191,   81187,  -26083,   59886,   81743,  -25862,   58896
        35,          1700,   80158,   11697,  -91857,   99662,  -48685,  -45446,    4366,  -19381,   18487,   81528,  -24553,   58121,   81658,  -24615,   57353,   81495,  -24443,   59116,   81420,  -24433,   59367,   81673,  -24397,   58669,   81536,  -24414,   59312,   81318,  -24633,   59004,   81861,  -24403,   57997
        36,          1750,   79017,   13567,  -92586,   99543,  -47107,  -46836,    4366,  -19381,   18487,   81664,  -23138,   57236,   81795,  -23202,   56461,   81627,  -23023,   58246,   81551,  -23013,   58501,   81801,  -22975,   57793,   81666,  -22993,   58445,   81457,  -23221,   58136,   81988,  -22981,   57111
        37,          1800,   77848,   15432,  -93282,   99405,  -45520,  -48218,    4366,  -19381,   18487,   81808,  -21761,   56362,   81940,  -21827,   55582,   81767,  -21641,   57387,   81691,  -21631,   57646,   81939,  -21591,   56928,   81805,  -21609,   57590,   81605,  -21847,   57279,   82124,  -21597,   56236
        38,          1850,   76651,   17291,  -93944,   99248,  -43922,  -49594,    4366,  -19381,   18487,   81961,  -20420,   55500,   82093,  -20488,   54715,   81916,  -20296,   56540,   81839,  -20285,   56803,   82084,  -20244,   56075,   81952,  -20263,   56746,   81761,  -20509,   56434,   82269,  -20250,   55373
        39,          1900,   75427,   19145,  -94574,   99072,  -42314,  -50963,    4366,  -19381,   18487,   82121,  -19115,   54649,   82254,  -19185,   53859,   82074,  -18987,   55703,   81996,  -18975,   55970,   82239,  -18932,   55231,   82108,  -18952,   55912,   81924,  -19207,   55600,   82422,  -18938,   54520
        40,          1950,   74176,   20991,  -95169,   98874,  -40697,  -52323,    4366,  -19381,   18487,   82289,  -17845,   53809,   82422,  -17918,   53014,   82240,  -17713,   54876,   82161,  -17701,   55147,   82401,  -17656,   54398,   82272,  -17677,   55088,   82096,  -17940,   54776,   82583,  -17662,   53678
        41,          2000,   72899,   22830,  -95731,   98656,  -39070,  -53674,    4366,  -19381,   18487,   82465,  -16610,   52979,   82598,  -16684,   52179,   82413,  -16473,   54058,   82334,  -16461,   54334,   82571,  -16415,   53575,   82444,  -16436,   54273,   82275,  -16708,   53962,   82752,  -16421,   52845
        42,          2050,   71595,   24661,  -96259,   98417,  -37434,  -55016,    4366,  -19381,   18487,   82648,  -15408,   52158,   82781,  -15485,   51354,   82594,  -15268,   53250,   82514,  -15254,   53530,   82749,  -15207,   52760,   82623,  -15229,   53468,   82461,  -15510,   53158,   82929,  -15213,   52021
        43,          2100,   70267,   26484,  -96752,   98157,  -35788,  -56349,    4366,  -19381,   18487,   82838,  -14239,   51346,   82971,  -14318,   50538,   82782,  -14095,   52450,   82701,  -14081,   52734,   82934,  -14032,   51954,   82810,  -14055,   52671,   82654,  -14344,   52363,   83112,  -14038,   51206
        44,          2150,   68913,   28296,  -97212,   97875,  -34133,  -57672,    4366,  -19381,   18487,   83035,  -13103,   50543,   83168,  -13184,   49731,   82977,  -12955,   51658,   82896,  -12941,   51947,   83126,  -12890,   51157,   83003,  -12914,   51882,   82853,  -13211,   51576,   83303,  -12895,   50400
        45,          2200,   67535,   30099,  -97636,   97570,  -32469,  -58983,    4366,  -19381,   18487,   83238,  -11998,   49747,   83370,  -12081,   48933,   83179,  -11846,   50874,   83096,  -11831,   51167,   83325,  -11779,   50367,   83203,  -11804,   51101,   83059,  -12109,   50797,   83500,  -11785,   49602
        46,          2250,   66133,   31891,  -98026,   97243,  -30797,  -60284,    4366,  -19381,   18487,   83447,  -10924,   48960,   83579,  -11009,   48142,   83386,  -10769,   50098,   83304,  -10753,   50395,   83530,  -10699,   49585,   83410,  -10725,   50327,   83270,  -11038,   50027,   83703,  -10705,   48811
        47,          2300,   64707,   33672,  -98382,   96893,  -29116,  -61573,    4366,  -19381,   18487,   83662,   -9881,   48180,   83794,   -9967,   47360,   83600,   -9721,   49329,   83517,   -9706,   49630,   83741,   -9650,   48810,   83622,   -9676,   49560,   83488,   -9997,   49263,   83913,   -9655,   48028
        48,          2350,   63259,   35441,  -98702,   96519,  -27427,  -62849,    4366,  -19381,   18487,   83882,   -8867,   47408,   84014,   -8954,   46584,   83820,   -8704,   48566,   83736,   -8688,   48872,   83958,   -8630,   48042,   83841,   -8657,   48800,   83711,   -8986,   48507,   84128,   -8635,   47251
        49,          2400,   61788,   37197,  -98987,   96122,  -25730,  -64113,    4366,  -19381,   18487,   84108,   -7882,   46641,   84239,   -7971,   45815,   84045,   -7715,   47810,   83961,   -7699,   48120,   84180,   -7639,   47281,   84064,   -7668,   48047,   83939,   -8004,   47757,   84348,   -7644,   46481
        50,          2450,   60295,   38940,  -99237,   95702,  -24026,  -65364,    4366,  -19381,   18487,   84339,   -6925,   45882,   84469,   -7016,   45053,   84275,   -6755,   47061,   84190,   -6738,   47374,   84407,   -6677,   46525,   84293,   -6706,   47300,   84172,   -7051,   47014,   84574,   -6682,   45717
