GTPPLOT creates from lv_network_l2c2b1f1.pl4,999,1999                           
33,33A, 0D
  1,SBUS A          V-node,A, , V,  1.97166752815247, -.125           , 0.0,-99999, 99999,1.0,1.0,P
  2,SBUS B          V-node,B, , V,  1.97165906429291, -.09375         , 0.0,-99999, 99999,1.0,1.0,P
  3,SBUS C          V-node,C, , V,  1.97164046764374, -.171875        , 0.0,-99999, 99999,1.0,1.0,P
  4,SBUS A 1    A I-branch,A, , A,  .935550022405E-3, 5.26310729980469, 0.0,-99999, 99999,1.0,1.0,P
  5,SBUS B 1    B I-branch,B, , A,  .98263588734E-3 , -1.8338508605957, 0.0,-99999, 99999,1.0,1.0,P
  6,SBUS C 1    C I-branch,C, , A,  .996562535875E-3, -1.9216423034668, 0.0,-99999, 99999,1.0,1.0,P
  7,FAULTA        I-branch,A, , A,  6.51775407791138, -28457.5        , 0.0,-99999, 99999,1.0,1.0,P
  8,FAULTB        I-branch,B, , A,  7.73127031326294, 149846.34375    , 0.0,-99999, 99999,1.0,1.0,P
  9,FAULTC        I-branch,C, , A,  7.64664173126221, -141383.96875   , 0.0,-99999, 99999,1.0,1.0,P
 10,TACS   PV001V I-branch,S, , A,  .00259593501687 , 259.590911865234, 0.0,-99999, 99999,1.0,1.0,P
 11,TACS   PV001I I-branch,S, , A,  .007317073177546, 731.700012207031, 0.0,-99999, 99999,1.0,1.0,P
 12,TACS   PV001W I-branch,S, , A,  .181798997801E-3, 359.291839599609, 0.0,-99999, 99999,1.0,1.0,P
 13,TACS   PV002V I-branch,S, , A,  .002596602309495, 259.657623291016, 0.0,-99999, 99999,1.0,1.0,P
 14,TACS   PV002I I-branch,S, , A,  .007317073177546, 731.700012207031, 0.0,-99999, 99999,1.0,1.0,P
 15,TACS   PV002W I-branch,S, , A,  .17783822841E-3 , 359.735717773438, 0.0,-99999, 99999,1.0,1.0,P
 16,TACS   PV003V I-branch,S, , A,  .002588379662484, 258.835388183594, 0.0,-99999, 99999,1.0,1.0,P
 17,TACS   PV003I I-branch,S, , A,  .007317073177546, 731.700012207031, 0.0,-99999, 99999,1.0,1.0,P
 18,TACS   PV003W I-branch,S, , A,  .186208373634E-3, 358.845336914063, 0.0,-99999, 99999,1.0,1.0,P
 19,TACS   PV004V I-branch,S, , A,  .002589717973024, 258.969207763672, 0.0,-99999, 99999,1.0,1.0,P
 20,TACS   PV004I I-branch,S, , A,  .007317073177546, 731.700012207031, 0.0,-99999, 99999,1.0,1.0,P
 21,TACS   PV004W I-branch,S, , A,  .187940269825E-3, 358.6708984375  , 0.0,-99999, 99999,1.0,1.0,P
 22,TACS   PV005V I-branch,S, , A,  .002579545835033, 257.951995849609, 0.0,-99999, 99999,1.0,1.0,P
 23,TACS   PV005I I-branch,S, , A,  .007317073177546, 731.700012207031, 0.0,-99999, 99999,1.0,1.0,P
 24,TACS   PV005W I-branch,S, , A,  .186236749869E-3, 358.913269042969, 0.0,-99999, 99999,1.0,1.0,P
 25,TACS   PV006V I-branch,S, , A,  .002585110021755, 258.508422851563, 0.0,-99999, 99999,1.0,1.0,P
 26,TACS   PV006I I-branch,S, , A,  .007317073177546, 731.700012207031, 0.0,-99999, 99999,1.0,1.0,P
 27,TACS   PV006W I-branch,S, , A,  .187920421013E-3, 358.696594238281, 0.0,-99999, 99999,1.0,1.0,P
 28,TACS   PV007V I-branch,S, , A,  .002608320210129, 260.829406738281, 0.0,-99999, 99999,1.0,1.0,P
 29,TACS   PV007I I-branch,S, , A,  .007317073177546, 731.700012207031, 0.0,-99999, 99999,1.0,1.0,P
 30,TACS   PV007W I-branch,S, , A,  .181906725629E-3, 359.17724609375 , 0.0,-99999, 99999,1.0,1.0,P
 31,TACS   PV008V I-branch,S, , A,  .002574767917395, 257.474212646484, 0.0,-99999, 99999,1.0,1.0,P
 32,TACS   PV008I I-branch,S, , A,  .007317073177546, 731.700012207031, 0.0,-99999, 99999,1.0,1.0,P
 33,TACS   PV008W I-branch,S, , A,  .184477394214E-3, 359.143432617188, 0.0,-99999, 99999,1.0,1.0,P
 50
1
     20000,  12001
10/10/2022,21:56:09.000000
10/10/2022,21:56:09.000000
ASCII 
    1.000000
         1,             0,   99998,  -50009,  -49991,   86960,  -99999,   15447,    4366,  -19382,   18489,  -99999,  -99999,   97356,  -99999,  -99999,   97028,  -99999,  -99999,   97448,  -99999,  -99999,   97478,  -99999,  -99999,   97068,  -99999,  -99999,   97352,  -99999,  -99999,   97928,  -99999,  -99999,   96747
         2,            50,   99980,  -48368,  -51614,   88172,  -98958,   13282,    4366,  -19382,   18489,   84905,  -98376,   97356,   84857,  -98376,   97028,   85445,  -98376,   97448,   85349,  -98376,   97478,   86080,  -98376,   97068,   85679,  -98376,   97352,   84027,  -98376,   97928,   86425,  -98376,   96747
         3,           100,   99927,  -46710,  -53220,   89327,  -97881,   11136,    4366,  -19382,   18489,   84749,  -95168,   96471,   84701,  -95168,   96128,   85280,  -95167,   96589,   85188,  -95168,   96624,   85909,  -95167,   96205,   85515,  -95167,   96500,   83884,  -95168,   97055,   86251,  -95167,   95872
         4,           150,   99840,  -45035,  -54807,   90336,  -96769,    9091,    4366,  -19382,   18489,   84426,  -92034,   94728,   84383,  -92034,   94354,   84939,  -92034,   94896,   84853,  -92034,   94940,   85553,  -92034,   94503,   85172,  -92034,   94820,   83594,  -92035,   95334,   85890,  -92033,   94150
         5,           200,   99717,  -43344,  -56375,   91124,  -95623,    7222,    4366,  -19382,   18489,   84103,  -88972,   93031,   84072,  -88973,   92627,   84591,  -88971,   93248,   84508,  -88972,   93301,   85190,  -88971,   92847,   84821,  -88971,   93187,   83310,  -88974,   93660,   85523,  -88970,   92473
         6,           250,   99558,  -41638,  -57922,   91758,  -94448,    5469,    4366,  -19382,   18489,   83816,  -85981,   91374,   83801,  -85982,   90940,   84276,  -85979,   91640,   84194,  -85979,   91701,   84858,  -85977,   91229,   84499,  -85979,   91591,   83057,  -85984,   92027,   85189,  -85977,   90835
         7,           300,   99362,  -39916,  -59448,   92374,  -93249,    3708,    4366,  -19382,   18489,   83555,  -83058,   89756,   83555,  -83060,   89294,   83986,  -83055,   90069,   83905,  -83056,   90138,   84554,  -83052,   89649,   84204,  -83054,   90033,   82823,  -83064,   90434,   84882,  -83052,   89234
         8,           350,   99132,  -38181,  -60953,   92997,  -92029,    1920,    4366,  -19382,   18489,   83314,  -80204,   88176,   83328,  -80206,   87687,   83718,  -80198,   88535,   83637,  -80199,   88612,   84272,  -80194,   88106,   83930,  -80197,   88511,   82606,  -80212,   88879,   84600,  -80193,   87670
         9,           400,   98867,  -36432,  -62437,   93557,  -90790,     172,    4366,  -19382,   18489,   83091,  -77415,   86633,   83117,  -77419,   86120,   83469,  -77407,   87036,   83388,  -77408,   87122,   84010,  -77402,   86598,   83675,  -77406,   87025,   82403,  -77426,   87363,   84337,  -77401,   86142
        10,           450,   98567,  -34670,  -63899,   94053,  -89530,   -1535,    4366,  -19382,   18489,   82884,  -74692,   85126,   82921,  -74696,   84590,   83237,  -74681,   85573,   83156,  -74682,   85666,   83766,  -74674,   85125,   83437,  -74679,   85572,   82216,  -74706,   85884,   84093,  -74673,   84649
        11,           500,   98231,  -32896,  -65337,   94544,  -88249,   -3259,    4366,  -19382,   18489,   82693,  -72032,   83655,   82741,  -72038,   83097,   83023,  -72018,   84144,   82942,  -72019,   84244,   83540,  -72010,   83685,   83218,  -72016,   84153,   82046,  -72049,   84439,   83867,  -72008,   83190
        12,           550,   97860,  -31110,  -66752,   95044,  -86948,   -5013,    4366,  -19382,   18489,   82519,  -69434,   82217,   82577,  -69442,   81639,   82826,  -69417,   82747,   82745,  -69419,   82855,   83332,  -69407,   82278,   83016,  -69414,   82766,   81890,  -69456,   83029,   83658,  -69405,   81763
        13,           600,   97455,  -29314,  -68144,   95512,  -85628,   -6753,    4366,  -19382,   18489,   82360,  -66898,   80813,   82426,  -66908,   80215,   82645,  -66877,   81382,   82563,  -66879,   81496,   83140,  -66865,   80903,   82830,  -66873,   81411,   81747,  -66923,   81652,   83466,  -66863,   80369
        14,           650,   97015,  -27506,  -69511,   95935,  -84290,   -8470,    4366,  -19382,   18489,   82215,  -64422,   79440,   82290,  -64433,   78824,   82480,  -64396,   80047,   82398,  -64398,   80168,   82965,  -64382,   79558,   82660,  -64392,   80085,   81619,  -64451,   80307,   83290,  -64380,   79004
        15,           700,   96541,  -25689,  -70854,   96345,  -82931,  -10194,    4366,  -19382,   18489,   82085,  -62004,   78097,   82168,  -62017,   77464,   82331,  -61974,   78742,   82248,  -61976,   78869,   82805,  -61958,   78242,   82506,  -61969,   78788,   81506,  -62038,   78992,   83130,  -61955,   77670
        16,           750,   96032,  -23863,  -72171,   96752,  -81552,  -11936,    4366,  -19382,   18489,   81970,  -59644,   76784,   82061,  -59659,   76135,   82197,  -59609,   77464,   82114,  -59612,   77598,   82662,  -59590,   76954,   82367,  -59603,   77519,   81407,  -59682,   77707,   82985,  -59588,   76364
        17,           800,   95489,  -22028,  -73463,   97134,  -80155,  -13672,    4366,  -19382,   18489,   81869,  -57340,   75499,   81966,  -57357,   74835,   82078,  -57300,   76214,   81995,  -57303,   76353,   82533,  -57279,   75693,   82244,  -57293,   76276,   81320,  -57383,   76450,   82856,  -57276,   75085
        18,           850,   94912,  -20186,  -74729,   97481,  -78741,  -15392,    4366,  -19382,   18489,   81782,  -55091,   74242,   81885,  -55111,   73563,   81974,  -55047,   74990,   81891,  -55049,   75135,   82420,  -55023,   74459,   82136,  -55039,   75060,   81247,  -55139,   75221,   82742,  -55020,   73832
        19,           900,   94302,  -18336,  -75968,   97807,  -77308,  -17111,    4366,  -19382,   18489,   81709,  -52896,   73011,   81818,  -52919,   72319,   81885,  -52847,   73792,   81801,  -52850,   73942,   82321,  -52820,   73250,   82042,  -52838,   73868,   81187,  -52949,   74018,   82643,  -52817,   72605
        20,           950,   93658,  -16480,  -77180,   98122,  -75855,  -18839,    4366,  -19382,   18489,   81649,  -50755,   71805,   81763,  -50779,   71101,   81810,  -50700,   72617,   81726,  -50703,   72773,   82237,  -50670,   72064,   81963,  -50689,   72700,   81141,  -50812,   72840,   82558,  -50667,   71402
        21,          1000,   92981,  -14618,  -78365,   98415,  -74386,  -20563,    4366,  -19382,   18489,   81603,  -48665,   70623,   81722,  -48692,   69907,   81749,  -48604,   71466,   81664,  -48607,   71626,   82168,  -48572,   70902,   81899,  -48593,   71554,   81107,  -48727,   71687,   82487,  -48568,   70223
        22,          1050,   92270,  -12751,  -79522,   98676,  -72900,  -22274,    4366,  -19382,   18489,   81569,  -46626,   69465,   81692,  -46655,   68738,   81702,  -46560,   70337,   81616,  -46563,   70502,   82112,  -46524,   69762,   81848,  -46547,   70431,   81085,  -46694,   70557,   82430,  -46520,   69066
        23,          1100,   91527,  -10879,  -80651,   98914,  -71396,  -23980,    4366,  -19382,   18489,   81548,  -44637,   68329,   81675,  -44668,   67593,   81668,  -44565,   69229,   81582,  -44568,   69400,   82070,  -44527,   68644,   81810,  -44551,   69329,   81076,  -44710,   69450,   82387,  -44522,   67931
        24,          1150,   90752,   -9003,  -81751,   99134,  -69873,  -25688,    4366,  -19382,   18489,   81540,  -42696,   67214,   81671,  -42731,   66469,   81648,  -42619,   68142,   81561,  -42622,   68317,   82041,  -42577,   67546,   81786,  -42604,   68247,   81078,  -42775,   68364,   82357,  -42573,   66817
        25,          1200,   89944,   -7125,  -82822,   99332,  -68335,  -27390,    4366,  -19382,   18489,   81544,  -40804,   66120,   81678,  -40841,   65367,   81640,  -40721,   67075,   81553,  -40724,   67254,   82026,  -40676,   66467,   81775,  -40704,   67185,   81093,  -40888,   67299,   82340,  -40671,   65722
        26,          1250,   89104,   -5243,  -83863,   99501,  -66781,  -29081,    4366,  -19382,   18489,   81560,  -38959,   65046,   81697,  -38998,   64285,   81645,  -38869,   66026,   81558,  -38873,   66210,   82023,  -38821,   65408,   81777,  -38851,   66141,   81119,  -39048,   66254,   82336,  -38816,   64646
        27,          1300,   88233,   -3360,  -84875,   99644,  -65211,  -30765,    4366,  -19382,   18489,   81588,  -37159,   63990,   81727,  -37201,   63223,   81663,  -37064,   64995,   81575,  -37067,   65184,   82033,  -37013,   64366,   81791,  -37045,   65114,   81156,  -37254,   65227,   82344,  -37007,   63589
        28,          1350,   87330,   -1476,  -85857,   99766,  -63624,  -32444,    4366,  -19382,   18489,   81628,  -35405,   62953,   81769,  -35449,   62180,   81693,  -35303,   63982,   81604,  -35307,   64175,   82056,  -35249,   63342,   81818,  -35283,   64105,   81205,  -35506,   64219,   82365,  -35243,   62549
        29,          1400,   86396,     409,  -86808,   99864,  -62021,  -34116,    4366,  -19382,   18489,   81678,  -33694,   61933,   81822,  -33741,   61155,   81735,  -33587,   62985,   81645,  -33590,   63183,   82090,  -33529,   62334,   81856,  -33565,   63112,   81265,  -33801,   63228,   82398,  -33523,   61526
        30,          1450,   85431,    2294,  -87728,   99935,  -60404,  -35777,    4366,  -19382,   18489,   81740,  -32027,   60930,   81885,  -32076,   60146,   81788,  -31914,   62004,   81697,  -31917,   62206,   82136,  -31852,   61342,   81906,  -31890,   62135,   81335,  -32139,   62254,   82442,  -31846,   60518
        31,          1500,   84436,    4178,  -88617,   99979,  -58772,  -37427,    4366,  -19382,   18489,   81812,  -30403,   59942,   81958,  -30453,   59155,   81852,  -30283,   61038,   81761,  -30287,   61245,   82194,  -30218,   60366,   81968,  -30258,   61173,   81415,  -30520,   61296,   82497,  -30211,   59527
        32,          1550,   83412,    6061,  -89475,   99999,  -57125,  -39070,    4366,  -19382,   18489,   81895,  -28820,   58970,   82042,  -28873,   58179,   81928,  -28694,   60087,   81835,  -28697,   60297,   82263,  -28625,   59403,   82040,  -28668,   60225,   81506,  -28943,   60353,   82564,  -28618,   58549
        33,          1600,   82357,    7941,  -90300,   99993,  -55463,  -40703,    4366,  -19382,   18489,   81988,  -27277,   58012,   82136,  -27332,   57218,   82014,  -27146,   59149,   81921,  -27149,   59364,   82342,  -27073,   58455,   82123,  -27118,   59290,   81606,  -27406,   59425,   82642,  -27065,   57586
        34,          1650,   81273,    9818,  -91094,   99960,  -53788,  -42324,    4366,  -19382,   18489,   82091,  -25774,   57068,   82240,  -25832,   56271,   82110,  -25637,   58225,   82016,  -25640,   58444,   82432,  -25561,   57519,   82217,  -25607,   58369,   81716,  -25909,   58511,   82729,  -25552,   56636
        35,          1700,   80161,   11692,  -91856,   99900,  -52100,  -43932,    4366,  -19382,   18489,   82203,  -24311,   56138,   82353,  -24370,   55338,   82217,  -24168,   57313,   82122,  -24171,   57536,   82532,  -24088,   56596,   82321,  -24136,   57460,   81836,  -24451,   57609,   82827,  -24079,   55699
        36,          1750,   79020,   13562,  -92584,   99814,  -50398,  -45530,    4366,  -19382,   18489,   82325,  -22886,   55219,   82475,  -22947,   54419,   82333,  -22736,   56413,   82238,  -22739,   56640,   82643,  -22653,   55686,   82435,  -22704,   56563,   81964,  -23032,   56721,   82935,  -22643,   54774
        37,          1800,   77850,   15427,  -93280,   99702,  -48683,  -47115,    4366,  -19382,   18489,   82456,  -21498,   54314,   82606,  -21561,   53511,   82459,  -21343,   55524,   82363,  -21346,   55756,   82762,  -21256,   54786,   82558,  -21309,   55677,   82101,  -21649,   55844,   83053,  -21245,   53860
        38,          1850,   76654,   17287,  -93943,   99561,  -46955,  -48687,    4366,  -19382,   18489,   82596,  -20147,   53419,   82745,  -20212,   52616,   82594,  -19986,   54647,   82497,  -19989,   54883,   82891,  -19895,   53898,   82690,  -19950,   54801,   82247,  -20304,   54979,   83180,  -19884,   52958
        39,          1900,   75429,   19140,  -94572,   99393,  -45216,  -50244,    4366,  -19382,   18489,   82744,  -18832,   52535,   82893,  -18899,   51732,   82738,  -18665,   53780,   82640,  -18668,   54020,   83030,  -18571,   53020,   82832,  -18628,   53937,   82401,  -18994,   54125,   83315,  -18559,   52066
        40,          1950,   74179,   20987,  -95168,   99198,  -43465,  -51787,    4366,  -19382,   18489,   82900,  -17552,   51662,   83049,  -17621,   50858,   82891,  -17379,   52922,   82792,  -17382,   53167,   83176,  -17281,   52152,   82981,  -17341,   53081,   82563,  -17720,   53281,   83459,  -17269,   51184
        41,          2000,   72901,   22826,  -95730,   98976,  -41702,  -53317,    4366,  -19382,   18489,   83064,  -16306,   50799,   83213,  -16377,   49995,   83052,  -16128,   52074,   82952,  -16131,   52323,   83332,  -16027,   51293,   83140,  -16088,   52236,   82733,  -16480,   52448,   83612,  -16013,   50312
        42,          2050,   71598,   24657,  -96258,   98725,  -39929,  -54830,    4366,  -19382,   18489,   83236,  -15094,   49945,   83384,  -15167,   49142,   83220,  -14911,   51235,   83119,  -14914,   51489,   83495,  -14806,   50444,   83306,  -14869,   51399,   82910,  -15273,   51623,   83773,  -14792,   49449
        43,          2100,   70270,   26479,  -96751,   98446,  -38145,  -56327,    4366,  -19382,   18489,   83415,  -13916,   49101,   83563,  -13990,   48297,   83397,  -13727,   50405,   83295,  -13729,   50663,   83666,  -13618,   49603,   83480,  -13684,   50571,   83094,  -14100,   50808,   83941,  -13603,   48595
        44,          2150,   68916,   28292,  -97211,   98138,  -36350,  -57808,    4366,  -19382,   18489,   83602,  -12769,   48265,   83748,  -12846,   47462,   83580,  -12576,   49583,   83478,  -12578,   49845,   83844,  -12463,   48770,   83661,  -12530,   49750,   83285,  -12959,   50001,   84116,  -12447,   47749
        45,          2200,   67538,   30095,  -97635,   97803,  -34546,  -59271,    4366,  -19382,   18489,   83794,  -11655,   47437,   83940,  -11733,   46635,   83771,  -11456,   48768,   83667,  -11458,   49035,   84030,  -11339,   47945,   83850,  -11409,   48938,   83483,  -11850,   49203,   84299,  -11323,   46911
        46,          2250,   66136,   31887,  -98025,   97439,  -32733,  -60718,    4366,  -19382,   18489,   83994,  -10571,   46617,   84138,  -10651,   45817,   83969,  -10367,   47961,   83864,  -10369,   48233,   84222,  -10247,   47128,   84045,  -10319,   48133,   83687,  -10771,   48412,   84489,  -10229,   46081
        47,          2300,   64711,   33668,  -98381,   97047,  -30912,  -62145,    4366,  -19382,   18489,   84199,   -9518,   45804,   84342,   -9599,   45005,   84172,   -9309,   47161,   84067,   -9310,   47437,   84421,   -9185,   46317,   84246,   -9259,   47334,   83897,   -9723,   47628,   84684,   -9166,   45258
        48,          2350,   63262,   35437,  -98701,   96625,  -29081,  -63555,    4366,  -19382,   18489,   84410,   -8494,   44999,   84552,   -8576,   44201,   84382,   -8281,   46367,   84276,   -8282,   46649,   84625,   -8153,   45514,   84454,   -8229,   46543,   84112,   -8705,   46852,   84886,   -8133,   44442
        49,          2400,   61791,   37193,  -98986,   96176,  -27243,  -64945,    4366,  -19382,   18489,   84627,   -7500,   44200,   84768,   -7583,   43404,   84598,   -7282,   45580,   84491,   -7282,   45867,   84836,   -7150,   44717,   84667,   -7228,   45758,   84333,   -7715,   46082,   85094,   -7129,   43632
        50,          2450,   60298,   38936,  -99236,   95697,  -25398,  -66315,    4366,  -19382,   18489,   84849,   -6534,   43408,   84989,   -6618,   42614,   84819,   -6311,   44799,   84711,   -6311,   45091,   85053,   -6175,   43926,   84886,   -6256,   44979,   84559,   -6754,   45319,   85307,   -6154,   42829
