GTPPLOT creates from lv_network_l1c2b2f1.pl4,999,1999                           
33,33A, 0D
  1,SBUS A          V-node,A, , V,  1.97175717353821, -.1171875       , 0.0,-99999, 99999,1.0,1.0,P
  2,SBUS B          V-node,B, , V,  1.97175061702728, -.09375         , 0.0,-99999, 99999,1.0,1.0,P
  3,SBUS C          V-node,C, , V,  1.97173976898193, -.1640625       , 0.0,-99999, 99999,1.0,1.0,P
  4,SBUS A 1    A I-branch,A, , A,  .032851707190275, -122.89636230469, 0.0,-99999, 99999,1.0,1.0,P
  5,SBUS B 1    B I-branch,B, , A,  .041192959994078, 945.616821289063, 0.0,-99999, 99999,1.0,1.0,P
  6,SBUS C 1    C I-branch,C, , A,  .040711410343647, -907.98474121094, 0.0,-99999, 99999,1.0,1.0,P
  7,FAULTA        I-branch,A, , A,  .548013746738434, -2124.53515625  , 0.0,-99999, 99999,1.0,1.0,P
  8,FAULTB        I-branch,B, , A,  .686268031597137, 16116.619140625 , 0.0,-99999, 99999,1.0,1.0,P
  9,FAULTC        I-branch,C, , A,  .678564369678497, -15521.15625    , 0.0,-99999, 99999,1.0,1.0,P
 10,TACS   PV001V I-branch,S, , A,  .00261840946041 , 261.838317871094, 0.0,-99999, 99999,1.0,1.0,P
 11,TACS   PV001I I-branch,S, , A,  .007317073177546, 731.700012207031, 0.0,-99999, 99999,1.0,1.0,P
 12,TACS   PV001W I-branch,S, , A,  .102518417407E-3, 366.782165527344, 0.0,-99999, 99999,1.0,1.0,P
 13,TACS   PV002V I-branch,S, , A,  .002619569422677, 261.954315185547, 0.0,-99999, 99999,1.0,1.0,P
 14,TACS   PV002I I-branch,S, , A,  .007317073177546, 731.700012207031, 0.0,-99999, 99999,1.0,1.0,P
 15,TACS   PV002W I-branch,S, , A,  .101323646959E-3, 366.899322509766, 0.0,-99999, 99999,1.0,1.0,P
 16,TACS   PV003V I-branch,S, , A,  .002613197313622, 261.317108154297, 0.0,-99999, 99999,1.0,1.0,P
 17,TACS   PV003I I-branch,S, , A,  .007317073177546, 731.700012207031, 0.0,-99999, 99999,1.0,1.0,P
 18,TACS   PV003W I-branch,S, , A,  .126755418023E-3, 364.391784667969, 0.0,-99999, 99999,1.0,1.0,P
 19,TACS   PV004V I-branch,S, , A,  .002613683696836, 261.365753173828, 0.0,-99999, 99999,1.0,1.0,P
 20,TACS   PV004I I-branch,S, , A,  .007317073177546, 731.700012207031, 0.0,-99999, 99999,1.0,1.0,P
 21,TACS   PV004W I-branch,S, , A,  .103337522887E-3, 366.681854248047, 0.0,-99999, 99999,1.0,1.0,P
 22,TACS   PV005V I-branch,S, , A,  .00260808551684 , 260.805938720703, 0.0,-99999, 99999,1.0,1.0,P
 23,TACS   PV005I I-branch,S, , A,  .007317073177546, 731.700012207031, 0.0,-99999, 99999,1.0,1.0,P
 24,TACS   PV005W I-branch,S, , A,  .127126360894E-3, 364.378967285156, 0.0,-99999, 99999,1.0,1.0,P
 25,TACS   PV006V I-branch,S, , A,  .002610975876451, 261.094970703125, 0.0,-99999, 99999,1.0,1.0,P
 26,TACS   PV006I I-branch,S, , A,  .007317073177546, 731.700012207031, 0.0,-99999, 99999,1.0,1.0,P
 27,TACS   PV006W I-branch,S, , A,  .103494232462E-3, 366.667907714844, 0.0,-99999, 99999,1.0,1.0,P
 28,TACS   PV007V I-branch,S, , A,  .002625544089824, 262.551788330078, 0.0,-99999, 99999,1.0,1.0,P
 29,TACS   PV007I I-branch,S, , A,  .007317073177546, 731.700012207031, 0.0,-99999, 99999,1.0,1.0,P
 30,TACS   PV007W I-branch,S, , A,  .100878845842E-3, 366.926391601563, 0.0,-99999, 99999,1.0,1.0,P
 31,TACS   PV008V I-branch,S, , A,  .002605597022921, 260.557098388672, 0.0,-99999, 99999,1.0,1.0,P
 32,TACS   PV008I I-branch,S, , A,  .007317073177546, 731.700012207031, 0.0,-99999, 99999,1.0,1.0,P
 33,TACS   PV008W I-branch,S, , A,  .104022954474E-3, 366.653289794922, 0.0,-99999, 99999,1.0,1.0,P
 50
1
     20000,  12001
10/10/2022,21:55:56.000000
10/10/2022,21:55:56.000000
ASCII 
    1.000000
         1,             0,   99998,  -50005,  -49994,    5282,  -24344,   22462,    3876,  -23485,   22873,  -99999,  -99999,   99581,  -99999,  -99999,   99599,  -99999,  -99999,   99398,  -99999,  -99999,   99762,  -99999,  -99999,   99209,  -99999,  -99999,   99746,  -99999,  -99999,   99770,  -99999,  -99999,   99379
         2,            50,   99980,  -48364,  -51618,    5301,  -24329,   22432,    3876,  -23485,   22873,   83318,  -98376,   99581,   83237,  -98376,   99599,   83684,  -98376,   99398,   83649,  -98376,   99762,   84044,  -98376,   99209,   83840,  -98376,   99746,   82820,  -98376,   99770,   84219,  -98376,   99379
         3,           100,   99927,  -46706,  -53223,    5319,  -24314,   22402,    3876,  -23485,   22873,   83184,  -95168,   98033,   83102,  -95168,   98037,   83545,  -95168,   98150,   83512,  -95168,   98228,   83901,  -95168,   97960,   83701,  -95168,   98216,   82693,  -95168,   98209,   84075,  -95168,   97851
         4,           150,   99840,  -45031,  -54811,    5332,  -24298,   22375,    3876,  -23485,   22873,   82909,  -92035,   94984,   82833,  -92035,   94960,   83257,  -92035,   95692,   83227,  -92035,   95205,   83604,  -92035,   95501,   83411,  -92035,   95204,   82439,  -92035,   95133,   83776,  -92035,   94840
         5,           200,   99718,  -43340,  -56380,    5338,  -24281,   22354,    3876,  -23485,   22873,   82638,  -88975,   92017,   82576,  -88975,   91965,   82965,  -88974,   93300,   82935,  -88974,   92265,   83303,  -88974,   93109,   83115,  -88974,   92274,   82193,  -88976,   92141,   83474,  -88974,   91911
         6,           250,   99558,  -41634,  -57927,    5339,  -24265,   22337,    3876,  -23485,   22873,   82402,  -85986,   89122,   82356,  -85987,   89043,   82705,  -85984,   90966,   82673,  -85985,   89396,   83034,  -85983,   90773,   82849,  -85984,   89414,   81974,  -85988,   89224,   83206,  -85983,   89051
         7,           300,   99362,  -39912,  -59452,    5341,  -24248,   22318,    3876,  -23485,   22873,   82187,  -83067,   86297,   82156,  -83068,   86193,   82469,  -83064,   88689,   82435,  -83064,   86596,   82789,  -83062,   88494,   82607,  -83063,   86622,   81774,  -83070,   86379,   82963,  -83062,   86259
         8,           350,   99132,  -38177,  -60957,    5346,  -24231,   22297,    3876,  -23485,   22873,   81990,  -80216,   83540,   81971,  -80218,   83415,   82250,  -80211,   86466,   82214,  -80211,   83863,   82563,  -80209,   86269,   82383,  -80210,   83898,   81589,  -80221,   83605,   82739,  -80209,   83533
         9,           400,   98867,  -36428,  -62441,    5350,  -24215,   22277,    3876,  -23485,   22873,   81805,  -77432,   80851,   81798,  -77435,   80706,   82046,  -77425,   84299,   82007,  -77426,   81198,   82352,  -77422,   84098,   82173,  -77424,   81240,   81414,  -77438,   80902,   82530,  -77422,   80874
        10,           450,   98566,  -34666,  -63902,    5352,  -24198,   22258,    3876,  -23485,   22873,   81634,  -74713,   78229,   81638,  -74718,   78065,   81856,  -74705,   82183,   81815,  -74705,   78596,   82155,  -74701,   81980,   81978,  -74703,   78646,   81254,  -74722,   78265,   82336,  -74701,   78279
        11,           500,   98230,  -32892,  -65340,    5354,  -24181,   22239,    3876,  -23485,   22873,   81478,  -72059,   75669,   81493,  -72065,   75488,   81682,  -72048,   80118,   81639,  -72048,   76057,   81975,  -72043,   79911,   81799,  -72046,   76114,   81110,  -72069,   75692,   82157,  -72043,   75745
        12,           550,   97859,  -31106,  -66755,    5358,  -24163,   22219,    3876,  -23485,   22873,   81338,  -69468,   73170,   81363,  -69476,   72972,   81524,  -69454,   78101,   81480,  -69454,   73575,   81811,  -69448,   77891,   81637,  -69451,   73639,   80980,  -69480,   73179,   81995,  -69448,   73270
        13,           600,   97454,  -29309,  -68147,    5361,  -24146,   22198,    3876,  -23485,   22873,   81211,  -66938,   70729,   81245,  -66948,   70517,   81381,  -66921,   76130,   81334,  -66921,   71152,   81661,  -66914,   75917,   81489,  -66917,   71222,   80863,  -66952,   70728,   81847,  -66914,   70852
        14,           650,   97014,  -27502,  -69514,    5364,  -24128,   22178,    3876,  -23485,   22873,   81097,  -64468,   68346,   81140,  -64480,   68121,   81251,  -64448,   74205,   81203,  -64448,   68784,   81526,  -64440,   73989,   81354,  -64444,   68860,   80758,  -64485,   68334,   81712,  -64441,   68489
        15,           700,   96540,  -25685,  -70857,    5366,  -24111,   22159,    3876,  -23485,   22873,   80997,  -62058,   66017,   81048,  -62071,   65780,   81136,  -62034,   72324,   81086,  -62033,   66469,   81405,  -62025,   72104,   81235,  -62029,   66551,   80667,  -62077,   65996,   81593,  -62026,   66180
        16,           750,   96031,  -23859,  -72174,    5368,  -24093,   22139,    3876,  -23485,   22873,   80910,  -59705,   63740,   80969,  -59721,   63492,   81036,  -59678,   70485,   80984,  -59677,   64206,   81299,  -59667,   70260,   81131,  -59672,   64293,   80590,  -59727,   63710,   81488,  -59668,   63921
        17,           800,   95488,  -22024,  -73466,    5371,  -24075,   22118,    3876,  -23485,   22873,   80837,  -57409,   61514,   80903,  -57427,   61257,   80949,  -57378,   68685,   80896,  -57377,   61992,   81207,  -57366,   68457,   81040,  -57371,   62084,   80525,  -57434,   61477,   81396,  -57367,   61712
        18,           850,   94911,  -20181,  -74732,    5373,  -24056,   22098,    3876,  -23485,   22873,   80777,  -55168,   59336,   80849,  -55189,   59071,   80876,  -55134,   66925,   80821,  -55132,   59825,   81128,  -55120,   66692,   80963,  -55126,   59923,   80472,  -55196,   59293,   81319,  -55122,   59550
        19,           900,   94301,  -18332,  -75971,    5375,  -24038,   22078,    3876,  -23485,   22873,   80729,  -52982,   57206,   80808,  -53005,   56934,   80816,  -52944,   65202,   80760,  -52941,   57705,   81063,  -52928,   64965,   80900,  -52934,   57807,   80432,  -53012,   57157,   81254,  -52930,   57434
        20,           950,   93656,  -16476,  -77183,    5376,  -24020,   22058,    3876,  -23485,   22873,   80694,  -50849,   55121,   80778,  -50874,   54843,   80769,  -50806,   63515,   80712,  -50804,   55628,   81011,  -50789,   63273,   80850,  -50796,   55735,   80404,  -50882,   55067,   81203,  -50792,   55361
        21,          1000,   92979,  -14613,  -78368,    5378,  -24001,   22038,    3876,  -23485,   22873,   80671,  -48768,   53079,   80761,  -48796,   52796,   80736,  -48721,   61862,   80677,  -48718,   53594,   80973,  -48703,   61616,   80813,  -48710,   53704,   80389,  -48804,   53021,   81165,  -48705,   53331
        22,          1050,   92269,  -12746,  -79525,    5380,  -23982,   22018,    3876,  -23485,   22873,   80661,  -46738,   51079,   80756,  -46768,   50792,   80715,  -46687,   60243,   80655,  -46684,   51600,   80947,  -46667,   59992,   80789,  -46675,   51715,   80385,  -46777,   51017,   81140,  -46670,   51341
        23,          1100,   91526,  -10874,  -80653,    5381,  -23963,   21997,    3876,  -23485,   22873,   80662,  -44759,   49119,   80761,  -44791,   48829,   80707,  -44703,   58655,   80645,  -44699,   49645,   80934,  -44681,   58399,   80778,  -44689,   49763,   80393,  -44801,   49055,   81127,  -44684,   49390
        24,          1150,   90750,   -8999,  -81753,    5382,  -23944,   21977,    3876,  -23485,   22873,   80675,  -42828,   47197,   80779,  -42863,   46905,   80711,  -42768,   57098,   80648,  -42764,   47728,   80934,  -42744,   56837,   80779,  -42753,   47849,   80412,  -42873,   47131,   81127,  -42747,   47476
        25,          1200,   89942,   -7120,  -82824,    5383,  -23925,   21957,    3876,  -23485,   22873,   80700,  -40945,   45312,   80807,  -40983,   45019,   80727,  -40881,   55570,   80663,  -40876,   45846,   80945,  -40855,   55304,   80792,  -40864,   45971,   80442,  -40993,   45245,   81138,  -40858,   45599
        26,          1250,   89102,   -5239,  -83866,    5384,  -23906,   21937,    3876,  -23485,   22873,   80736,  -39110,   43462,   80847,  -39150,   43169,   80755,  -39040,   54070,   80690,  -39035,   43999,   80969,  -39013,   53799,   80817,  -39023,   44127,   80484,  -39161,   43395,   81162,  -39017,   43755
        27,          1300,   88231,   -3355,  -84877,    5384,  -23886,   21917,    3876,  -23485,   22873,   80783,  -37320,   41646,   80897,  -37362,   41354,   80794,  -37246,   52597,   80728,  -37241,   42185,   81004,  -37216,   52321,   80854,  -37227,   42316,   80536,  -37374,   41579,   81196,  -37221,   41944
        28,          1350,   87328,   -1471,  -85859,    5384,  -23867,   21897,    3876,  -23485,   22873,   80841,  -35575,   39862,   80958,  -35620,   39572,   80845,  -35497,   51150,   80777,  -35491,   40403,   81050,  -35465,   50868,   80902,  -35477,   40536,   80599,  -35633,   39796,   81243,  -35470,   40165
        29,          1400,   86394,     414,  -86810,    5384,  -23847,   21877,    3876,  -23485,   22873,   80909,  -33875,   38110,   81029,  -33923,   37822,   80907,  -33792,   49727,   80838,  -33786,   38651,   81108,  -33759,   49440,   80961,  -33771,   38786,   80673,  -33936,   38045,   81300,  -33763,   38416
        30,          1450,   85429,    2299,  -87730,    5384,  -23827,   21857,    3876,  -23485,   22873,   80988,  -32218,   36387,   81110,  -32268,   36102,   80979,  -32131,   48328,   80910,  -32124,   36927,   81177,  -32095,   48036,   81032,  -32108,   37064,   80756,  -32282,   36323,   81368,  -32100,   36695
        31,          1500,   84434,    4183,  -88619,    5384,  -23807,   21837,    3876,  -23485,   22873,   81077,  -30604,   34692,   81201,  -30656,   34412,   81062,  -30512,   46951,   80992,  -30504,   35231,   81256,  -30474,   46654,   81112,  -30488,   35370,   80850,  -30671,   34631,   81446,  -30479,   35002
        32,          1550,   83409,    6065,  -89477,    5383,  -23787,   21817,    3876,  -23485,   22873,   81176,  -29031,   33025,   81301,  -29086,   32749,   81156,  -28934,   45596,   81084,  -28926,   33562,   81345,  -28894,   45293,   81204,  -28909,   33703,   80953,  -29101,   32966,   81535,  -28900,   33336
        33,          1600,   82355,    7945,  -90302,    5382,  -23766,   21797,    3876,  -23485,   22873,   81284,  -27499,   31383,   81411,  -27556,   31112,   81259,  -27397,   44261,   81186,  -27389,   31918,   81445,  -27356,   43953,   81305,  -27371,   32060,   81065,  -27572,   31328,   81634,  -27361,   31694
        34,          1650,   81271,    9823,  -91096,    5381,  -23746,   21778,    3876,  -23485,   22873,   81402,  -26006,   29766,   81530,  -26066,   29501,   81372,  -25901,   42946,   81299,  -25891,   30298,   81554,  -25857,   42632,   81416,  -25873,   30441,   81187,  -26083,   29715,   81743,  -25862,   30077
        35,          1700,   80158,   11697,  -91857,    5379,  -23725,   21758,    3876,  -23485,   22873,   81528,  -24553,   28173,   81658,  -24615,   27914,   81495,  -24443,   41650,   81420,  -24433,   28702,   81673,  -24397,   41330,   81536,  -24414,   28846,   81318,  -24633,   28126,   81861,  -24403,   28483
        36,          1750,   79017,   13567,  -92586,    5378,  -23705,   21738,    3876,  -23485,   22873,   81664,  -23138,   26602,   81795,  -23202,   26350,   81627,  -23023,   40371,   81551,  -23013,   27127,   81801,  -22975,   40046,   81666,  -22993,   27271,   81457,  -23221,   26560,   81988,  -22981,   26910
        37,          1800,   77848,   15432,  -93282,    5376,  -23684,   21719,    3876,  -23485,   22873,   81808,  -21761,   25053,   81940,  -21827,   24808,   81767,  -21641,   39110,   81691,  -21631,   25573,   81939,  -21591,   38779,   81805,  -21609,   25718,   81605,  -21847,   25015,   82124,  -21597,   25358
        38,          1850,   76651,   17291,  -93944,    5373,  -23663,   21700,    3876,  -23485,   22873,   81961,  -20420,   23524,   82093,  -20488,   23287,   81916,  -20296,   37864,   81839,  -20285,   24039,   82084,  -20244,   37529,   81952,  -20263,   24185,   81761,  -20509,   23492,   82269,  -20250,   23827
        39,          1900,   75427,   19145,  -94574,    5371,  -23642,   21680,    3876,  -23485,   22873,   82121,  -19115,   22015,   82254,  -19185,   21786,   82074,  -18987,   36635,   81996,  -18975,   22524,   82239,  -18932,   36293,   82108,  -18952,   22670,   81924,  -19207,   21988,   82422,  -18938,   22314
        40,          1950,   74176,   20991,  -95169,    5368,  -23620,   21661,    3876,  -23485,   22873,   82289,  -17845,   20525,   82422,  -17918,   20304,   82240,  -17713,   35420,   82161,  -17701,   21027,   82401,  -17656,   35073,   82272,  -17677,   21174,   82096,  -17940,   20503,   82583,  -17662,   20819
        41,          2000,   72899,   22830,  -95731,    5364,  -23599,   21642,    3876,  -23485,   22873,   82465,  -16610,   19052,   82598,  -16684,   18840,   82413,  -16473,   34219,   82334,  -16461,   19548,   82571,  -16415,   33866,   82444,  -16436,   19694,   82275,  -16708,   19036,   82752,  -16421,   19342
        42,          2050,   71595,   24661,  -96259,    5361,  -23577,   21623,    3876,  -23485,   22873,   82648,  -15408,   17596,   82781,  -15485,   17393,   82594,  -15268,   33031,   82514,  -15254,   18085,   82749,  -15207,   32673,   82623,  -15229,   18232,   82461,  -15510,   17586,   82929,  -15213,   17881
        43,          2100,   70267,   26484,  -96752,    5357,  -23556,   21604,    3876,  -23485,   22873,   82838,  -14239,   16156,   82971,  -14318,   15963,   82782,  -14095,   31856,   82701,  -14081,   16638,   82934,  -14032,   31492,   82810,  -14055,   16784,   82654,  -14344,   16153,   83112,  -14038,   16435
        44,          2150,   68913,   28296,  -97212,    5353,  -23534,   21586,    3876,  -23485,   22873,   83035,  -13103,   14731,   83168,  -13184,   14548,   82977,  -12955,   30693,   82896,  -12941,   15206,   83126,  -12890,   30324,   83003,  -12914,   15352,   82853,  -13211,   14735,   83303,  -12895,   15005
        45,          2200,   67535,   30099,  -97636,    5348,  -23512,   21567,    3876,  -23485,   22873,   83238,  -11998,   13321,   83370,  -12081,   13147,   83179,  -11846,   29542,   83096,  -11831,   13788,   83325,  -11779,   29167,   83203,  -11804,   13933,   83059,  -12109,   13331,   83500,  -11785,   13589
        46,          2250,   66133,   31891,  -98026,    5343,  -23490,   21549,    3876,  -23485,   22873,   83447,  -10924,   11925,   83579,  -11009,   11761,   83386,  -10769,   28401,   83304,  -10753,   12384,   83530,  -10699,   28021,   83410,  -10725,   12528,   83270,  -11038,   11942,   83703,  -10705,   12186
        47,          2300,   64707,   33672,  -98382,    5338,  -23468,   21531,    3876,  -23485,   22873,   83662,   -9881,   10542,   83794,   -9967,   10388,   83600,   -9721,   27271,   83517,   -9706,   10993,   83741,   -9650,   26886,   83622,   -9676,   11136,   83488,   -9997,   10566,   83913,   -9655,   10796
        48,          2350,   63259,   35441,  -98702,    5332,  -23446,   21513,    3876,  -23485,   22873,   83882,   -8867,    9171,   84014,   -8954,    9028,   83820,   -8704,   26151,   83736,   -8688,    9614,   83958,   -8630,   25761,   83841,   -8657,    9756,   83711,   -8986,    9202,   84128,   -8635,    9419
        49,          2400,   61788,   37197,  -98987,    5326,  -23423,   21495,    3876,  -23485,   22873,   84108,   -7882,    7812,   84239,   -7971,    7679,   84045,   -7715,   25040,   83961,   -7699,    8247,   84180,   -7639,   24645,   84064,   -7668,    8388,   83939,   -8004,    7851,   84348,   -7644,    8053
        50,          2450,   60295,   38940,  -99237,    5320,  -23401,   21478,    3876,  -23485,   22873,   84339,   -6925,    6465,   84469,   -7016,    6343,   84275,   -6755,   23939,   84190,   -6738,    6890,   84407,   -6677,   23538,   84293,   -6706,    7031,   84172,   -7051,    6510,   84574,   -6682,    6698
