GTPPLOT creates from lv_network_l3c1b1f1.pl4,999,1999                           
33,33A, 0D
  1,SBUS A          V-node,A, , V,  1.97157335281372, -.09375         , 0.0,-99999, 99999,1.0,1.0,P
  2,SBUS B          V-node,B, , V,  1.97156250476837, -.078125        , 0.0,-99999, 99999,1.0,1.0,P
  3,SBUS C          V-node,C, , V,  1.97153663635254, -.1328125       , 0.0,-99999, 99999,1.0,1.0,P
  4,SBUS A 1    A I-branch,A, , A,  .001401734305546, 4.10629272460938, 0.0,-99999, 99999,1.0,1.0,P
  5,SBUS B 1    B I-branch,B, , A,  .001465285313316, .628555297851563, 0.0,-99999, 99999,1.0,1.0,P
  6,SBUS C 1    C I-branch,C, , A,  .001503942767158, -1.5404510498047, 0.0,-99999, 99999,1.0,1.0,P
  7,FAULTA        I-branch,A, , A,  6.51765298843384, -28451.65625    , 0.0,-99999, 99999,1.0,1.0,P
  8,FAULTB        I-branch,B, , A,  7.7311897277832 , 149848.875      , 0.0,-99999, 99999,1.0,1.0,P
  9,FAULTC        I-branch,C, , A,  7.6466178894043 , -141394.71875   , 0.0,-99999, 99999,1.0,1.0,P
 10,TACS   PV001V I-branch,S, , A,  .00257130083628 , 257.127502441406, 0.0,-99999, 99999,1.0,1.0,P
 11,TACS   PV001I I-branch,S, , A,  .007317073177546, 731.700012207031, 0.0,-99999, 99999,1.0,1.0,P
 12,TACS   PV001W I-branch,S, , A,  .182798306923E-3, 359.3583984375  , 0.0,-99999, 99999,1.0,1.0,P
 13,TACS   PV002V I-branch,S, , A,  .00257104402408 , 257.101837158203, 0.0,-99999, 99999,1.0,1.0,P
 14,TACS   PV002I I-branch,S, , A,  .007317073177546, 731.700012207031, 0.0,-99999, 99999,1.0,1.0,P
 15,TACS   PV002W I-branch,S, , A,  .179516719072E-3, 359.815979003906, 0.0,-99999, 99999,1.0,1.0,P
 16,TACS   PV003V I-branch,S, , A,  .002562039997429, 256.201446533203, 0.0,-99999, 99999,1.0,1.0,P
 17,TACS   PV003I I-branch,S, , A,  .007317073177546, 731.700012207031, 0.0,-99999, 99999,1.0,1.0,P
 18,TACS   PV003W I-branch,S, , A,  .186928897165E-3, 358.927856445313, 0.0,-99999, 99999,1.0,1.0,P
 19,TACS   PV004V I-branch,S, , A,  .002564396709204, 256.437103271484, 0.0,-99999, 99999,1.0,1.0,P
 20,TACS   PV004I I-branch,S, , A,  .007317073177546, 731.700012207031, 0.0,-99999, 99999,1.0,1.0,P
 21,TACS   PV004W I-branch,S, , A,  .188562524272E-3, 358.759704589844, 0.0,-99999, 99999,1.0,1.0,P
 22,TACS   PV005V I-branch,S, , A,  .002549570053816, 254.954452514648, 0.0,-99999, 99999,1.0,1.0,P
 23,TACS   PV005I I-branch,S, , A,  .007317073177546, 731.700012207031, 0.0,-99999, 99999,1.0,1.0,P
 24,TACS   PV005W I-branch,S, , A,  .186920355191E-3, 359.015808105469, 0.0,-99999, 99999,1.0,1.0,P
 25,TACS   PV006V I-branch,S, , A,  .002557971747592, 255.794616699219, 0.0,-99999, 99999,1.0,1.0,P
 26,TACS   PV006I I-branch,S, , A,  .007317073177546, 731.700012207031, 0.0,-99999, 99999,1.0,1.0,P
 27,TACS   PV006W I-branch,S, , A,  .188513848116E-3, 358.794708251953, 0.0,-99999, 99999,1.0,1.0,P
 28,TACS   PV007V I-branch,S, , A,  .0025889640674  , 258.893829345703, 0.0,-99999, 99999,1.0,1.0,P
 29,TACS   PV007I I-branch,S, , A,  .007317073177546, 731.700012207031, 0.0,-99999, 99999,1.0,1.0,P
 30,TACS   PV007W I-branch,S, , A,  .182977295481E-3, 359.202728271484, 0.0,-99999, 99999,1.0,1.0,P
 31,TACS   PV008V I-branch,S, , A,  .002542363945395, 254.233840942383, 0.0,-99999, 99999,1.0,1.0,P
 32,TACS   PV008I I-branch,S, , A,  .007317073177546, 731.700012207031, 0.0,-99999, 99999,1.0,1.0,P
 33,TACS   PV008W I-branch,S, , A,  .185222947039E-3, 359.258666992188, 0.0,-99999, 99999,1.0,1.0,P
 50
1
     20000,  12001
10/10/2022,21:55:29.000000
10/10/2022,21:55:29.000000
ASCII 
    1.000000
         1,             0,   99998,  -50013,  -49988,   83374,  -97711,   15363,    4365,  -19383,   18491,  -99999,  -99999,   96459,  -99999,  -99999,   95674,  -99999,  -99999,   96631,  -99999,  -99999,   96686,  -99999,  -99999,   96165,  -99999,  -99999,   96525,  -99999,  -99999,   97216,  -99999,  -99999,   95735
         2,            50,   99980,  -48372,  -51611,   84542,  -96757,   13344,    4365,  -19383,   18491,   86676,  -98782,   96459,   86695,  -98782,   95674,   87351,  -98782,   96631,   87179,  -98782,   96686,   88268,  -98782,   96165,   87649,  -98782,   96525,   85403,  -98782,   97216,   88801,  -98782,   95735
         3,           100,   99927,  -46713,  -53216,   85669,  -95768,   11330,    4365,  -19383,   18491,   86498,  -96375,   95569,   86517,  -96375,   94773,   87162,  -96375,   95766,   86994,  -96375,   95824,   88068,  -96375,   95295,   87459,  -96375,   95667,   85243,  -96376,   96341,   88598,  -96375,   94854
         4,           150,   99840,  -45039,  -54803,   86720,  -94745,    9354,    4365,  -19383,   18491,   86127,  -94025,   93814,   86149,  -94025,   92997,   86767,  -94024,   94063,   86609,  -94025,   94126,   87654,  -94024,   93579,   87064,  -94024,   93975,   84915,  -94025,   94618,   88175,  -94024,   93116
         5,           200,   99716,  -43348,  -56371,   87664,  -93690,    7446,    4365,  -19383,   18491,   85749,  -91727,   92105,   85779,  -91727,   91268,   86361,  -91726,   92404,   86210,  -91727,   92472,   87227,  -91726,   91908,   86655,  -91726,   92329,   84586,  -91729,   92940,   87740,  -91725,   91424
         6,           250,   99557,  -41642,  -57918,   88522,  -92604,    5588,    4365,  -19383,   18491,   85403,  -89482,   90435,   85445,  -89482,   89578,   85985,  -89480,   90784,   85840,  -89481,   90858,   86830,  -89478,   90276,   86275,  -89480,   90720,   84286,  -89485,   91303,   87337,  -89478,   89771
         7,           300,   99362,  -39920,  -59444,   89348,  -91489,    3732,    4365,  -19383,   18491,   85084,  -87287,   88804,   85138,  -87288,   87928,   85636,  -87284,   89201,   85495,  -87285,   89280,   86460,  -87282,   88681,   85921,  -87284,   89148,   84006,  -87293,   89705,   86961,  -87281,   88154
         8,           350,   99132,  -38185,  -60950,   90148,  -90346,    1873,    4365,  -19383,   18491,   84788,  -85143,   87210,   84852,  -85144,   86316,   85310,  -85138,   87654,   85173,  -85140,   87738,   86114,  -85135,   87121,   85590,  -85138,   87612,   83745,  -85151,   88146,   86610,  -85133,   86573
         9,           400,   98867,  -36436,  -62433,   90896,  -89177,      37,    4365,  -19383,   18491,   84511,  -83048,   85651,   84585,  -83050,   84742,   85005,  -83041,   86142,   84872,  -83043,   86230,   85791,  -83036,   85596,   85281,  -83040,   86110,   83500,  -83059,   86623,   86282,  -83034,   85026
        10,           450,   98567,  -34675,  -63895,   91595,  -87983,   -1778,    4365,  -19383,   18491,   84254,  -81001,   84128,   84337,  -81003,   83204,   84720,  -80991,   84664,   84591,  -80994,   84757,   85489,  -80985,   84104,   84992,  -80991,   84642,   83274,  -81015,   85136,   85976,  -80983,   83513
        11,           500,   98231,  -32901,  -65333,   92274,  -86763,   -3600,    4365,  -19383,   18491,   84016,  -79001,   82639,   84106,  -79004,   81701,   84456,  -78989,   83219,   84329,  -78992,   83317,   85207,  -78981,   82646,   84722,  -78988,   83206,   83064,  -79019,   83683,   85690,  -78978,   82033
        12,           550,   97860,  -31115,  -66748,   92935,  -85517,   -5429,    4365,  -19383,   18491,   83795,  -77047,   81183,   83893,  -77052,   80232,   84210,  -77033,   81805,   84086,  -77036,   81907,   84945,  -77022,   81218,   84472,  -77031,   81801,   82871,  -77069,   82264,   85424,  -77019,   80585
        13,           600,   97455,  -29318,  -68140,   93560,  -84248,   -7248,    4365,  -19383,   18491,   83592,  -75139,   79758,   83696,  -75145,   78796,   83983,  -75121,   80422,   83861,  -75125,   80529,   84702,  -75109,   79822,   84240,  -75119,   80426,   82694,  -75165,   80877,   85177,  -75105,   79166
        14,           650,   97016,  -27511,  -69508,   94145,  -82955,   -9053,    4365,  -19383,   18491,   83405,  -73276,   78365,   83515,  -73282,   77392,   83773,  -73254,   79069,   83654,  -73259,   79180,   84477,  -73240,   78454,   84026,  -73252,   79081,   82532,  -73305,   79521,   84949,  -73236,   77778
        15,           700,   96541,  -25694,  -70850,   94709,  -81639,  -10862,    4365,  -19383,   18491,   83235,  -71455,   77000,   83351,  -71463,   76017,   83581,  -71431,   77744,   83464,  -71436,   77859,   84270,  -71414,   77115,   83830,  -71428,   77763,   82386,  -71490,   78194,   84739,  -71409,   76418
        16,           750,   96032,  -23867,  -72168,   95254,  -80298,  -12676,    4365,  -19383,   18491,   83082,  -69678,   75665,   83202,  -69687,   74673,   83406,  -69649,   76447,   83292,  -69655,   76566,   84081,  -69630,   75803,   83651,  -69646,   76473,   82255,  -69717,   76897,   84546,  -69625,   75085
        17,           800,   95490,  -22033,  -73460,   95766,  -78935,  -14481,    4365,  -19383,   18491,   82944,  -67943,   74357,   83068,  -67953,   73357,   83248,  -67910,   75176,   83135,  -67916,   75299,   83908,  -67888,   74518,   83489,  -67906,   75208,   82139,  -67987,   75627,   84370,  -67882,   73779
        18,           850,   94913,  -20190,  -74726,   96243,  -77550,  -16275,    4365,  -19383,   18491,   82821,  -66248,   73075,   82949,  -66260,   72068,   83106,  -66212,   73931,   82995,  -66218,   74058,   83753,  -66187,   73258,   83343,  -66207,   73969,   82037,  -66298,   74384,   84211,  -66180,   72498
        19,           900,   94303,  -18341,  -75965,   96696,  -76142,  -18068,    4365,  -19383,   18491,   82714,  -64594,   71819,   82845,  -64607,   70805,   82981,  -64553,   72710,   82871,  -64561,   72840,   83614,  -64526,   72022,   83214,  -64548,   72754,   81950,  -64649,   73167,   84069,  -64518,   71242
        20,           950,   93659,  -16485,  -77177,   97126,  -74712,  -19862,    4365,  -19383,   18491,   82621,  -62980,   70587,   82756,  -62993,   69568,   82871,  -62934,   71512,   82763,  -62942,   71646,   83491,  -62904,   70810,   83100,  -62928,   71562,   81877,  -63040,   71974,   83943,  -62895,   70009
        21,          1000,   92982,  -14623,  -78362,   97525,  -73261,  -21648,    4365,  -19383,   18491,   82543,  -61404,   69379,   82681,  -61419,   68354,   82777,  -61354,   70337,   82670,  -61362,   70475,   83384,  -61320,   69620,   83002,  -61347,   70392,   81817,  -61469,   70805,   83832,  -61311,   68799
        22,          1050,   92272,  -12755,  -79519,   97890,  -71790,  -23422,    4365,  -19383,   18491,   82480,  -59866,   68193,   82619,  -59882,   67165,   82698,  -59811,   69184,   82591,  -59820,   69326,   83293,  -59774,   68451,   82919,  -59804,   69244,   81771,  -59937,   69659,   83737,  -59765,   67610
        23,          1100,   91528,  -10884,  -80648,   98228,  -70297,  -25192,    4365,  -19383,   18491,   82430,  -58365,   67029,   82572,  -58383,   65997,   82633,  -58306,   68051,   82528,  -58316,   68197,   83216,  -58266,   67304,   82851,  -58298,   68116,   81738,  -58442,   68535,   83657,  -58255,   66443
        24,          1150,   90753,   -9008,  -81748,   98542,  -68784,  -26958,    4365,  -19383,   18491,   82394,  -56901,   65886,   82537,  -56920,   64851,   82583,  -56837,   66939,   82479,  -56847,   67088,   83155,  -56793,   66176,   82797,  -56828,   67008,   81719,  -56984,   67432,   83592,  -56782,   65295
        25,          1200,   89945,   -7129,  -82819,   98824,  -67251,  -28715,    4365,  -19383,   18491,   82372,  -55473,   64763,   82516,  -55493,   63725,   82548,  -55403,   65845,   82444,  -55414,   65998,   83107,  -55356,   65067,   82758,  -55393,   65918,   81712,  -55561,   66349,   83541,  -55344,   64166
        26,          1250,   89106,   -5248,  -83861,   99073,  -65699,  -30459,    4365,  -19383,   18491,   82362,  -54079,   63659,   82508,  -54100,   62620,   82526,  -54005,   64770,   82422,  -54016,   64926,   83074,  -53955,   63976,   82732,  -53994,   64847,   81717,  -54173,   65285,   83504,  -53941,   63056
        27,          1300,   88234,   -3365,  -84872,   99294,  -64129,  -32195,    4365,  -19383,   18491,   82366,  -52720,   62573,   82512,  -52742,   61533,   82517,  -52641,   63712,   82414,  -52653,   63872,   83055,  -52587,   62903,   82720,  -52629,   63793,   81735,  -52820,   64239,   83482,  -52573,   61963
        28,          1350,   87331,   -1480,  -85854,   99487,  -62539,  -33924,    4365,  -19383,   18491,   82382,  -51395,   61505,   82529,  -51418,   60464,   82522,  -51310,   62671,   82419,  -51323,   62835,   83049,  -51253,   61847,   82722,  -51298,   62755,   81765,  -51501,   63212,   83472,  -51238,   60887
        29,          1400,   86398,     405,  -86805,   99650,  -60931,  -35643,    4365,  -19383,   18491,   82410,  -50102,   60453,   82557,  -50127,   59413,   82540,  -50013,   61646,   82437,  -50026,   61813,   83056,  -49952,   60806,   82736,  -49999,   61733,   81806,  -50215,   62201,   83476,  -49936,   59827
        30,          1450,   85433,    2289,  -87726,   99780,  -59305,  -37347,    4365,  -19383,   18491,   82450,  -48842,   59418,   82597,  -48868,   58378,   82570,  -48748,   60637,   82467,  -48762,   60808,   83076,  -48683,   59781,   82763,  -48733,   60726,   81859,  -48961,   61207,   83492,  -48666,   58783
        31,          1500,   84439,    4173,  -88615,   99880,  -57663,  -39041,    4365,  -19383,   18491,   82502,  -47614,   58398,   82649,  -47641,   57359,   82612,  -47514,   59642,   82510,  -47529,   59816,   83108,  -47446,   58770,   82802,  -47499,   59734,   81923,  -47739,   60228,   83521,  -47428,   57753
        32,          1550,   83414,    6056,  -89472,   99951,  -56003,  -40724,    4365,  -19383,   18491,   82565,  -46417,   57393,   82712,  -46445,   56355,   82667,  -46312,   58660,   82564,  -46327,   58839,   83153,  -46240,   57774,   82853,  -46296,   58756,   81997,  -46548,   59264,   83561,  -46221,   56738
        33,          1600,   82359,    7936,  -90298,   99991,  -54327,  -42394,    4365,  -19383,   18491,   82639,  -45250,   56402,   82785,  -45279,   55366,   82733,  -45140,   57693,   82629,  -45156,   57875,   83209,  -45064,   56791,   82915,  -45123,   57791,   82082,  -45387,   58314,   83614,  -45044,   55736
        34,          1650,   81276,    9814,  -91092,   99998,  -52636,  -44049,    4365,  -19383,   18491,   82724,  -44113,   55424,   82869,  -44144,   54391,   82810,  -43999,   56738,   82706,  -44015,   56924,   83277,  -43919,   55820,   82989,  -43980,   56838,   82178,  -44257,   57378,   83678,  -43898,   54746
        35,          1700,   80163,   11688,  -91854,   99975,  -50929,  -45690,    4365,  -19383,   18491,   82819,  -43006,   54459,   82964,  -43037,   53428,   82898,  -42886,   55795,   82794,  -42903,   55986,   83356,  -42802,   54862,   83074,  -42866,   55897,   82283,  -43155,   56454,   83753,  -42780,   53769
        36,          1750,   79022,   13557,  -92582,   99922,  -49207,  -47318,    4365,  -19383,   18491,   82924,  -41927,   53506,   83068,  -41959,   52479,   82997,  -41802,   54863,   82892,  -41819,   55059,   83446,  -41715,   53915,   83169,  -41782,   54968,   82398,  -42083,   55543,   83839,  -41691,   52804
        37,          1800,   77853,   15422,  -93278,   99837,  -47471,  -48931,    4365,  -19383,   18491,   83039,  -40877,   52565,   83182,  -40910,   51541,   83105,  -40747,   53943,   83000,  -40764,   54143,   83546,  -40655,   52979,   83275,  -40725,   54050,   82522,  -41038,   54644,   83935,  -40631,   51850
        38,          1850,   76656,   17282,  -93941,   99720,  -45721,  -50527,    4365,  -19383,   18491,   83163,  -39854,   51636,   83305,  -39888,   50615,   83224,  -39719,   53034,   83118,  -39737,   53238,   83656,  -39623,   52054,   83390,  -39696,   53143,   82656,  -40021,   53756,   84041,  -39597,   50907
        39,          1900,   75432,   19135,  -94571,   99572,  -43957,  -52106,    4365,  -19383,   18491,   83296,  -38858,   50716,   83437,  -38892,   49700,   83352,  -38718,   52134,   83246,  -38736,   52343,   83775,  -38618,   51139,   83515,  -38694,   52245,   82798,  -39031,   52879,   84157,  -38591,   49974
        40,          1950,   74181,   20982,  -95166,   99392,  -42181,  -53670,    4365,  -19383,   18491,   83439,  -37888,   49807,   83578,  -37924,   48796,   83490,  -37744,   51244,   83383,  -37762,   51457,   83905,  -37640,   50234,   83650,  -37718,   51357,   82949,  -38067,   52011,   84282,  -37612,   49050
        41,          2000,   72904,   22821,  -95728,   99181,  -40392,  -55217,    4365,  -19383,   18491,   83589,  -36944,   48908,   83727,  -36981,   47901,   83636,  -36795,   50363,   83528,  -36814,   50582,   84043,  -36687,   49338,   83793,  -36769,   50478,   83108,  -37130,   51154,   84416,  -36658,   48136
        42,          2050,   71601,   24652,  -96256,   98938,  -38592,  -56744,    4365,  -19383,   18491,   83748,  -36026,   48018,   83884,  -36063,   47016,   83791,  -35872,   49491,   83682,  -35892,   49715,   84190,  -35760,   48451,   83945,  -35844,   49608,   83274,  -36217,   50306,   84559,  -35730,   47231
        43,          2100,   70273,   26475,  -96750,   98664,  -36780,  -58253,    4365,  -19383,   18491,   83915,  -35133,   47137,   84049,  -35170,   46140,   83955,  -34974,   48628,   83845,  -34994,   48856,   84345,  -34858,   47572,   84104,  -34945,   48746,   83448,  -35330,   49466,   84710,  -34826,   46334
        44,          2150,   68919,   28287,  -97209,   98358,  -34957,  -59744,    4365,  -19383,   18491,   84089,  -34263,   46265,   84221,  -34302,   45272,   84126,  -34101,   47772,   84015,  -34121,   48005,   84508,  -33981,   46701,   84272,  -34070,   47892,   83630,  -34466,   48636,   84869,  -33947,   45446
        45,          2200,   67541,   30090,  -97634,   98020,  -33124,  -61215,    4365,  -19383,   18491,   84270,  -33418,   45400,   84401,  -33457,   44413,   84304,  -33251,   46923,   84192,  -33271,   47163,   84679,  -33127,   45838,   84448,  -33220,   47045,   83818,  -33627,   47813,   85036,  -33092,   44565
        46,          2250,   66139,   31882,  -98025,   97651,  -31282,  -62666,    4365,  -19383,   18491,   84458,  -32596,   44543,   84587,  -32636,   43562,   84490,  -32425,   46082,   84377,  -32445,   46327,   84857,  -32297,   44982,   84630,  -32392,   46206,   84014,  -32811,   46997,   85210,  -32261,   43692
        47,          2300,   64714,   33663,  -98380,   97249,  -29430,  -64096,    4365,  -19383,   18491,   84653,  -31797,   43694,   84780,  -31837,   42718,   84682,  -31621,   45248,   84569,  -31642,   45499,   85043,  -31489,   44133,   84820,  -31588,   45373,   84215,  -32017,   46189,   85391,  -31452,   42826
        48,          2350,   63265,   35432,  -98700,   96817,  -27570,  -65505,    4365,  -19383,   18491,   84854,  -31021,   42852,   84979,  -31061,   41881,   84881,  -30841,   44421,   84767,  -30862,   44677,   85235,  -30705,   43290,   85016,  -30805,   44548,   84423,  -31246,   45388,   85578,  -30665,   41966
        49,          2400,   61794,   37188,  -98986,   96352,  -25702,  -66892,    4365,  -19383,   18491,   85061,  -30266,   42016,   85184,  -30307,   41052,   85087,  -30082,   43599,   84971,  -30103,   43862,   85433,  -29942,   42454,   85218,  -30045,   43728,   84636,  -30497,   44594,   85772,  -29901,   41113
        50,          2450,   60301,   38931,  -99236,   95856,  -23826,  -68257,    4365,  -19383,   18491,   85273,  -29533,   41187,   85395,  -29574,   40228,   85298,  -29344,   42784,   85181,  -29366,   43053,   85637,  -29200,   41625,   85426,  -29307,   42915,   84854,  -29769,   43806,   85972,  -29158,   40267
