GTPPLOT creates from lv_network_l2c3b1f1.pl4,999,1999                           
33,33A, 0D
  1,SBUS A          V-node,A, , V,  1.97167205810547, -.15625         , 0.0,-99999, 99999,1.0,1.0,P
  2,SBUS B          V-node,B, , V,  1.97166359424591, -.1171875       , 0.0,-99999, 99999,1.0,1.0,P
  3,SBUS C          V-node,C, , V,  1.97164511680603, -.2109375       , 0.0,-99999, 99999,1.0,1.0,P
  4,SBUS A 1    A I-branch,A, , A,  .906397530343E-3, 6.41846466064453, 0.0,-99999, 99999,1.0,1.0,P
  5,SBUS B 1    B I-branch,B, , A,  .962396152318E-3, -3.8578071594238, 0.0,-99999, 99999,1.0,1.0,P
  6,SBUS C 1    C I-branch,C, , A,  .960680132266E-3, -2.3474311828613, 0.0,-99999, 99999,1.0,1.0,P
  7,FAULTA        I-branch,A, , A,  6.51776218414307, -28458.3125     , 0.0,-99999, 99999,1.0,1.0,P
  8,FAULTB        I-branch,B, , A,  7.731276512146  , 149846.96875    , 0.0,-99999, 99999,1.0,1.0,P
  9,FAULTC        I-branch,C, , A,  7.64663791656494, -141383.5625    , 0.0,-99999, 99999,1.0,1.0,P
 10,TACS   PV001V I-branch,S, , A,  .00259817764163 , 259.815155029297, 0.0,-99999, 99999,1.0,1.0,P
 11,TACS   PV001I I-branch,S, , A,  .007317073177546, 731.700012207031, 0.0,-99999, 99999,1.0,1.0,P
 12,TACS   PV001W I-branch,S, , A,  .181773051736E-3, 359.292755126953, 0.0,-99999, 99999,1.0,1.0,P
 13,TACS   PV002V I-branch,S, , A,  .002599334111437, 259.930816650391, 0.0,-99999, 99999,1.0,1.0,P
 14,TACS   PV002I I-branch,S, , A,  .007317073177546, 731.700012207031, 0.0,-99999, 99999,1.0,1.0,P
 15,TACS   PV002W I-branch,S, , A,  .177769878064E-3, 359.733520507813, 0.0,-99999, 99999,1.0,1.0,P
 16,TACS   PV003V I-branch,S, , A,  .0025901037734  , 259.007781982422, 0.0,-99999, 99999,1.0,1.0,P
 17,TACS   PV003I I-branch,S, , A,  .007317073177546, 731.700012207031, 0.0,-99999, 99999,1.0,1.0,P
 18,TACS   PV003W I-branch,S, , A,  .186187622603E-3, 358.8466796875  , 0.0,-99999, 99999,1.0,1.0,P
 19,TACS   PV004V I-branch,S, , A,  .00259124301374 , 259.121704101563, 0.0,-99999, 99999,1.0,1.0,P
 20,TACS   PV004I I-branch,S, , A,  .007317073177546, 731.700012207031, 0.0,-99999, 99999,1.0,1.0,P
 21,TACS   PV004W I-branch,S, , A,  .187924859347E-3, 358.671966552734, 0.0,-99999, 99999,1.0,1.0,P
 22,TACS   PV005V I-branch,S, , A,  .002581292297691, 258.126647949219, 0.0,-99999, 99999,1.0,1.0,P
 23,TACS   PV005I I-branch,S, , A,  .007317073177546, 731.700012207031, 0.0,-99999, 99999,1.0,1.0,P
 24,TACS   PV005W I-branch,S, , A,  .186215082067E-3, 358.914184570313, 0.0,-99999, 99999,1.0,1.0,P
 25,TACS   PV006V I-branch,S, , A,  .002586631802842, 258.660583496094, 0.0,-99999, 99999,1.0,1.0,P
 26,TACS   PV006I I-branch,S, , A,  .007317073177546, 731.700012207031, 0.0,-99999, 99999,1.0,1.0,P
 27,TACS   PV006W I-branch,S, , A,  .187906698557E-3, 358.697509765625, 0.0,-99999, 99999,1.0,1.0,P
 28,TACS   PV007V I-branch,S, , A,  .002610500436276, 261.047424316406, 0.0,-99999, 99999,1.0,1.0,P
 29,TACS   PV007I I-branch,S, , A,  .007317073177546, 731.700012207031, 0.0,-99999, 99999,1.0,1.0,P
 30,TACS   PV007W I-branch,S, , A,  .181881550816E-3, 359.178100585938, 0.0,-99999, 99999,1.0,1.0,P
 31,TACS   PV008V I-branch,S, , A,  .002576718805358, 257.669311523438, 0.0,-99999, 99999,1.0,1.0,P
 32,TACS   PV008I I-branch,S, , A,  .007317073177546, 731.700012207031, 0.0,-99999, 99999,1.0,1.0,P
 33,TACS   PV008W I-branch,S, , A,  .184456032002E-3, 359.144104003906, 0.0,-99999, 99999,1.0,1.0,P
 50
1
     20000,  12001
10/10/2022,21:57:07.000000
10/10/2022,21:57:07.000000
ASCII 
    1.000000
         1,             0,   99997,  -50009,  -49991,   88482,  -99999,   16467,    4366,  -19382,   18489,  -99999,  -99999,   97365,  -99999,  -99999,   97078,  -99999,  -99999,   97452,  -99999,  -99999,   97481,  -99999,  -99999,   97075,  -99999,  -99999,   97354,  -99999,  -99999,   97937,  -99999,  -99999,   96754
         2,            50,   99980,  -48368,  -51614,   89734,  -98937,   14221,    4366,  -19382,   18489,   84745,  -97970,   97365,   84663,  -97970,   97078,   85321,  -97970,   97452,   85240,  -97970,   97481,   85954,  -97970,   97075,   85570,  -97970,   97354,   83873,  -97970,   97937,   86284,  -97970,   96754
         3,           100,   99927,  -46710,  -53220,   90919,  -97837,   12001,    4366,  -19382,   18489,   84589,  -93960,   96480,   84507,  -93960,   96177,   85157,  -93959,   96592,   85079,  -93960,   96626,   85783,  -93959,   96211,   85406,  -93959,   96502,   83730,  -93960,   97064,   86110,  -93959,   95880
         4,           150,   99840,  -45035,  -54807,   91926,  -96701,    9913,    4366,  -19382,   18489,   84269,  -90043,   94736,   84192,  -90043,   94402,   84818,  -90042,   94899,   84745,  -90043,   94942,   85429,  -90042,   94509,   85064,  -90042,   94822,   83444,  -90044,   95343,   85751,  -90042,   94157
         5,           200,   99717,  -43344,  -56376,   92656,  -95531,    8053,    4366,  -19382,   18489,   83953,  -86216,   93039,   83892,  -86216,   92674,   84474,  -86215,   93251,   84404,  -86215,   93303,   85070,  -86214,   92853,   84717,  -86214,   93188,   83171,  -86218,   93667,   85388,  -86213,   92480
         6,           250,   99558,  -41637,  -57923,   93195,  -94334,    6344,    4366,  -19382,   18489,   83677,  -82477,   91382,   83636,  -82478,   90986,   84166,  -82474,   91642,   84097,  -82475,   91702,   84745,  -82472,   91235,   84402,  -82474,   91593,   82932,  -82481,   92033,   85062,  -82472,   90841
         7,           300,   99363,  -39916,  -59449,   93722,  -93114,    4625,    4366,  -19382,   18489,   83429,  -78824,   89763,   83407,  -78826,   89338,   83886,  -78819,   90071,   83816,  -78820,   90139,   84449,  -78816,   89654,   84114,  -78819,   90034,   82711,  -78832,   90440,   84766,  -78815,   89240
         8,           350,   99133,  -38181,  -60954,   94266,  -91876,    2872,    4366,  -19382,   18489,   83202,  -75256,   88182,   83196,  -75260,   87731,   83628,  -75249,   88536,   83557,  -75250,   88612,   84177,  -75244,   88110,   83849,  -75248,   88512,   82507,  -75267,   88886,   84493,  -75243,   87675
         9,           400,   98868,  -36432,  -62438,   94738,  -90622,    1169,    4366,  -19382,   18489,   82991,  -71772,   86639,   83001,  -71777,   86164,   83388,  -71761,   87038,   83316,  -71762,   87122,   83924,  -71755,   86602,   83602,  -71759,   87025,   82317,  -71787,   87370,   84241,  -71753,   86147
        10,           450,   98567,  -34670,  -63899,   95136,  -89350,    -480,    4366,  -19382,   18489,   82796,  -68369,   85133,   82820,  -68376,   84634,   83165,  -68354,   85575,   83092,  -68355,   85667,   83690,  -68346,   85129,   83372,  -68352,   85573,   82142,  -68388,   85892,   84008,  -68344,   84654
        11,           500,   98231,  -32896,  -65337,   95539,  -88059,   -2153,    4366,  -19382,   18489,   82618,  -65046,   83662,   82655,  -65056,   83142,   82960,  -65026,   84146,   82885,  -65028,   84245,   83473,  -65016,   83690,   83161,  -65023,   84154,   81983,  -65069,   84448,   83792,  -65014,   83195
        12,           550,   97860,  -31110,  -66753,   95962,  -86750,   -3863,    4366,  -19382,   18489,   82455,  -61801,   82226,   82505,  -61813,   81685,   82772,  -61777,   82750,   82696,  -61778,   82856,   83274,  -61764,   82283,   82966,  -61772,   82768,   81838,  -61829,   83039,   83593,  -61762,   81769
        13,           600,   97455,  -29313,  -68144,   96353,  -85427,   -5558,    4366,  -19382,   18489,   82306,  -58633,   80822,   82368,  -58648,   80263,   82600,  -58603,   81385,   82522,  -58605,   81498,   83090,  -58588,   80909,   82788,  -58598,   81413,   81707,  -58665,   81664,   83410,  -58586,   80375
        14,           650,   97016,  -27506,  -69512,   96696,  -84087,   -7224,    4366,  -19382,   18489,   82172,  -55539,   79451,   82244,  -55557,   78874,   82442,  -55504,   80052,   82363,  -55506,   80171,   82923,  -55486,   79565,   82624,  -55497,   80089,   81588,  -55577,   80322,   83243,  -55484,   79012
        15,           700,   96541,  -25689,  -70854,   97031,  -82729,   -8901,    4366,  -19382,   18489,   82052,  -52519,   78111,   82134,  -52541,   77517,   82300,  -52478,   78748,   82220,  -52480,   78873,   82771,  -52457,   78250,   82477,  -52470,   78793,   81484,  -52563,   79010,   83092,  -52455,   77679
        16,           750,   96032,  -23863,  -72172,   97373,  -81353,  -10602,    4366,  -19382,   18489,   81946,  -49572,   76801,   82038,  -49596,   76191,   82174,  -49524,   77473,   82092,  -49525,   77604,   82634,  -49500,   76964,   82345,  -49515,   77525,   81394,  -49621,   77727,   82956,  -49498,   76375
        17,           800,   95489,  -22028,  -73464,   97692,  -79961,  -12297,    4366,  -19382,   18489,   81854,  -46694,   75519,   81955,  -46722,   74895,   82062,  -46640,   76225,   81979,  -46641,   76361,   82513,  -46613,   75706,   82228,  -46629,   76285,   81316,  -46750,   76474,   82834,  -46611,   75098
        18,           850,   94913,  -20186,  -74729,   97976,  -78555,  -13974,    4366,  -19382,   18489,   81775,  -43886,   74265,   81884,  -43918,   73628,   81964,  -43825,   75003,   81880,  -43826,   75145,   82406,  -43794,   74473,   82125,  -43812,   75070,   81251,  -43948,   75249,   82727,  -43793,   73849
        19,           900,   94302,  -18336,  -75969,   98244,  -77132,  -15652,    4366,  -19382,   18489,   81710,  -41146,   73037,   81826,  -41181,   72388,   81881,  -41077,   73808,   81796,  -41078,   73954,   82313,  -41043,   73266,   82037,  -41063,   73881,   81199,  -41213,   74050,   82635,  -41041,   72624
        20,           950,   93658,  -16480,  -77181,   98506,  -75691,  -17344,    4366,  -19382,   18489,   81658,  -38472,   71835,   81781,  -38511,   71175,   81812,  -38396,   72636,   81725,  -38397,   72788,   82235,  -38358,   72084,   81963,  -38380,   72715,   81159,  -38546,   72877,   82556,  -38356,   71425
        21,          1000,   92981,  -14618,  -78366,   98750,  -74235,  -19032,    4366,  -19382,   18489,   81618,  -35863,   70658,   81748,  -35905,   69988,   81756,  -35779,   71488,   81669,  -35780,   71644,   82171,  -35738,   70925,   81903,  -35761,   71572,   81132,  -35943,   71728,   82492,  -35736,   70249
        22,          1050,   92270,  -12750,  -79523,   98964,  -72765,  -20707,    4366,  -19382,   18489,   81591,  -33317,   69504,   81726,  -33364,   68825,   81714,  -33225,   70362,   81625,  -33226,   70523,   82121,  -33181,   69788,   81856,  -33206,   70452,   81117,  -33404,   70604,   82441,  -33179,   69096
        23,          1100,   91527,  -10879,  -80651,   99157,  -71278,  -22378,    4366,  -19382,   18489,   81577,  -30834,   68373,   81717,  -30884,   67686,   81685,  -30734,   69258,   81595,  -30735,   69423,   82083,  -30686,   68673,   81823,  -30713,   69353,   81113,  -30928,   69502,   82403,  -30684,   67965
        24,          1150,   90752,   -9003,  -81751,   99338,  -69775,  -24055,    4366,  -19382,   18489,   81574,  -28412,   67264,   81720,  -28466,   66569,   81669,  -28304,   68175,   81578,  -28305,   68344,   82059,  -28252,   67579,   81803,  -28281,   68275,   81122,  -28513,   68422,   82378,  -28250,   66854
        25,          1200,   89944,   -7124,  -82822,   99500,  -68258,  -25728,    4366,  -19382,   18489,   81584,  -26050,   66176,   81734,  -26108,   65474,   81666,  -25934,   67111,   81574,  -25934,   67285,   82048,  -25878,   66505,   81796,  -25909,   67215,   81142,  -26158,   67362,   82366,  -25876,   65764
        26,          1250,   89104,   -5243,  -83864,   99635,  -66727,  -27389,    4366,  -19382,   18489,   81605,  -23747,   65107,   81759,  -23808,   64399,   81675,  -23622,   66067,   81582,  -23622,   66245,   82050,  -23562,   65449,   81801,  -23595,   66175,   81172,  -23861,   66323,   82367,  -23560,   64693
        27,          1300,   88233,   -3360,  -84875,   99748,  -65181,  -29044,    4366,  -19382,   18489,   81638,  -21501,   64058,   81795,  -21566,   63345,   81697,  -21368,   65041,   81602,  -21368,   65222,   82064,  -21303,   64412,   81819,  -21339,   65153,   81215,  -21622,   65303,   82380,  -21301,   63641
        28,          1350,   87330,   -1475,  -85857,   99843,  -63619,  -30699,    4366,  -19382,   18489,   81682,  -19311,   63027,   81842,  -19381,   62310,   81730,  -19170,   64032,   81634,  -19169,   64218,   82090,  -19101,   63393,   81848,  -19139,   64148,   81268,  -19440,   64302,   82404,  -19099,   62606
        29,          1400,   86396,     410,  -86808,   99918,  -62044,  -32348,    4366,  -19382,   18489,   81737,  -17177,   62014,   81900,  -17250,   61293,   81775,  -17028,   63040,   81678,  -17026,   63229,   82128,  -16954,   62390,   81890,  -16994,   63159,   81331,  -17312,   63318,   82441,  -16952,   61588
        30,          1450,   85431,    2295,  -87728,   99968,  -60455,  -33986,    4366,  -19382,   18489,   81802,  -15097,   61018,   81968,  -15173,   60294,   81831,  -14939,   62064,   81733,  -14937,   62257,   82177,  -14861,   61403,   81942,  -14903,   62186,   81405,  -15239,   62351,   82489,  -14858,   60587
        31,          1500,   84436,    4178,  -88617,   99994,  -58853,  -35615,    4366,  -19382,   18489,   81878,  -13069,   60037,   82046,  -13150,   59311,   81899,  -12903,   61104,   81800,  -12901,   61300,   82237,  -12821,   60431,   82006,  -12865,   61228,   81489,  -13219,   61401,   82547,  -12818,   59601
        32,          1550,   83412,    6061,  -89475,   99999,  -57236,  -37239,    4366,  -19382,   18489,   81965,  -11094,   59072,   82134,  -11178,   58345,   81977,  -10919,   60158,   81877,  -10917,   60357,   82309,  -10833,   59474,   82081,  -10879,   60285,   81583,  -11250,   60465,   82617,  -10829,   58630
        33,          1600,   82357,    7941,  -90301,   99981,  -55606,  -38856,    4366,  -19382,   18489,   82061,   -9169,   58122,   82232,   -9257,   57393,   82066,   -8986,   59226,   81964,   -8983,   59429,   82391,   -8895,   58531,   82167,   -8944,   59355,   81686,   -9333,   59545,   82698,   -8892,   57673
        34,          1650,   81273,    9819,  -91095,   99939,  -53964,  -40461,    4366,  -19382,   18489,   82167,   -7294,   57186,   82339,   -7386,   56457,   82164,   -7103,   58307,   82062,   -7100,   58513,   82483,   -7008,   57601,   82262,   -7059,   58438,   81799,   -7465,   58638,   82788,   -7004,   56729
        35,          1700,   80161,   11693,  -91856,   99872,  -52309,  -42056,    4366,  -19382,   18489,   82282,   -5468,   56263,   82455,   -5563,   55534,   82273,   -5269,   57401,   82170,   -5265,   57611,   82586,   -5169,   56684,   82368,   -5222,   57534,   81921,   -5646,   57745,   82889,   -5165,   55798
        36,          1750,   79019,   13563,  -92585,   99782,  -50641,  -43642,    4366,  -19382,   18489,   82406,   -3690,   55353,   82581,   -3788,   54624,   82392,   -3483,   56507,   82287,   -3478,   56720,   82698,   -3378,   55779,   82483,   -3433,   56642,   82052,   -3875,   56865,   82999,   -3373,   54880
        37,          1800,   77850,   15428,  -93280,   99668,  -48961,  -45217,    4366,  -19382,   18489,   82540,   -1959,   54455,   82714,   -2060,   53727,   82519,   -1743,   55624,   82413,   -1738,   55841,   82820,   -1634,   54886,   82608,   -1692,   55761,   82191,   -2150,   55996,   83119,   -1629,   53973
        38,          1850,   76653,   17287,  -93943,   99529,  -47270,  -46780,    4366,  -19382,   18489,   82681,    -273,   53569,   82857,    -378,   52842,   82656,     -49,   54753,   82549,     -44,   54973,   82951,      65,   54004,   82742,       4,   54892,   82339,    -471,   55140,   83247,      70,   53078
        39,          1900,   75429,   19141,  -94572,   99364,  -45567,  -48331,    4366,  -19382,   18489,   82831,    1368,   52694,   83007,    1260,   51969,   82802,    1599,   53892,   82694,    1605,   54115,   83090,    1718,   53132,   82885,    1655,   54032,   82495,    1162,   54294,   83385,    1724,   52193
        40,          1950,   74178,   20987,  -95168,   99175,  -43852,  -49870,    4366,  -19382,   18489,   82990,    2964,   51829,   83165,    2853,   51106,   82956,    3204,   53040,   82846,    3210,   53268,   83239,    3327,   52270,   83036,    3262,   53182,   82658,    2752,   53459,   83530,    3334,   51319
        41,          2000,   72901,   22826,  -95730,   98960,  -42127,  -51396,    4366,  -19382,   18489,   83155,    4518,   50975,   83330,    4404,   50254,   83118,    4765,   52199,   83008,    4772,   52430,   83395,    4893,   51418,   83196,    4825,   52342,   82830,    4299,   52634,   83685,    4900,   50454
        42,          2050,   71598,   24657,  -96258,   98720,  -40391,  -52908,    4366,  -19382,   18489,   83329,    6029,   50130,   83503,    5912,   49412,   83288,    6284,   51366,   83176,    6291,   51601,   83559,    6417,   50575,   83363,    6347,   51511,   83008,    5804,   51819,   83846,    6425,   49598
        43,          2100,   70269,   26480,  -96752,   98453,  -38645,  -54405,    4366,  -19382,   18489,   83509,    7500,   49294,   83683,    7380,   48579,   83465,    7762,   50542,   83353,    7769,   50781,   83731,    7899,   49740,   83538,    7827,   50688,   83193,    7267,   51013,   84016,    7908,   48751
        44,          2150,   68916,   28293,  -97211,   98160,  -36889,  -55888,    4366,  -19382,   18489,   83696,    8930,   48467,   83870,    8807,   47755,   83650,    9199,   49727,   83536,    9207,   49969,   83911,    9341,   48914,   83720,    9266,   49874,   83386,    8691,   50215,   84193,    9350,   47913
        45,          2200,   67538,   30095,  -97636,   97841,  -35123,  -57356,    4366,  -19382,   18489,   83890,   10320,   47648,   84063,   10195,   46939,   83841,   10596,   48919,   83727,   10605,   49164,   84097,   10743,   48096,   83909,   10666,   49067,   83584,   10074,   49425,   84376,   10753,   47083
        46,          2250,   66136,   31887,  -98026,   97495,  -33348,  -58808,    4366,  -19382,   18489,   84090,   11671,   46837,   84262,   11544,   46132,   84039,   11955,   48118,   83924,   11964,   48368,   84290,   12106,   47285,   84105,   12027,   48268,   83789,   11420,   48644,   84567,   12117,   46260
        47,          2300,   64710,   33668,  -98381,   97123,  -31564,  -60243,    4366,  -19382,   18489,   84296,   12985,   46034,   84467,   12855,   45332,   84244,   13275,   47325,   84128,   13285,   47578,   84490,   13432,   46481,   84307,   13350,   47475,   83999,   12727,   47869,   84763,   13443,   45445
        48,          2350,   63262,   35437,  -98701,   96723,  -29772,  -61662,    4366,  -19382,   18489,   84508,   14262,   45238,   84678,   14129,   44540,   84454,   14559,   46538,   84337,   14569,   46796,   84695,   14720,   45685,   84515,   14635,   46689,   84215,   13997,   47102,   84966,   14732,   44636
        49,          2400,   61791,   37193,  -98986,   96297,  -27972,  -63063,    4366,  -19382,   18489,   84725,   15502,   44448,   84894,   15368,   43754,   84670,   15806,   45758,   84553,   15817,   46019,   84906,   15971,   44894,   84729,   15884,   45910,   84437,   15231,   46342,   85174,   15985,   43834
        50,          2450,   60298,   38936,  -99236,   95843,  -26164,  -64446,    4366,  -19382,   18489,   84948,   16707,   43665,   85115,   16570,   42975,   84892,   17017,   44984,   84773,   17028,   45249,   85123,   17187,   44110,   84948,   17098,   45137,   84663,   16430,   45587,   85388,   17202,   43039
