GTPPLOT creates from lv_network_l2c3b2f1.pl4,999,1999                           
33,33A, 0D
  1,SBUS A          V-node,A, , V,  1.97167205810547, -.15625         , 0.0,-99999, 99999,1.0,1.0,P
  2,SBUS B          V-node,B, , V,  1.97166359424591, -.1171875       , 0.0,-99999, 99999,1.0,1.0,P
  3,SBUS C          V-node,C, , V,  1.97164511680603, -.2109375       , 0.0,-99999, 99999,1.0,1.0,P
  4,SBUS A 1    A I-branch,A, , A,  .032848231494427, -116.42846679688, 0.0,-99999, 99999,1.0,1.0,P
  5,SBUS B 1    B I-branch,B, , A,  .04115879535675 , 933.260620117188, 0.0,-99999, 99999,1.0,1.0,P
  6,SBUS C 1    C I-branch,C, , A,  .04074801877141 , -902.0380859375 , 0.0,-99999, 99999,1.0,1.0,P
  7,FAULTA        I-branch,A, , A,  .546012759208679, -2030.203125    , 0.0,-99999, 99999,1.0,1.0,P
  8,FAULTB        I-branch,B, , A,  .684046745300293, 16092.8671875   , 0.0,-99999, 99999,1.0,1.0,P
  9,FAULTC        I-branch,C, , A,  .677338540554047, -15614.0546875  , 0.0,-99999, 99999,1.0,1.0,P
 10,TACS   PV001V I-branch,S, , A,  .00259817764163 , 259.815155029297, 0.0,-99999, 99999,1.0,1.0,P
 11,TACS   PV001I I-branch,S, , A,  .007317073177546, 731.700012207031, 0.0,-99999, 99999,1.0,1.0,P
 12,TACS   PV001W I-branch,S, , A,  .105218030512E-3, 366.552459716797, 0.0,-99999, 99999,1.0,1.0,P
 13,TACS   PV002V I-branch,S, , A,  .002599334111437, 259.930816650391, 0.0,-99999, 99999,1.0,1.0,P
 14,TACS   PV002I I-branch,S, , A,  .007317073177546, 731.700012207031, 0.0,-99999, 99999,1.0,1.0,P
 15,TACS   PV002W I-branch,S, , A,  .103464932181E-3, 366.724060058594, 0.0,-99999, 99999,1.0,1.0,P
 16,TACS   PV003V I-branch,S, , A,  .0025901037734  , 259.007781982422, 0.0,-99999, 99999,1.0,1.0,P
 17,TACS   PV003I I-branch,S, , A,  .007317073177546, 731.700012207031, 0.0,-99999, 99999,1.0,1.0,P
 18,TACS   PV003W I-branch,S, , A,  .126002239995E-3, 364.527496337891, 0.0,-99999, 99999,1.0,1.0,P
 19,TACS   PV004V I-branch,S, , A,  .00259124301374 , 259.121704101563, 0.0,-99999, 99999,1.0,1.0,P
 20,TACS   PV004I I-branch,S, , A,  .007317073177546, 731.700012207031, 0.0,-99999, 99999,1.0,1.0,P
 21,TACS   PV004W I-branch,S, , A,  .106188956124E-3, 366.425537109375, 0.0,-99999, 99999,1.0,1.0,P
 22,TACS   PV005V I-branch,S, , A,  .002581292297691, 258.126647949219, 0.0,-99999, 99999,1.0,1.0,P
 23,TACS   PV005I I-branch,S, , A,  .007317073177546, 731.700012207031, 0.0,-99999, 99999,1.0,1.0,P
 24,TACS   PV005W I-branch,S, , A,  .126376384287E-3, 364.528350830078, 0.0,-99999, 99999,1.0,1.0,P
 25,TACS   PV006V I-branch,S, , A,  .002586631802842, 258.660583496094, 0.0,-99999, 99999,1.0,1.0,P
 26,TACS   PV006I I-branch,S, , A,  .007317073177546, 731.700012207031, 0.0,-99999, 99999,1.0,1.0,P
 27,TACS   PV006W I-branch,S, , A,  .106457824586E-3, 366.401245117188, 0.0,-99999, 99999,1.0,1.0,P
 28,TACS   PV007V I-branch,S, , A,  .002610500436276, 261.047424316406, 0.0,-99999, 99999,1.0,1.0,P
 29,TACS   PV007I I-branch,S, , A,  .007317073177546, 731.700012207031, 0.0,-99999, 99999,1.0,1.0,P
 30,TACS   PV007W I-branch,S, , A,  .102353929833E-3, 366.804809570313, 0.0,-99999, 99999,1.0,1.0,P
 31,TACS   PV008V I-branch,S, , A,  .002576718805358, 257.669311523438, 0.0,-99999, 99999,1.0,1.0,P
 32,TACS   PV008I I-branch,S, , A,  .007317073177546, 731.700012207031, 0.0,-99999, 99999,1.0,1.0,P
 33,TACS   PV008W I-branch,S, , A,  .107610481791E-3, 366.346740722656, 0.0,-99999, 99999,1.0,1.0,P
 50
1
     20000,  12001
10/10/2022,21:57:14.000000
10/10/2022,21:57:14.000000
ASCII 
    1.000000
         1,             0,   99997,  -50009,  -49991,    6181,  -25107,   22467,    3718,  -23526,   23052,  -99999,  -99999,   99209,  -99999,  -99999,   99231,  -99999,  -99999,   98915,  -99999,  -99999,   99497,  -99999,  -99999,   98616,  -99999,  -99999,   99474,  -99999,  -99999,   99520,  -99999,  -99999,   98915
         2,            50,   99980,  -48368,  -51614,    6215,  -25082,   22414,    3718,  -23526,   23052,   84745,  -97970,   99209,   84663,  -97970,   99231,   85321,  -97970,   98915,   85240,  -97970,   99497,   85954,  -97970,   98616,   85570,  -97970,   99474,   83873,  -97970,   99520,   86284,  -97970,   98915
         3,           100,   99927,  -46710,  -53220,    6248,  -25057,   22362,    3718,  -23526,   23052,   84589,  -93960,   97680,   84507,  -93960,   97684,   85157,  -93959,   97645,   85079,  -93960,   97985,   85783,  -93959,   97343,   85406,  -93959,   97970,   83730,  -93960,   97968,   86110,  -93959,   97416
         4,           150,   99840,  -45035,  -54807,    6276,  -25030,   22313,    3718,  -23526,   23052,   84269,  -90043,   94668,   84192,  -90043,   94635,   84818,  -90042,   95143,   84745,  -90043,   95004,   85429,  -90042,   94835,   85064,  -90042,   95006,   83444,  -90044,   94910,   85751,  -90042,   94463
         5,           200,   99717,  -43344,  -56376,    6296,  -25003,   22269,    3718,  -23526,   23052,   83953,  -86216,   91736,   83892,  -86216,   91665,   84474,  -86215,   92708,   84404,  -86215,   92103,   85070,  -86214,   92394,   84717,  -86214,   92122,   83171,  -86218,   91933,   85388,  -86213,   91588
         6,           250,   99558,  -41637,  -57923,    6311,  -24975,   22228,    3718,  -23526,   23052,   83677,  -82477,   88873,   83636,  -82478,   88764,   84166,  -82474,   90331,   84097,  -82475,   89271,   84745,  -82472,   90010,   84402,  -82474,   89305,   82932,  -82481,   89029,   85062,  -82472,   88779
         7,           300,   99363,  -39916,  -59449,    6325,  -24946,   22188,    3718,  -23526,   23052,   83429,  -78824,   86077,   83407,  -78826,   85934,   83886,  -78819,   88008,   83816,  -78820,   86504,   84449,  -78816,   87681,   84114,  -78819,   86554,   82711,  -78832,   86198,   84766,  -78815,   86035
         8,           350,   99133,  -38181,  -60954,    6340,  -24917,   22147,    3718,  -23526,   23052,   83202,  -75256,   83346,   83196,  -75260,   83173,   83628,  -75249,   85741,   83557,  -75250,   83803,   84177,  -75244,   85406,   83849,  -75248,   83867,   82507,  -75267,   83436,   84493,  -75243,   83353
         9,           400,   98868,  -36432,  -62438,    6354,  -24888,   22106,    3718,  -23526,   23052,   82991,  -71772,   80680,   83001,  -71777,   80480,   83388,  -71761,   83527,   83316,  -71762,   81165,   83924,  -71755,   83183,   83602,  -71759,   81243,   82317,  -71787,   80743,   84241,  -71753,   80733
        10,           450,   98567,  -34670,  -63899,    6364,  -24858,   22068,    3718,  -23526,   23052,   82796,  -68369,   78078,   82820,  -68376,   77852,   83165,  -68354,   81365,   83092,  -68355,   78590,   83690,  -68346,   81013,   83372,  -68352,   78680,   82142,  -68388,   78115,   84008,  -68344,   78174
        11,           500,   98231,  -32896,  -65337,    6376,  -24828,   22028,    3718,  -23526,   23052,   82618,  -65046,   75537,   82655,  -65056,   75288,   82960,  -65026,   79254,   82885,  -65028,   76074,   83473,  -65016,   78892,   83161,  -65023,   76176,   81983,  -65069,   75550,   83792,  -65014,   75673
        12,           550,   97860,  -31110,  -66753,    6387,  -24797,   21988,    3718,  -23526,   23052,   82455,  -61801,   73055,   82505,  -61813,   72784,   82772,  -61777,   77191,   82696,  -61778,   73615,   83274,  -61764,   76820,   82966,  -61772,   73729,   81838,  -61829,   73047,   83593,  -61762,   73229
        13,           600,   97455,  -29313,  -68144,    6398,  -24766,   21948,    3718,  -23526,   23052,   82306,  -58633,   70631,   82368,  -58648,   70341,   82600,  -58603,   75175,   82522,  -58605,   71213,   83090,  -58588,   74795,   82788,  -58598,   71337,   81707,  -58665,   70604,   83410,  -58586,   70840
        14,           650,   97016,  -27506,  -69512,    6408,  -24735,   21909,    3718,  -23526,   23052,   82172,  -55539,   68262,   82244,  -55557,   67955,   82442,  -55504,   73205,   82363,  -55506,   68864,   82923,  -55486,   72814,   82624,  -55497,   68999,   81588,  -55577,   68218,   83243,  -55484,   68504
        15,           700,   96541,  -25689,  -70854,    6417,  -24703,   21869,    3718,  -23526,   23052,   82052,  -52519,   65947,   82134,  -52541,   65623,   82300,  -52478,   71278,   82220,  -52480,   66568,   82771,  -52457,   70878,   82477,  -52470,   66712,   81484,  -52563,   65886,   83092,  -52455,   66219
        16,           750,   96032,  -23863,  -72172,    6426,  -24671,   21829,    3718,  -23526,   23052,   81946,  -49572,   63683,   82038,  -49596,   63345,   82174,  -49524,   69393,   82092,  -49525,   64321,   82634,  -49500,   68982,   82345,  -49515,   64475,   81394,  -49621,   63608,   82956,  -49498,   63983
        17,           800,   95489,  -22028,  -73464,    6435,  -24639,   21789,    3718,  -23526,   23052,   81854,  -46694,   61469,   81955,  -46722,   61118,   82062,  -46640,   67549,   81979,  -46641,   62122,   82513,  -46613,   67128,   82228,  -46629,   62285,   81316,  -46750,   61381,   82834,  -46611,   61795
        18,           850,   94913,  -20186,  -74729,    6443,  -24606,   21749,    3718,  -23526,   23052,   81775,  -43886,   59303,   81884,  -43918,   58941,   81964,  -43825,   65744,   81880,  -43826,   59970,   82406,  -43794,   65312,   82125,  -43812,   60141,   81251,  -43948,   59203,   82727,  -43793,   59653
        19,           900,   94302,  -18336,  -75969,    6450,  -24572,   21710,    3718,  -23526,   23052,   81710,  -41146,   57182,   81826,  -41181,   56811,   81881,  -41077,   63977,   81796,  -41078,   57862,   82313,  -41043,   63534,   82037,  -41063,   58042,   81199,  -41213,   57073,   82635,  -41041,   57554
        20,           950,   93658,  -16480,  -77181,    6457,  -24539,   21670,    3718,  -23526,   23052,   81658,  -38472,   55105,   81781,  -38511,   54727,   81812,  -38396,   62246,   81725,  -38397,   55798,   82235,  -38358,   61792,   81963,  -38380,   55984,   81159,  -38546,   54988,   82556,  -38356,   55498
        21,          1000,   92981,  -14618,  -78366,    6464,  -24505,   21630,    3718,  -23526,   23052,   81618,  -35863,   53072,   81748,  -35905,   52686,   81756,  -35779,   60549,   81669,  -35780,   53774,   82171,  -35738,   60084,   81903,  -35761,   53967,   81132,  -35943,   52947,   82492,  -35736,   53482
        22,          1050,   92270,  -12750,  -79523,    6470,  -24470,   21591,    3718,  -23526,   23052,   81591,  -33317,   51078,   81726,  -33364,   50688,   81714,  -33225,   58886,   81625,  -33226,   51790,   82121,  -33181,   58409,   81856,  -33206,   51990,   81117,  -33404,   50949,   82441,  -33179,   51506
        23,          1100,   91527,  -10879,  -80651,    6475,  -24436,   21551,    3718,  -23526,   23052,   81577,  -30834,   49124,   81717,  -30884,   48731,   81685,  -30734,   57255,   81595,  -30735,   49844,   82083,  -30686,   56766,   81823,  -30713,   50050,   81113,  -30928,   48991,   82403,  -30684,   49567
        24,          1150,   90752,   -9003,  -81751,    6480,  -24400,   21512,    3718,  -23526,   23052,   81574,  -28412,   47208,   81720,  -28466,   46812,   81669,  -28304,   55654,   81578,  -28305,   47934,   82059,  -28252,   55153,   81803,  -28281,   48147,   81122,  -28513,   47071,   82378,  -28250,   47663
        25,          1200,   89944,   -7124,  -82822,    6485,  -24365,   21472,    3718,  -23526,   23052,   81584,  -26050,   45328,   81734,  -26108,   44930,   81666,  -25934,   54082,   81574,  -25934,   46060,   82048,  -25878,   53570,   81796,  -25909,   46277,   81142,  -26158,   45189,   82366,  -25876,   45795
        26,          1250,   89104,   -5243,  -83864,    6489,  -24329,   21433,    3718,  -23526,   23052,   81605,  -23747,   43482,   81759,  -23808,   43085,   81675,  -23622,   52539,   81582,  -23622,   44219,   82050,  -23562,   52015,   81801,  -23595,   44441,   81172,  -23861,   43343,   82367,  -23560,   43959
        27,          1300,   88233,   -3360,  -84875,    6492,  -24293,   21394,    3718,  -23526,   23052,   81638,  -21501,   41669,   81795,  -21566,   41273,   81697,  -21368,   51023,   81602,  -21368,   42409,   82064,  -21303,   50487,   81819,  -21339,   42637,   81215,  -21622,   41530,   82380,  -21301,   42155
        28,          1350,   87330,   -1475,  -85857,    6494,  -24256,   21355,    3718,  -23526,   23052,   81682,  -19311,   39889,   81842,  -19381,   39495,   81730,  -19170,   49533,   81634,  -19169,   40631,   82090,  -19101,   48985,   81848,  -19139,   40862,   81268,  -19440,   39751,   82404,  -19099,   40382
        29,          1400,   86396,     410,  -86808,    6496,  -24220,   21316,    3718,  -23526,   23052,   81737,  -17177,   38138,   81900,  -17250,   37748,   81775,  -17028,   48067,   81678,  -17026,   38882,   82128,  -16954,   47507,   81890,  -16994,   39117,   81331,  -17312,   38003,   82441,  -16952,   38637
        30,          1450,   85431,    2295,  -87728,    6498,  -24182,   21278,    3718,  -23526,   23052,   81802,  -15097,   36417,   81968,  -15173,   36031,   81831,  -14939,   46625,   81733,  -14937,   37161,   82177,  -14861,   46053,   81942,  -14903,   37400,   81405,  -15239,   36285,   82489,  -14858,   36920
        31,          1500,   84436,    4178,  -88617,    6499,  -24145,   21239,    3718,  -23526,   23052,   81878,  -13069,   34723,   82046,  -13150,   34343,   81899,  -12903,   45205,   81800,  -12901,   35468,   82237,  -12821,   44621,   82006,  -12865,   35709,   81489,  -13219,   34595,   82547,  -12818,   35230
        32,          1550,   83412,    6061,  -89475,    6499,  -24107,   21201,    3718,  -23526,   23052,   81965,  -11094,   33056,   82134,  -11178,   32682,   81977,  -10919,   43808,   81877,  -10917,   33800,   82309,  -10833,   43211,   82081,  -10879,   34044,   81583,  -11250,   32933,   82617,  -10829,   33565
        33,          1600,   82357,    7941,  -90301,    6498,  -24069,   21163,    3718,  -23526,   23052,   82061,   -9169,   31414,   82232,   -9257,   31047,   82066,   -8986,   42430,   81964,   -8983,   32156,   82391,   -8895,   41821,   82167,   -8944,   32403,   81686,   -9333,   31297,   82698,   -8892,   31925
        34,          1650,   81273,    9819,  -91095,    6497,  -24031,   21125,    3718,  -23526,   23052,   82167,   -7294,   29797,   82339,   -7386,   29437,   82164,   -7103,   41073,   82062,   -7100,   30536,   82483,   -7008,   40451,   82262,   -7059,   30785,   81799,   -7465,   29686,   82788,   -7004,   30307
        35,          1700,   80161,   11693,  -91856,    6495,  -23992,   21087,    3718,  -23526,   23052,   82282,   -5468,   28203,   82455,   -5563,   27852,   82273,   -5269,   39734,   82170,   -5265,   28939,   82586,   -5169,   39100,   82368,   -5222,   29189,   81921,   -5646,   28099,   82889,   -5165,   28712
        36,          1750,   79019,   13563,  -92585,    6493,  -23953,   21050,    3718,  -23526,   23052,   82406,   -3690,   26631,   82581,   -3788,   26289,   82392,   -3483,   38412,   82287,   -3478,   27363,   82698,   -3378,   37767,   82483,   -3433,   27615,   82052,   -3875,   26535,   82999,   -3373,   27138
        37,          1800,   77850,   15428,  -93280,    6490,  -23914,   21013,    3718,  -23526,   23052,   82540,   -1959,   25080,   82714,   -2060,   24748,   82519,   -1743,   37108,   82413,   -1738,   25807,   82820,   -1634,   36450,   82608,   -1692,   26060,   82191,   -2150,   24992,   83119,   -1629,   25584
        38,          1850,   76653,   17287,  -93943,    6486,  -23874,   20976,    3718,  -23526,   23052,   82681,    -273,   23549,   82857,    -378,   23227,   82656,     -49,   35821,   82549,     -44,   24271,   82951,      65,   35150,   82742,       4,   24525,   82339,    -471,   23470,   83247,      70,   24049
        39,          1900,   75429,   19141,  -94572,    6481,  -23834,   20939,    3718,  -23526,   23052,   82831,    1368,   22037,   83007,    1260,   21727,   82802,    1599,   34548,   82694,    1605,   22753,   83090,    1718,   33865,   82885,    1655,   23008,   82495,    1162,   21967,   83385,    1724,   22533
        40,          1950,   74178,   20987,  -95168,    6476,  -23794,   20903,    3718,  -23526,   23052,   82990,    2964,   20543,   83165,    2853,   20245,   82956,    3204,   33291,   82846,    3210,   21253,   83239,    3327,   32596,   83036,    3262,   21508,   82658,    2752,   20484,   83530,    3334,   21033
        41,          2000,   72901,   22826,  -95730,    6470,  -23754,   20867,    3718,  -23526,   23052,   83155,    4518,   19067,   83330,    4404,   18780,   83118,    4765,   32047,   83008,    4772,   19770,   83395,    4893,   31340,   83196,    4825,   20025,   82830,    4299,   19018,   83685,    4900,   19551
        42,          2050,   71598,   24657,  -96258,    6463,  -23713,   20832,    3718,  -23526,   23052,   83329,    6029,   17608,   83503,    5912,   17333,   83288,    6284,   30817,   83176,    6291,   18303,   83559,    6417,   30098,   83363,    6347,   18558,   83008,    5804,   17569,   83846,    6425,   18084
        43,          2100,   70269,   26480,  -96752,    6456,  -23672,   20796,    3718,  -23526,   23052,   83509,    7500,   16164,   83683,    7380,   15902,   83465,    7762,   29600,   83353,    7769,   16851,   83731,    7899,   28868,   83538,    7827,   17105,   83193,    7267,   16136,   84016,    7908,   16633
        44,          2150,   68916,   28293,  -97211,    6448,  -23631,   20761,    3718,  -23526,   23052,   83696,    8930,   14735,   83870,    8807,   14487,   83650,    9199,   28394,   83536,    9207,   15414,   83911,    9341,   27651,   83720,    9266,   15668,   83386,    8691,   14719,   84193,    9350,   15196
        45,          2200,   67538,   30095,  -97636,    6439,  -23590,   20727,    3718,  -23526,   23052,   83890,   10320,   13320,   84063,   10195,   13085,   83841,   10596,   27200,   83727,   10605,   13991,   84097,   10743,   26445,   83909,   10666,   14244,   83584,   10074,   13316,   84376,   10753,   13773
        46,          2250,   66136,   31887,  -98026,    6430,  -23549,   20692,    3718,  -23526,   23052,   84090,   11671,   11919,   84262,   11544,   11698,   84039,   11955,   26018,   83924,   11964,   12581,   84290,   12106,   25250,   84105,   12027,   12833,   83789,   11420,   11926,   84567,   12117,   12363
        47,          2300,   64710,   33668,  -98381,    6419,  -23507,   20659,    3718,  -23526,   23052,   84296,   12985,   10531,   84467,   12855,   10324,   84244,   13275,   24845,   84128,   13285,   11184,   84490,   13432,   24066,   84307,   13350,   11434,   83999,   12727,   10550,   84763,   13443,   10965
        48,          2350,   63262,   35437,  -98701,    6408,  -23465,   20625,    3718,  -23526,   23052,   84508,   14262,    9156,   84678,   14129,    8962,   84454,   14559,   23683,   84337,   14569,    9799,   84695,   14720,   22892,   84515,   14635,   10047,   84215,   13997,    9187,   84966,   14732,    9579
        49,          2400,   61791,   37193,  -98986,    6397,  -23423,   20592,    3718,  -23526,   23052,   84725,   15502,    7791,   84894,   15368,    7613,   84670,   15806,   22530,   84553,   15817,    8425,   84906,   15971,   21727,   84729,   15884,    8672,   84437,   15231,    7835,   85174,   15985,    8204
        50,          2450,   60298,   38936,  -99236,    6384,  -23381,   20560,    3718,  -23526,   23052,   84948,   16707,    6439,   85115,   16570,    6274,   84892,   17017,   21386,   84773,   17028,    7063,   85123,   17187,   20572,   84948,   17098,    7307,   84663,   16430,    6495,   85388,   17202,    6841
