GTPPLOT creates from lv_network_l1c1b1f2.pl4,999,1999                           
33,33A, 0D
  1,SBUS A          V-node,A, , V,  1.97175288200378, -.09375         , 0.0,-99999, 99999,1.0,1.0,P
  2,SBUS B          V-node,B, , V,  1.97174656391144, -.0703125       , 0.0,-99999, 99999,1.0,1.0,P
  3,SBUS C          V-node,C, , V,  2.02264142036438, 28.21875        , 0.0,-99999, 99999,1.0,1.0,P
  4,SBUS A 1    A I-branch,A, , A,  .519453373272E-3, 3.81668090820313, 0.0,-99999, 99999,1.0,1.0,P
  5,SBUS B 1    B I-branch,B, , A,  .549924443476E-3, -2.1623287200928, 0.0,-99999, 99999,1.0,1.0,P
  6,SBUS C 1    C I-branch,C, , A,  .551061530132E-3, -1.3712368011475, 0.0,-99999, 99999,1.0,1.0,P
  7,FAULTA        I-branch,A, , A,  6.20563220977783, -26781.59375    , 0.0,-99999, 99999,1.0,1.0,P
  8,FAULTB        I-branch,B, , A,  0.0             , 0.0             , 0.0,-99999, 99999,1.0,1.0,P
  9,FAULTC        I-branch,C, , A,  0.0             , 0.0             , 0.0,-99999, 99999,1.0,1.0,P
 10,TACS   PV001V I-branch,S, , A,  .002616245299578, 261.621917724609, 0.0,-99999, 99999,1.0,1.0,P
 11,TACS   PV001I I-branch,S, , A,  .004696568474174, 469.652160644531, 0.0,-99999, 99999,1.0,1.0,P
 12,TACS   PV001W I-branch,S, , A,  .116796822113E-3, 368.070190429688, 0.0,-99999, 99999,1.0,1.0,P
 13,TACS   PV002V I-branch,S, , A,  .002616916084662, 261.688995361328, 0.0,-99999, 99999,1.0,1.0,P
 14,TACS   PV002I I-branch,S, , A,  .00469506951049 , 469.502258300781, 0.0,-99999, 99999,1.0,1.0,P
 15,TACS   PV002W I-branch,S, , A,  .116011295177E-3, 368.193786621094, 0.0,-99999, 99999,1.0,1.0,P
 16,TACS   PV003V I-branch,S, , A,  .002611531643197, 261.150543212891, 0.0,-99999, 99999,1.0,1.0,P
 17,TACS   PV003I I-branch,S, , A,  .004708413500339, 470.836639404297, 0.0,-99999, 99999,1.0,1.0,P
 18,TACS   PV003W I-branch,S, , A,  .117203016998E-3, 367.992004394531, 0.0,-99999, 99999,1.0,1.0,P
 19,TACS   PV004V I-branch,S, , A,  .002612216863781, 261.219085693359, 0.0,-99999, 99999,1.0,1.0,P
 20,TACS   PV004I I-branch,S, , A,  .004707523621619, 470.747650146484, 0.0,-99999, 99999,1.0,1.0,P
 21,TACS   PV004W I-branch,S, , A,  .117267714813E-3, 367.982849121094, 0.0,-99999, 99999,1.0,1.0,P
 22,TACS   PV005V I-branch,S, , A,  .002606407972053, 260.63818359375 , 0.0,-99999, 99999,1.0,1.0,P
 23,TACS   PV005I I-branch,S, , A,  .004720287863165, 472.024047851563, 0.0,-99999, 99999,1.0,1.0,P
 24,TACS   PV005W I-branch,S, , A,  .117779803986E-3, 367.942840576172, 0.0,-99999, 99999,1.0,1.0,P
 25,TACS   PV006V I-branch,S, , A,  .002609509974718, 260.948394775391, 0.0,-99999, 99999,1.0,1.0,P
 26,TACS   PV006I I-branch,S, , A,  .004713024012744, 471.297668457031, 0.0,-99999, 99999,1.0,1.0,P
 27,TACS   PV006W I-branch,S, , A,  .117402450996E-3, 367.966735839844, 0.0,-99999, 99999,1.0,1.0,P
 28,TACS   PV007V I-branch,S, , A,  .00262340856716 , 262.338226318359, 0.0,-99999, 99999,1.0,1.0,P
 29,TACS   PV007I I-branch,S, , A,  .004680390004069, 468.034332275391, 0.0,-99999, 99999,1.0,1.0,P
 30,TACS   PV007W I-branch,S, , A,  .115277493023E-3, 368.226318359375, 0.0,-99999, 99999,1.0,1.0,P
 31,TACS   PV008V I-branch,S, , A,  .002603726228699, 260.370025634766, 0.0,-99999, 99999,1.0,1.0,P
 32,TACS   PV008I I-branch,S, , A,  .004725897219032, 472.584991455078, 0.0,-99999, 99999,1.0,1.0,P
 33,TACS   PV008W I-branch,S, , A,  .118013267638E-3, 367.932952880859, 0.0,-99999, 99999,1.0,1.0,P
 50
1
     20000,  12001
10/10/2022,21:54:52.000000
10/10/2022,21:54:52.000000
ASCII 
    1.000000
         1,             0,   99998,  -50005,  -48750,   90144,  -99999,   14296,    4315,       0,       0,  -99999,  -99999,   76379,  -99999,  -99999,   75831,  -99999,  -99999,   76782,  -99999,  -99999,   76817,  -99999,  -99999,   76823,  -99999,  -99999,   76866,  -99999,  -99999,   76032,  -99999,  -99999,   76755
         2,            50,   99980,  -48364,  -50333,   91369,  -98885,   12028,    4315,       0,       0,   83470,  -98102,   76379,   83423,  -98102,   75831,   83801,  -98107,   76782,   83752,  -98107,   76817,   84162,  -98112,   76823,   83943,  -98109,   76866,   82969,  -98096,   76032,   84352,  -98114,   76755
         3,           100,   99927,  -46706,  -51898,   92512,  -97734,    9801,    4315,       0,       0,   83335,  -94354,   75020,   83288,  -94352,   74467,   83662,  -94368,   75432,   83615,  -94367,   75465,   84019,  -94382,   75476,   83804,  -94373,   75518,   82841,  -94334,   74666,   84207,  -94389,   75407
         4,           150,   99840,  -45031,  -53445,   93415,  -96546,    7765,    4315,       0,       0,   83057,  -90693,   72344,   83014,  -90690,   71780,   83372,  -90716,   72773,   83328,  -90715,   72802,   83721,  -90740,   72821,   83513,  -90726,   72862,   82583,  -90662,   71975,   83906,  -90751,   72754
         5,           200,   99717,  -43340,  -54974,   93950,  -95325,    6042,    4315,       0,       0,   82777,  -87117,   69741,   82744,  -87114,   69165,   83074,  -87149,   70187,   83031,  -87147,   70211,   83414,  -87181,   70239,   83211,  -87162,   70280,   82325,  -87074,   69357,   83598,  -87196,   70172
         6,           250,   99557,  -41634,  -56482,   94271,  -94080,    4498,    4315,       0,       0,   82527,  -83624,   67200,   82507,  -83620,   66614,   82805,  -83664,   67664,   82761,  -83661,   67684,   83136,  -83704,   67719,   82938,  -83680,   67759,   82092,  -83570,   66805,   83320,  -83723,   67652
         7,           300,   99362,  -39913,  -57969,   94649,  -92820,    2884,    4315,       0,       0,   82299,  -80213,   64720,   82289,  -80208,   64125,   82558,  -80260,   65201,   82513,  -80256,   65217,   82880,  -80308,   65259,   82686,  -80278,   65299,   81878,  -80148,   64316,   83065,  -80331,   65191
         8,           350,   99131,  -38177,  -59436,   95130,  -91552,    1164,    4315,       0,       0,   82087,  -76880,   62301,   82087,  -76875,   61698,   82328,  -76934,   62798,   82283,  -76930,   62809,   82644,  -76990,   62858,   82452,  -76956,   62898,   81678,  -76806,   61888,   82829,  -77017,   62789
         9,           400,   98866,  -36428,  -60882,   95569,  -90271,    -528,    4315,       0,       0,   81890,  -73626,   59940,   81898,  -73621,   59332,   82114,  -73686,   60452,   82068,  -73682,   60459,   82423,  -73749,   60515,   82234,  -73711,   60554,   81492,  -73542,   59521,   82609,  -73780,   60445
        10,           450,   98566,  -34666,  -62307,   95908,  -88970,   -2146,    4315,       0,       0,   81707,  -70448,   57637,   81723,  -70443,   57023,   81915,  -70514,   58164,   81868,  -70509,   58166,   82217,  -70584,   58228,   82031,  -70542,   58266,   81320,  -70356,   57211,   82404,  -70619,   58157
        11,           500,   98230,  -32892,  -63709,   96234,  -87647,   -3773,    4315,       0,       0,   81539,  -67345,   55388,   81564,  -67341,   54769,   81732,  -67417,   55928,   81684,  -67411,   55927,   82028,  -67493,   55994,   81845,  -67446,   56032,   81164,  -67244,   54956,   82215,  -67531,   55921
        12,           550,   97859,  -31106,  -65088,   96602,  -86308,   -5456,    4315,       0,       0,   81388,  -64316,   53192,   81420,  -64311,   52568,   81566,  -64392,   53745,   81517,  -64385,   53739,   81855,  -64475,   53811,   81675,  -64424,   53850,   81023,  -64206,   52755,   82043,  -64516,   53738
        13,           600,   97454,  -29309,  -66445,   96968,  -84957,   -7149,    4315,       0,       0,   81250,  -61358,   51046,   81289,  -61354,   50420,   81414,  -61438,   51612,   81365,  -61431,   51601,   81697,  -61527,   51678,   81519,  -61472,   51717,   80895,  -61240,   50606,   81886,  -61572,   51604
        14,           650,   97014,  -27502,  -67778,   97285,  -83592,   -8810,    4315,       0,       0,   81126,  -58470,   48950,   81171,  -58467,   48321,   81277,  -58554,   49527,   81227,  -58547,   49512,   81554,  -58649,   49594,   81379,  -58591,   49632,   80781,  -58345,   48506,   81743,  -58698,   49518
        15,           700,   96539,  -25685,  -69087,   97570,  -82207,  -10461,    4315,       0,       0,   81017,  -55651,   46901,   81068,  -55649,   46271,   81155,  -55739,   47489,   81104,  -55731,   47470,   81426,  -55840,   47556,   81253,  -55778,   47594,   80681,  -55519,   46455,   81615,  -55892,   47479
        16,           750,   96030,  -23859,  -70371,   97858,  -80804,  -12133,    4315,       0,       0,   80921,  -52899,   44898,   80978,  -52898,   44266,   81048,  -52991,   45496,   80996,  -52982,   45472,   81313,  -53097,   45563,   81143,  -53031,   45601,   80595,  -52761,   44450,   81502,  -53152,   45484
        17,           800,   95488,  -22024,  -71630,   98144,  -79387,  -13816,    4315,       0,       0,   80840,  -50214,   42938,   80901,  -50214,   42307,   80955,  -50309,   43546,   80902,  -50299,   43517,   81214,  -50419,   43612,   81046,  -50351,   43650,   80521,  -50070,   42489,   81404,  -50478,   43532
        18,           850,   94911,  -20182,  -72864,   98404,  -77958,  -15488,    4315,       0,       0,   80771,  -47593,   41021,   80838,  -47594,   40390,   80875,  -47691,   41637,   80821,  -47681,   41604,   81130,  -47806,   41703,   80964,  -47734,   41740,   80461,  -47443,   40572,   81319,  -47868,   41622
        19,           900,   94300,  -18332,  -74072,   98635,  -76511,  -17149,    4315,       0,       0,   80716,  -45036,   39145,   80787,  -45038,   38515,   80810,  -45136,   39769,   80755,  -45125,   39731,   81059,  -45256,   39834,   80896,  -45181,   39871,   80413,  -44880,   38695,   81248,  -45321,   39751
        20,           950,   93656,  -16476,  -75254,   98851,  -75048,  -18814,    4315,       0,       0,   80674,  -42540,   37307,   80749,  -42544,   36679,   80758,  -42642,   37939,   80702,  -42631,   37896,   81002,  -42767,   38003,   80841,  -42689,   38039,   80379,  -42379,   36859,   81191,  -42835,   37918
        21,          1000,   92979,  -14614,  -76409,   99058,  -73569,  -20485,    4315,       0,       0,   80644,  -40106,   35507,   80723,  -40111,   34882,   80719,  -40210,   36146,   80663,  -40198,   36099,   80958,  -40339,   36209,   80800,  -40258,   36245,   80357,  -39940,   35060,   81147,  -40410,   36123
        22,          1050,   92269,  -12747,  -77537,   99246,  -72077,  -22151,    4315,       0,       0,   80628,  -37731,   33743,   80710,  -37737,   33121,   80693,  -37837,   34388,   80637,  -37824,   34336,   80927,  -37970,   34450,   80771,  -37886,   34486,   80346,  -37560,   33298,   81116,  -38043,   34362
        23,          1100,   91525,  -10875,  -78637,   99409,  -70571,  -23808,    4315,       0,       0,   80623,  -35415,   32014,   80708,  -35422,   31395,   80680,  -35522,   32665,   80623,  -35509,   32608,   80910,  -35659,   32724,   80756,  -35573,   32760,   80348,  -35239,   31572,   81098,  -35735,   32635
        24,          1150,   90750,   -8999,  -79709,   99552,  -69049,  -25461,    4315,       0,       0,   80630,  -33156,   30318,   80719,  -33164,   29704,   80680,  -33264,   30974,   80622,  -33250,   30913,   80905,  -33404,   31032,   80753,  -33316,   31067,   80362,  -32976,   29879,   81093,  -33483,   30941
        25,          1200,   89942,   -7120,  -80753,   99679,  -67512,  -27114,    4315,       0,       0,   80650,  -30952,   28654,   80741,  -30963,   28045,   80692,  -31062,   29315,   80634,  -31048,   29249,   80912,  -31206,   29370,   80763,  -31115,   29405,   80388,  -30769,   28218,   81100,  -31287,   29278
        26,          1250,   89102,   -5239,  -81768,   99786,  -65962,  -28763,    4315,       0,       0,   80681,  -28804,   27021,   80774,  -28816,   26416,   80716,  -28915,   27685,   80657,  -28900,   27615,   80932,  -29062,   27738,   80785,  -28969,   27773,   80424,  -28617,   26589,   81119,  -29146,   27645
        27,          1300,   88231,   -3356,  -82755,   99871,  -64398,  -30403,    4315,       0,       0,   80723,  -26710,   25416,   80819,  -26723,   24818,   80752,  -26821,   26084,   80692,  -26805,   26010,   80964,  -26971,   26135,   80819,  -26876,   26170,   80472,  -26519,   24989,   81150,  -27058,   26040
        28,          1350,   87328,   -1472,  -83711,   99934,  -62820,  -32037,    4315,       0,       0,   80777,  -24668,   23840,   80874,  -24683,   23248,   80800,  -24780,   24511,   80739,  -24764,   24432,   81007,  -24933,   24559,   80864,  -24836,   24594,   80531,  -24474,   23418,   81192,  -25022,   24463
        29,          1400,   86394,     413,  -84639,   99977,  -61228,  -33666,    4315,       0,       0,   80841,  -22678,   22291,   80940,  -22695,   21706,   80858,  -22790,   22964,   80797,  -22774,   22880,   81061,  -22946,   23010,   80920,  -22847,   23044,   80601,  -22481,   21874,   81246,  -23038,   22912
        30,          1450,   85429,    2298,  -85536,   99998,  -59623,  -35288,    4315,       0,       0,   80916,  -20739,   20767,   81017,  -20757,   20189,   80928,  -20851,   21442,   80866,  -20834,   21354,   81127,  -21009,   21486,   80988,  -20908,   21519,   80680,  -20539,   20356,   81310,  -21103,   21386
        31,          1500,   84434,    4182,  -86402,   99998,  -58005,  -36902,    4315,       0,       0,   81002,  -18849,   19268,   81103,  -18868,   18698,   81008,  -18962,   19945,   80946,  -18944,   19853,   81203,  -19122,   19985,   81067,  -19020,   20018,   80770,  -18646,   18863,   81386,  -19218,   19884
        32,          1550,   83409,    6065,  -87238,   99974,  -56374,  -38508,    4315,       0,       0,   81097,  -17008,   17793,   81200,  -17029,   17230,   81099,  -17121,   18470,   81036,  -17102,   18374,   81290,  -17283,   18508,   81155,  -17179,   18540,   80870,  -16802,   17395,   81472,  -17382,   18405
        33,          1600,   82355,    7945,  -88043,   99928,  -54731,  -40105,    4315,       0,       0,   81202,  -15215,   16339,   81306,  -15237,   15786,   81200,  -15327,   17018,   81136,  -15308,   16917,   81387,  -15492,   17052,   81255,  -15386,   17084,   80980,  -15006,   15948,   81568,  -15592,   16948
        34,          1650,   81271,    9822,  -88817,   99859,  -53074,  -41693,    4315,       0,       0,   81317,  -13468,   14908,   81422,  -13491,   14363,   81311,  -13580,   15586,   81246,  -13560,   15482,   81495,  -13747,   15618,   81364,  -13639,   15649,   81099,  -13257,   14524,   81674,  -13849,   15512
        35,          1700,   80158,   11696,  -89559,   99768,  -51406,  -43271,    4315,       0,       0,   81441,  -11766,   13497,   81547,  -11791,   12961,   81432,  -11879,   14174,   81366,  -11858,   14066,   81612,  -12047,   14203,   81483,  -11938,   14234,   81227,  -11554,   13120,   81790,  -12151,   14096
        36,          1750,   79017,   13566,  -90269,   99652,  -49726,  -44838,    4315,       0,       0,   81575,  -10110,   12105,   81680,  -10136,   11578,   81562,  -10222,   12782,   81496,  -10201,   12670,   81738,  -10392,   12807,   81611,  -10282,   12838,   81364,   -9895,   11736,   81915,  -10498,   12699
        37,          1800,   77848,   15431,  -90948,   99512,  -48034,  -46395,    4315,       0,       0,   81717,   -8497,   10732,   81823,   -8525,   10215,   81701,   -8609,   11408,   81634,   -8587,   11292,   81873,   -8781,   11430,   81748,   -8669,   11460,   81510,   -8281,   10371,   82049,   -8888,   11320
        38,          1850,   76651,   17291,  -91594,   99348,  -46330,  -47940,    4315,       0,       0,   81867,   -6927,    9377,   81973,   -6956,    8870,   81848,   -7039,   10051,   81781,   -7016,    9932,   82018,   -7212,   10070,   81894,   -7099,   10100,   81664,   -6709,    9024,   82192,   -7321,    9959
        39,          1900,   75427,   19144,  -92207,   99159,  -44616,  -49474,    4315,       0,       0,   82026,   -5399,    8039,   82132,   -5430,    7542,   82004,   -5510,    8711,   81936,   -5487,    8588,   82171,   -5685,    8727,   82049,   -5571,    8756,   81826,   -5180,    7695,   82344,   -5796,    8614
        40,          1950,   74176,   20991,  -92788,   98946,  -42890,  -50994,    4315,       0,       0,   82193,   -3913,    6717,   82299,   -3944,    6230,   82169,   -4023,    7387,   82100,   -4000,    7260,   82332,   -4199,    7399,   82212,   -4084,    7428,   81996,   -3691,    6381,   82504,   -4311,    7285
        41,          2000,   72899,   22830,  -93335,   98708,  -41155,  -52502,    4315,       0,       0,   82367,   -2466,    5410,   82473,   -2499,    4934,   82341,   -2576,    6077,   82272,   -2552,    5947,   82501,   -2753,    6086,   82382,   -2637,    6115,   82174,   -2244,    5084,   82671,   -2867,    5971
        42,          2050,   71596,   24661,  -93850,   98444,  -39409,  -53996,    4315,       0,       0,   82549,   -1059,    4118,   82655,   -1093,    3652,   82521,   -1169,    4782,   82451,   -1144,    4649,   82677,   -1347,    4788,   82561,   -1230,    4816,   82358,    -835,    3800,   82846,   -1462,    4672
        43,          2100,   70267,   26483,  -94331,   98155,  -37653,  -55475,    4315,       0,       0,   82738,     309,    2840,   82843,     274,    2385,   82708,     200,    3501,   82638,     225,    3365,   82862,      21,    3503,   82746,     139,    3531,   82550,     534,    2532,   83029,     -95,    3386
        44,          2150,   68913,   28296,  -94779,   97840,  -35887,  -56940,    4315,       0,       0,   82933,    1640,    1575,   83039,    1603,    1131,   82902,    1531,    2233,   82831,    1557,    2093,   83053,    1351,    2232,   82939,    1470,    2259,   82749,    1866,    1276,   83219,    1234,    2113
        45,          2200,   67535,   30099,  -95193,   97499,  -34113,  -58390,    4315,       0,       0,   83135,    2933,     323,   83240,    2896,    -109,   83103,    2826,     977,   83032,    2852,     835,   83251,    2645,     972,   83139,    2764,     999,   82953,    3160,      34,   83415,    2526,     853
        46,          2250,   66133,   31891,  -95573,   97132,  -32329,  -59823,    4315,       0,       0,   83344,    4190,    -917,   83448,    4152,   -1338,   83310,    4084,    -267,   83238,    4110,    -412,   83455,    3902,    -275,   83344,    4022,    -249,   83165,    4418,   -1197,   83618,    3783,    -396
        47,          2300,   64708,   33671,  -95919,   96739,  -30538,  -61241,    4315,       0,       0,   83558,    5412,   -2145,   83662,    5373,   -2556,   83524,    5306,   -1500,   83451,    5334,   -1648,   83665,    5124,   -1511,   83557,    5245,   -1486,   83381,    5641,   -2416,   83827,    5004,   -1633
        48,          2350,   63259,   35440,  -96232,   96319,  -28738,  -62641,    4315,       0,       0,   83778,    6600,   -3363,   83881,    6560,   -3762,   83743,    6494,   -2723,   83670,    6522,   -2872,   83882,    6311,   -2737,   83774,    6433,   -2712,   83604,    6829,   -3623,   84041,    6190,   -2860
        49,          2400,   61788,   37196,  -96510,   95872,  -26930,  -64023,    4315,       0,       0,   84003,    7753,   -4570,   84106,    7712,   -4957,   83968,    7648,   -3935,   83894,    7677,   -4087,   84104,    7465,   -3952,   83998,    7587,   -3927,   83832,    7983,   -4821,   84261,    7343,   -4076
        50,          2450,   60295,   38939,  -96753,   95398,  -25115,  -65388,    4315,       0,       0,   84234,    8873,   -5767,   84335,    8832,   -6143,   84198,    8769,   -5137,   84124,    8798,   -5291,   84331,    8586,   -5158,   84227,    8708,   -5133,   84064,    9104,   -6008,   84487,    8463,   -5282
