GTPPLOT creates from lv_network_l3c2b1f1.pl4,999,1999                           
33,33A, 0D
  1,SBUS A          V-node,A, , V,  1.97157835960388, -.125           , 0.0,-99999, 99999,1.0,1.0,P
  2,SBUS B          V-node,B, , V,  1.97156739234924, -.1015625       , 0.0,-99999, 99999,1.0,1.0,P
  3,SBUS C          V-node,C, , V,  1.97154176235199, -.171875        , 0.0,-99999, 99999,1.0,1.0,P
  4,SBUS A 1    A I-branch,A, , A,  .001371025689878, 5.41744995117188, 0.0,-99999, 99999,1.0,1.0,P
  5,SBUS B 1    B I-branch,B, , A,  .001427501789294, .203590393066406, 0.0,-99999, 99999,1.0,1.0,P
  6,SBUS C 1    C I-branch,C, , A,  .001465767156333, -2.0242385864258, 0.0,-99999, 99999,1.0,1.0,P
  7,FAULTA        I-branch,A, , A,  6.51766061782837, -28452.4375     , 0.0,-99999, 99999,1.0,1.0,P
  8,FAULTB        I-branch,B, , A,  7.73119783401489, 149849.65625    , 0.0,-99999, 99999,1.0,1.0,P
  9,FAULTC        I-branch,C, , A,  7.64661979675293, -141394.875     , 0.0,-99999, 99999,1.0,1.0,P
 10,TACS   PV001V I-branch,S, , A,  .002573632868007, 257.360717773438, 0.0,-99999, 99999,1.0,1.0,P
 11,TACS   PV001I I-branch,S, , A,  .007317073177546, 731.700012207031, 0.0,-99999, 99999,1.0,1.0,P
 12,TACS   PV001W I-branch,S, , A,  .18172529235E-3 , 359.460021972656, 0.0,-99999, 99999,1.0,1.0,P
 13,TACS   PV002V I-branch,S, , A,  .00257387640886 , 257.385070800781, 0.0,-99999, 99999,1.0,1.0,P
 14,TACS   PV002I I-branch,S, , A,  .007317073177546, 731.700012207031, 0.0,-99999, 99999,1.0,1.0,P
 15,TACS   PV002W I-branch,S, , A,  .177965805051E-3, 359.919677734375, 0.0,-99999, 99999,1.0,1.0,P
 16,TACS   PV003V I-branch,S, , A,  .002563840942457, 256.381530761719, 0.0,-99999, 99999,1.0,1.0,P
 17,TACS   PV003I I-branch,S, , A,  .007317073177546, 731.700012207031, 0.0,-99999, 99999,1.0,1.0,P
 18,TACS   PV003W I-branch,S, , A,  .186134217074E-3, 359.005554199219, 0.0,-99999, 99999,1.0,1.0,P
 19,TACS   PV004V I-branch,S, , A,  .002565982053056, 256.595642089844, 0.0,-99999, 99999,1.0,1.0,P
 20,TACS   PV004I I-branch,S, , A,  .007317073177546, 731.700012207031, 0.0,-99999, 99999,1.0,1.0,P
 21,TACS   PV004W I-branch,S, , A,  .187865502085E-3, 358.827880859375, 0.0,-99999, 99999,1.0,1.0,P
 22,TACS   PV005V I-branch,S, , A,  .002551386132836, 255.13606262207 , 0.0,-99999, 99999,1.0,1.0,P
 23,TACS   PV005I I-branch,S, , A,  .007317073177546, 731.700012207031, 0.0,-99999, 99999,1.0,1.0,P
 24,TACS   PV005W I-branch,S, , A,  .186115299584E-3, 359.091979980469, 0.0,-99999, 99999,1.0,1.0,P
 25,TACS   PV006V I-branch,S, , A,  .002559563145041, 255.953765869141, 0.0,-99999, 99999,1.0,1.0,P
 26,TACS   PV006I I-branch,S, , A,  .007317073177546, 731.700012207031, 0.0,-99999, 99999,1.0,1.0,P
 27,TACS   PV006W I-branch,S, , A,  .187822472071E-3, 358.8623046875  , 0.0,-99999, 99999,1.0,1.0,P
 28,TACS   PV007V I-branch,S, , A,  .002591214608401, 259.118865966797, 0.0,-99999, 99999,1.0,1.0,P
 29,TACS   PV007I I-branch,S, , A,  .007317073177546, 731.700012207031, 0.0,-99999, 99999,1.0,1.0,P
 30,TACS   PV007W I-branch,S, , A,  .181911455002E-3, 359.303588867188, 0.0,-99999, 99999,1.0,1.0,P
 31,TACS   PV008V I-branch,S, , A,  .002544410293922, 254.438491821289, 0.0,-99999, 99999,1.0,1.0,P
 32,TACS   PV008I I-branch,S, , A,  .007317073177546, 731.700012207031, 0.0,-99999, 99999,1.0,1.0,P
 33,TACS   PV008W I-branch,S, , A,  .184325414011E-3, 359.343505859375, 0.0,-99999, 99999,1.0,1.0,P
 50
1
     20000,  12001
10/10/2022,21:56:28.000000
10/10/2022,21:56:28.000000
ASCII 
    1.000000
         1,             0,   99998,  -50013,  -49987,   84285,  -99999,   16093,    4365,  -19383,   18491,  -99999,  -99999,   96470,  -99999,  -99999,   95925,  -99999,  -99999,   96626,  -99999,  -99999,   96681,  -99999,  -99999,   96172,  -99999,  -99999,   96520,  -99999,  -99999,   97231,  -99999,  -99999,   95741
         2,            50,   99980,  -48372,  -51611,   85479,  -99020,   14022,    4365,  -19383,   18491,   86507,  -98376,   96470,   86490,  -98376,   95925,   87220,  -98376,   96626,   87063,  -98376,   96681,   88134,  -98376,   96172,   87533,  -98376,   96520,   85242,  -98376,   97231,   88649,  -98376,   95741
         3,           100,   99927,  -46713,  -53216,   86628,  -98005,   11959,    4365,  -19383,   18491,   86329,  -95167,   95574,   86312,  -95167,   95016,   87030,  -95167,   95758,   86879,  -95167,   95816,   87934,  -95167,   95297,   87343,  -95167,   95659,   85082,  -95168,   96351,   88446,  -95167,   94855
         4,           150,   99840,  -45039,  -54804,   87685,  -96955,    9948,    4365,  -19383,   18491,   85960,  -92033,   93808,   85947,  -92033,   93225,   86637,  -92033,   94046,   86494,  -92033,   94112,   87521,  -92032,   93574,   86948,  -92033,   93961,   84758,  -92034,   94617,   88024,  -92032,   93109
         5,           200,   99717,  -43348,  -56372,   88605,  -95872,    8032,    4365,  -19383,   18491,   85588,  -88970,   92090,   85586,  -88970,   91480,   86235,  -88969,   92381,   86099,  -88969,   92452,   87097,  -88968,   91896,   86543,  -88969,   92308,   84438,  -88972,   92929,   87594,  -88967,   91409
         6,           250,   99558,  -41641,  -57919,   89421,  -94758,    6184,    4365,  -19383,   18491,   85252,  -85976,   90410,   85265,  -85977,   89775,   85866,  -85974,   90754,   85734,  -85974,   90831,   86706,  -85972,   90257,   86168,  -85973,   90694,   84151,  -85981,   91282,   87197,  -85971,   89747
         7,           300,   99362,  -39920,  -59445,   90203,  -93616,    4340,    4365,  -19383,   18491,   84944,  -83051,   88769,   84973,  -83052,   88110,   85524,  -83046,   89164,   85396,  -83047,   89247,   86344,  -83043,   88654,   85821,  -83046,   89116,   83884,  -83058,   89675,   86829,  -83042,   88122
         8,           350,   99132,  -38185,  -60950,   90962,  -92447,    2493,    4365,  -19383,   18491,   84660,  -80192,   87165,   84703,  -80194,   86483,   85207,  -80185,   87610,   85082,  -80187,   87699,   86007,  -80180,   87087,   85498,  -80185,   87574,   83636,  -80203,   88106,   86488,  -80179,   86533
         9,           400,   98867,  -36436,  -62434,   91660,  -91253,     677,    4365,  -19383,   18491,   84396,  -77399,   85597,   84452,  -77403,   84896,   84911,  -77389,   86091,   84789,  -77392,   86186,   85692,  -77383,   85556,   85196,  -77388,   86067,   83404,  -77414,   86575,   86170,  -77381,   84979
        10,           450,   98567,  -34674,  -63895,   92303,  -90035,   -1111,    4365,  -19383,   18491,   84151,  -74671,   84065,   84219,  -74675,   83345,   84635,  -74658,   84607,   84515,  -74660,   84707,   85399,  -74649,   84058,   84915,  -74656,   84593,   83189,  -74691,   85080,   85874,  -74646,   83458
        11,           500,   98231,  -32900,  -65334,   92930,  -88793,   -2908,    4365,  -19383,   18491,   83925,  -72006,   82568,   84003,  -72012,   81830,   84380,  -71988,   83156,   84261,  -71992,   83262,   85126,  -71977,   82593,   84653,  -71987,   83152,   82991,  -72030,   83620,   85598,  -71974,   81971
        12,           550,   97861,  -31115,  -66749,   93546,  -87526,   -4717,    4365,  -19383,   18491,   83716,  -69402,   81104,   83804,  -69410,   80350,   84143,  -69381,   81737,   84026,  -69385,   81848,   84873,  -69367,   81160,   84411,  -69378,   81742,   82810,  -69432,   82194,   85342,  -69363,   80516
        13,           600,   97456,  -29318,  -68141,   94122,  -86237,   -6512,    4365,  -19383,   18491,   83524,  -66860,   79672,   83621,  -66869,   78903,   83924,  -66834,   80349,   83809,  -66838,   80465,   84638,  -66817,   79758,   84186,  -66830,   80363,   82643,  -66895,   80801,   85104,  -66813,   79092
        14,           650,   97016,  -27510,  -69508,   94658,  -84926,   -8290,    4365,  -19383,   18491,   83348,  -64376,   78272,   83453,  -64388,   77489,   83722,  -64345,   78991,   83608,  -64350,   79112,   84421,  -64326,   78385,   83979,  -64341,   79013,   82491,  -64418,   79439,   84885,  -64321,   77697
        15,           700,   96541,  -25693,  -70851,   95176,  -83592,  -10074,    4365,  -19383,   18491,   83188,  -61951,   76902,   83301,  -61965,   76106,   83538,  -61915,   77662,   83425,  -61921,   77788,   84222,  -61892,   77042,   83790,  -61910,   77692,   82355,  -61999,   78108,   84684,  -61887,   76332
        16,           750,   96033,  -23867,  -72168,   95681,  -82236,  -11866,    4365,  -19383,   18491,   83044,  -59584,   75561,   83164,  -59599,   74753,   83371,  -59542,   76361,   83259,  -59548,   76491,   84040,  -59515,   75726,   83617,  -59536,   76398,   82233,  -59638,   76806,   84499,  -59509,   74994
        17,           800,   95490,  -22033,  -73460,   96153,  -80858,  -13650,    4365,  -19383,   18491,   82915,  -57272,   74248,   83041,  -57290,   73429,   83219,  -57224,   75087,   83109,  -57231,   75221,   83875,  -57194,   74437,   83461,  -57217,   75131,   82126,  -57333,   75532,   84332,  -57187,   73684
        18,           850,   94913,  -20190,  -74726,   96589,  -79460,  -15420,    4365,  -19383,   18491,   82801,  -55015,   72962,   82933,  -55035,   72134,   83084,  -54961,   73838,   82975,  -54969,   73977,   83726,  -54928,   73173,   83321,  -54953,   73889,   82032,  -55083,   74286,   84181,  -54920,   72399
        19,           900,   94303,  -18340,  -75965,   97004,  -78040,  -17191,    4365,  -19383,   18491,   82701,  -52812,   71701,   82839,  -52834,   70865,   82965,  -52752,   72614,   82856,  -52760,   72757,   83594,  -52714,   71934,   83197,  -52743,   72671,   81953,  -52887,   73065,   84045,  -52706,   71139
        20,           950,   93659,  -16484,  -77178,   97401,  -76599,  -18966,    4365,  -19383,   18491,   82617,  -50661,   70466,   82759,  -50686,   69622,   82861,  -50595,   71415,   82753,  -50603,   71561,   83477,  -50553,   70719,   83089,  -50585,   71477,   81887,  -50744,   71870,   83926,  -50544,   69903
        21,          1000,   92982,  -14622,  -78363,   97768,  -75137,  -20732,    4365,  -19383,   18491,   82546,  -48563,   69255,   82693,  -48590,   68404,   82773,  -48489,   70238,   82665,  -48498,   70388,   83376,  -48444,   69527,   82996,  -48478,   70306,   81834,  -48652,   70699,   83822,  -48434,   68690
        22,          1050,   92272,  -12755,  -79520,   98102,  -73657,  -22486,    4365,  -19383,   18491,   82490,  -46515,   68067,   82640,  -46544,   67210,   82699,  -46434,   69083,   82591,  -46444,   69237,   83290,  -46385,   68357,   82917,  -46422,   69156,   81795,  -46612,   69551,   83733,  -46374,   67500
        23,          1100,   91529,  -10883,  -80648,   98411,  -72156,  -24237,    4365,  -19383,   18491,   82447,  -44516,   66901,   82601,  -44548,   66039,   82640,  -44429,   67949,   82532,  -44439,   68107,   83219,  -44375,   67207,   82854,  -44415,   68027,   81768,  -44621,   68426,   83659,  -44363,   66330
        24,          1150,   90753,   -9008,  -81748,   98699,  -70636,  -25987,    4365,  -19383,   18491,   82417,  -42567,   65756,   82574,  -42601,   64890,   82595,  -42472,   66835,   82487,  -42483,   66997,   83162,  -42414,   66078,   82804,  -42457,   66918,   81755,  -42679,   67322,   83600,  -42401,   65180
        25,          1200,   89945,   -7129,  -82819,   98958,  -69097,  -27728,    4365,  -19383,   18491,   82400,  -40665,   64632,   82560,  -40701,   63762,   82563,  -40563,   65741,   82456,  -40574,   65906,   83119,  -40500,   64968,   82769,  -40546,   65827,   81753,  -40785,   66239,   83554,  -40487,   64051
        26,          1250,   89106,   -5247,  -83861,   99184,  -67539,  -29456,    4365,  -19383,   18491,   82396,  -38809,   63527,   82558,  -38848,   62654,   82546,  -38700,   64665,   82438,  -38712,   64834,   83090,  -38633,   63877,   82747,  -38682,   64756,   81764,  -38938,   65175,   83522,  -38619,   62940
        27,          1300,   88234,   -3364,  -84873,   99384,  -65964,  -31178,    4365,  -19383,   18491,   82405,  -37000,   62441,   82569,  -37041,   61566,   82541,  -36884,   63608,   82434,  -36896,   63780,   83075,  -36811,   62804,   82739,  -36864,   63701,   81786,  -37136,   64130,   83504,  -36796,   61846
        28,          1350,   87331,   -1480,  -85854,   99560,  -64370,  -32894,    4365,  -19383,   18491,   82426,  -35236,   61373,   82591,  -35279,   60496,   82550,  -35112,   62567,   82442,  -35125,   62743,   83073,  -35035,   61747,   82743,  -35091,   62664,   81820,  -35380,   63103,   83499,  -35019,   60770
        29,          1400,   86398,     405,  -86806,   99706,  -62759,  -34600,    4365,  -19383,   18491,   82459,  -33515,   60322,   82625,  -33561,   59444,   82571,  -33384,   61542,   82463,  -33398,   61722,   83084,  -33302,   60707,   82761,  -33361,   61642,   81866,  -33668,   62093,   83507,  -33285,   59711
        30,          1450,   85433,    2290,  -87726,   99821,  -61131,  -36293,    4365,  -19383,   18491,   82503,  -31838,   59287,   82670,  -31886,   58409,   82605,  -31699,   60533,   82496,  -31713,   60717,   83107,  -31612,   59682,   82790,  -31675,   60636,   81922,  -31999,   61101,   83527,  -31594,   58667
        31,          1500,   84438,    4174,  -88615,   99907,  -59486,  -37976,    4365,  -19383,   18491,   82559,  -30203,   58268,   82727,  -30253,   57391,   82650,  -30057,   59539,   82541,  -30072,   59726,   83143,  -29965,   58672,   82832,  -30031,   59645,   81990,  -30372,   60123,   83559,  -29946,   57638
        32,          1550,   83414,    6056,  -89473,   99968,  -57825,  -39650,    4365,  -19383,   18491,   82625,  -28610,   57265,   82794,  -28662,   56388,   82707,  -28456,   58559,   82598,  -28471,   58750,   83190,  -28359,   57676,   82886,  -28429,   58667,   82068,  -28787,   59161,   83603,  -28339,   56623
        33,          1600,   82359,    7937,  -90299,   99998,  -56148,  -41312,    4365,  -19383,   18491,   82703,  -27057,   56275,   82871,  -27111,   55399,   82776,  -26896,   57592,   82666,  -26911,   57787,   83250,  -26794,   56694,   82951,  -26867,   57703,   82156,  -27242,   58214,   83659,  -26772,   55622
        34,          1650,   81276,    9814,  -91093,   99998,  -54457,  -42959,    4365,  -19383,   18491,   82791,  -25544,   55299,   82959,  -25601,   54426,   82856,  -25376,   56639,   82745,  -25391,   56838,   83320,  -25268,   55725,   83027,  -25345,   56752,   82255,  -25738,   57280,   83726,  -25246,   54634
        35,          1700,   80163,   11688,  -91854,   99968,  -52750,  -44593,    4365,  -19383,   18491,   82889,  -24071,   54336,   83057,  -24129,   53465,   82946,  -23895,   55698,   82835,  -23911,   55901,   83401,  -23782,   54768,   83114,  -23862,   55813,   82363,  -24272,   56359,   83804,  -23758,   53659
        36,          1750,   79022,   13558,  -92583,   99911,  -51028,  -46216,    4365,  -19383,   18491,   82997,  -22635,   53386,   83165,  -22695,   52518,   83047,  -22452,   54769,   82935,  -22468,   54975,   83493,  -22334,   53823,   83211,  -22417,   54885,   82480,  -22844,   55451,   83892,  -22309,   52696
        37,          1800,   77853,   15423,  -93279,   99823,  -49292,  -47825,    4365,  -19383,   18491,   83114,  -21237,   52448,   83281,  -21299,   51583,   83158,  -21046,   53850,   83045,  -21063,   54061,   83595,  -20923,   52890,   83318,  -21010,   53969,   82607,  -21454,   54555,   83990,  -20897,   51744
        38,          1850,   76656,   17283,  -93941,   99705,  -47544,  -49417,    4365,  -19383,   18491,   83241,  -19876,   51521,   83407,  -19939,   50660,   83279,  -19678,   52943,   83164,  -19695,   53158,   83707,  -19549,   51967,   83435,  -19640,   53063,   82742,  -20101,   53670,   84099,  -19522,   50803
        39,          1900,   75432,   19136,  -94571,   99556,  -45781,  -50994,    4365,  -19383,   18491,   83376,  -18550,   50605,   83542,  -18616,   49748,   83409,  -18345,   52046,   83293,  -18363,   52265,   83829,  -18212,   51054,   83562,  -18306,   52168,   82887,  -18784,   52797,   84216,  -18182,   49872
        40,          1950,   74181,   20983,  -95167,   99378,  -44006,  -52557,    4365,  -19383,   18491,   83520,  -17260,   49700,   83685,  -17327,   48847,   83548,  -17048,   51159,   83432,  -17066,   51382,   83960,  -16909,   50151,   83698,  -17007,   51282,   83039,  -17501,   51933,   84343,  -16878,   48951
        41,          2000,   72904,   22822,  -95729,   99171,  -42219,  -54103,    4365,  -19383,   18491,   83673,  -16004,   48804,   83836,  -16073,   47956,   83696,  -15786,   50280,   83579,  -15803,   50509,   84099,  -15641,   49258,   83842,  -15742,   50405,   83199,  -16254,   51080,   84479,  -15609,   48040
        42,          2050,   71601,   24653,  -96257,   98932,  -40420,  -55631,    4365,  -19383,   18491,   83833,  -14783,   47918,   83995,  -14853,   47074,   83852,  -14557,   49411,   83734,  -14575,   49644,   84248,  -14407,   48373,   83995,  -14512,   49537,   83368,  -15040,   50236,   84624,  -14374,   47138
        43,          2100,   70272,   26475,  -96750,   98662,  -38611,  -57142,    4365,  -19383,   18491,   84001,  -13594,   47040,   84162,  -13666,   46202,   84016,  -13361,   48550,   83897,  -13380,   48788,   84404,  -13206,   47497,   84156,  -13314,   48678,   83543,  -13859,   49401,   84776,  -13171,   46245
        44,          2150,   68919,   28288,  -97210,   98363,  -36790,  -58635,    4365,  -19383,   18491,   84177,  -12438,   46172,   84336,  -12511,   45339,   84188,  -12199,   47697,   84068,  -12217,   47940,   84569,  -12038,   46629,   84325,  -12150,   47826,   83726,  -12710,   48574,   84937,  -12001,   45359
        45,          2200,   67541,   30091,  -97635,   98034,  -34959,  -60110,    4365,  -19383,   18491,   84359,  -11313,   45311,   84517,  -11387,   44484,   84368,  -11068,   46852,   84247,  -11086,   47100,   84741,  -10902,   45768,   84501,  -11017,   46982,   83915,  -11593,   47755,   85104,  -10863,   44482
        46,          2250,   66139,   31883,  -98025,   97673,  -33118,  -61565,    4365,  -19383,   18491,   84548,  -10220,   44459,   84705,  -10295,   43637,   84554,   -9968,   46014,   84432,   -9986,   46267,   84920,   -9797,   44915,   84684,   -9915,   46146,   84111,  -10507,   46945,   85279,   -9757,   43612
        47,          2300,   64713,   33664,  -98380,   97282,  -31268,  -63001,    4365,  -19383,   18491,   84744,   -9156,   43614,   84898,   -9233,   42798,   84748,   -8899,   45183,   84624,   -8917,   45441,   85106,   -8722,   44070,   84875,   -8844,   45316,   84313,   -9452,   46141,   85461,   -8680,   42749
        48,          2350,   63265,   35433,  -98700,   96861,  -29410,  -64417,    4365,  -19383,   18491,   84946,   -8123,   42776,   85098,   -8201,   41966,   84947,   -7859,   44359,   84823,   -7878,   44623,   85298,   -7677,   43230,   85071,   -7803,   44493,   84521,   -8426,   45345,   85650,   -7634,   41894
        49,          2400,   61794,   37189,  -98986,   96409,  -27543,  -65812,    4365,  -19383,   18491,   85153,   -7119,   41944,   85304,   -7198,   41140,   85153,   -6849,   43541,   85028,   -6868,   43810,   85497,   -6662,   42398,   85274,   -6791,   43677,   84735,   -7429,   44555,   85844,   -6617,   41044
        50,          2450,   60301,   38932,  -99236,   95926,  -25669,  -67186,    4365,  -19383,   18491,   85366,   -6143,   41120,   85515,   -6224,   40322,   85365,   -5868,   42729,   85238,   -5886,   43004,   85702,   -5675,   41571,   85482,   -5807,   42866,   84954,   -6461,   43772,   86045,   -5628,   40201
