GTPPLOT creates from lv_network_l1c3b2f1.pl4,999,1999                           
33,33A, 0D
  1,SBUS A          V-node,A, , V,  1.97176122665405, -.1484375       , 0.0,-99999, 99999,1.0,1.0,P
  2,SBUS B          V-node,B, , V,  1.97175467014313, -.1015625       , 0.0,-99999, 99999,1.0,1.0,P
  3,SBUS C          V-node,C, , V,  1.97174406051636, -.203125        , 0.0,-99999, 99999,1.0,1.0,P
  4,SBUS A 1    A I-branch,A, , A,  .032861813902855, -123.900390625  , 0.0,-99999, 99999,1.0,1.0,P
  5,SBUS B 1    B I-branch,B, , A,  .041198290884495, 946.148681640625, 0.0,-99999, 99999,1.0,1.0,P
  6,SBUS C 1    C I-branch,C, , A,  .040703505277634, -907.19995117188, 0.0,-99999, 99999,1.0,1.0,P
  7,FAULTA        I-branch,A, , A,  .548180341720581, -2141.453125    , 0.0,-99999, 99999,1.0,1.0,P
  8,FAULTB        I-branch,B, , A,  .686362266540527, 16126.203125    , 0.0,-99999, 99999,1.0,1.0,P
  9,FAULTC        I-branch,C, , A,  .678477823734283, -15512.466796875, 0.0,-99999, 99999,1.0,1.0,P
 10,TACS   PV001V I-branch,S, , A,  .002620571292937, 262.054504394531, 0.0,-99999, 99999,1.0,1.0,P
 11,TACS   PV001I I-branch,S, , A,  .007317073177546, 731.700012207031, 0.0,-99999, 99999,1.0,1.0,P
 12,TACS   PV001W I-branch,S, , A,  .101820478449E-3, 366.851745605469, 0.0,-99999, 99999,1.0,1.0,P
 13,TACS   PV002V I-branch,S, , A,  .002622201573104, 262.217529296875, 0.0,-99999, 99999,1.0,1.0,P
 14,TACS   PV002I I-branch,S, , A,  .007317073177546, 731.700012207031, 0.0,-99999, 99999,1.0,1.0,P
 15,TACS   PV002W I-branch,S, , A,  .100494929939E-3, 366.990356445313, 0.0,-99999, 99999,1.0,1.0,P
 16,TACS   PV003V I-branch,S, , A,  .002614857628942, 261.483154296875, 0.0,-99999, 99999,1.0,1.0,P
 17,TACS   PV003I I-branch,S, , A,  .007317073177546, 731.700012207031, 0.0,-99999, 99999,1.0,1.0,P
 18,TACS   PV003W I-branch,S, , A,  .12683980458E-3 , 364.383239746094, 0.0,-99999, 99999,1.0,1.0,P
 19,TACS   PV004V I-branch,S, , A,  .002615141449496, 261.511535644531, 0.0,-99999, 99999,1.0,1.0,P
 20,TACS   PV004I I-branch,S, , A,  .007317073177546, 731.700012207031, 0.0,-99999, 99999,1.0,1.0,P
 21,TACS   PV004W I-branch,S, , A,  .102877464087E-3, 366.727722167969, 0.0,-99999, 99999,1.0,1.0,P
 22,TACS   PV005V I-branch,S, , A,  .002609753282741, 260.972717285156, 0.0,-99999, 99999,1.0,1.0,P
 23,TACS   PV005I I-branch,S, , A,  .007317073177546, 731.700012207031, 0.0,-99999, 99999,1.0,1.0,P
 24,TACS   PV005W I-branch,S, , A,  .12721150415E-3 , 364.370361328125, 0.0,-99999, 99999,1.0,1.0,P
 25,TACS   PV006V I-branch,S, , A,  .002612442243844, 261.241607666016, 0.0,-99999, 99999,1.0,1.0,P
 26,TACS   PV006I I-branch,S, , A,  .007317073177546, 731.700012207031, 0.0,-99999, 99999,1.0,1.0,P
 27,TACS   PV006W I-branch,S, , A,  .103034020867E-3, 366.713806152344, 0.0,-99999, 99999,1.0,1.0,P
 28,TACS   PV007V I-branch,S, , A,  .002627665176988, 262.763885498047, 0.0,-99999, 99999,1.0,1.0,P
 29,TACS   PV007I I-branch,S, , A,  .007317073177546, 731.700012207031, 0.0,-99999, 99999,1.0,1.0,P
 30,TACS   PV007W I-branch,S, , A,  .100233090052E-3, 367.001220703125, 0.0,-99999, 99999,1.0,1.0,P
 31,TACS   PV008V I-branch,S, , A,  .002607456874102, 260.743072509766, 0.0,-99999, 99999,1.0,1.0,P
 32,TACS   PV008I I-branch,S, , A,  .007317073177546, 731.700012207031, 0.0,-99999, 99999,1.0,1.0,P
 33,TACS   PV008W I-branch,S, , A,  .103427089925E-3, 366.712707519531, 0.0,-99999, 99999,1.0,1.0,P
 50
1
     20000,  12001
10/10/2022,21:56:54.000000
10/10/2022,21:56:54.000000
ASCII 
    1.000000
         1,             0,   99997,  -50005,  -49994,    5311,  -24354,   22447,    3906,  -23496,   22863,  -99999,  -99999,   99580,  -99999,  -99999,   99514,  -99999,  -99999,   99399,  -99999,  -99999,   99762,  -99999,  -99999,   99210,  -99999,  -99999,   99746,  -99999,  -99999,   99666,  -99999,  -99999,   99378
         2,            50,   99980,  -48364,  -51618,    5330,  -24339,   22417,    3906,  -23496,   22863,   83167,  -97970,   99580,   83053,  -97970,   99514,   83567,  -97970,   99399,   83547,  -97970,   99762,   83926,  -97970,   99210,   83737,  -97970,   99746,   82672,  -97970,   99666,   84088,  -97970,   99378
         3,           100,   99927,  -46706,  -53223,    5348,  -24323,   22387,    3906,  -23496,   22863,   83032,  -93960,   98022,   82919,  -93960,   97940,   83428,  -93960,   98152,   83410,  -93960,   98221,   83783,  -93960,   97963,   83598,  -93960,   98210,   82545,  -93960,   98095,   83944,  -93960,   97840
         4,           150,   99840,  -45031,  -54812,    5359,  -24307,   22361,    3906,  -23496,   22863,   82761,  -90044,   94952,   82653,  -90044,   94837,   83142,  -90044,   95695,   83126,  -90044,   95185,   83488,  -90044,   95505,   83310,  -90044,   95184,   82296,  -90045,   94999,   83647,  -90043,   94812
         5,           200,   99718,  -43340,  -56380,    5362,  -24291,   22343,    3906,  -23496,   22863,   82499,  -86219,   91965,   82409,  -86219,   91816,   82857,  -86218,   93305,   82840,  -86218,   92231,   83193,  -86218,   93113,   83019,  -86218,   92240,   82062,  -86220,   91986,   83351,  -86217,   91865
         6,           250,   99559,  -41633,  -57927,    5359,  -24275,   22329,    3906,  -23496,   22863,   82276,  -82483,   89048,   82207,  -82484,   88868,   82607,  -82481,   90972,   82586,  -82481,   89349,   82933,  -82480,   90779,   82761,  -82481,   89367,   81857,  -82486,   89050,   83093,  -82480,   88988
         7,           300,   99363,  -39912,  -59452,    5358,  -24258,   22313,    3906,  -23496,   22863,   82076,  -78835,   86203,   82024,  -78837,   85995,   82381,  -78831,   88696,   82357,  -78831,   86535,   82699,  -78829,   88501,   82528,  -78830,   86563,   81671,  -78839,   86186,   82862,  -78829,   86179
         8,           350,   99132,  -38177,  -60957,    5360,  -24242,   22295,    3906,  -23496,   22863,   81892,  -75272,   83427,   81856,  -75276,   83193,   82173,  -75266,   86475,   82146,  -75266,   83790,   82483,  -75263,   86277,   82313,  -75265,   83826,   81500,  -75278,   83395,   82650,  -75263,   83438
         9,           400,   98867,  -36428,  -62441,    5361,  -24225,   22277,    3906,  -23496,   22863,   81720,  -71793,   80721,   81699,  -71799,   80464,   81978,  -71784,   84309,   81947,  -71784,   81113,   82282,  -71781,   84108,   82112,  -71782,   81156,   81338,  -71802,   80676,   82452,  -71781,   80764
        10,           450,   98567,  -34666,  -63903,    5360,  -24209,   22261,    3906,  -23496,   22863,   81561,  -68397,   78083,   81554,  -68404,   77804,   81797,  -68385,   82196,   81763,  -68384,   78501,   82094,  -68380,   81992,   81925,  -68382,   78552,   81190,  -68408,   78024,   82268,  -68380,   78155
        11,           500,   98231,  -32892,  -65341,    5359,  -24192,   22245,    3906,  -23496,   22863,   81417,  -65081,   75508,   81424,  -65091,   75209,   81632,  -65065,   80133,   81595,  -65064,   75952,   81923,  -65059,   79926,   81754,  -65061,   76009,   81057,  -65094,   75437,   82100,  -65060,   75608
        12,           550,   97860,  -31106,  -66756,    5360,  -24175,   22227,    3906,  -23496,   22863,   81288,  -61843,   72994,   81307,  -61856,   72676,   81483,  -61824,   78119,   81443,  -61823,   73461,   81768,  -61816,   77909,   81599,  -61819,   73526,   80938,  -61860,   72913,   81947,  -61817,   73121
        13,           600,   97454,  -29309,  -68147,    5361,  -24159,   22209,    3906,  -23496,   22863,   81172,  -58683,   70541,   81203,  -58699,   70206,   81348,  -58659,   76152,   81305,  -58658,   71029,   81626,  -58650,   75939,   81458,  -58654,   71100,   80831,  -58702,   70449,   81808,  -58652,   70692
        14,           650,   97015,  -27502,  -69515,    5361,  -24142,   22192,    3906,  -23496,   22863,   81068,  -55599,   68145,   81109,  -55617,   67796,   81225,  -55570,   74231,   81180,  -55568,   68653,   81498,  -55560,   74014,   81330,  -55563,   68730,   80736,  -55621,   68045,   81683,  -55562,   68319
        15,           700,   96540,  -25685,  -70857,    5361,  -24125,   22175,    3906,  -23496,   22863,   80977,  -52588,   65805,   81029,  -52610,   65442,   81118,  -52555,   72354,   81069,  -52552,   66332,   81384,  -52542,   72133,   81217,  -52546,   66414,   80654,  -52613,   65698,   81571,  -52545,   66000
        16,           750,   96031,  -23858,  -72175,    5361,  -24108,   22158,    3906,  -23496,   22863,   80900,  -49650,   63519,   80962,  -49675,   63144,   81024,  -49611,   70519,   80973,  -49608,   64062,   81285,  -49597,   70294,   81119,  -49602,   64150,   80586,  -49678,   63404,   81474,  -49601,   63733
        17,           800,   95488,  -22024,  -73466,    5362,  -24090,   22140,    3906,  -23496,   22863,   80835,  -46783,   61283,   80906,  -46811,   60898,   80944,  -46739,   68725,   80890,  -46735,   61842,   81200,  -46723,   68496,   81034,  -46728,   61935,   80529,  -46814,   61163,   81390,  -46727,   61516
        18,           850,   94911,  -20181,  -74732,    5362,  -24073,   22122,    3906,  -23496,   22863,   80782,  -43985,   59098,   80862,  -44017,   58704,   80877,  -43935,   66970,   80821,  -43931,   59670,   81127,  -43918,   66736,   80962,  -43923,   59768,   80484,  -44020,   58973,   81319,  -43922,   59347
        19,           900,   94301,  -18331,  -75971,    5362,  -24056,   22105,    3906,  -23496,   22863,   80742,  -41255,   56961,   80830,  -41291,   56559,   80822,  -41200,   65253,   80764,  -41194,   57545,   81068,  -41180,   65014,   80904,  -41185,   57648,   80451,  -41294,   56831,   81261,  -41185,   57225
        20,           950,   93657,  -16475,  -77183,    5362,  -24039,   22087,    3906,  -23496,   22863,   80714,  -38592,   54870,   80809,  -38631,   54461,   80781,  -38531,   63572,   80721,  -38524,   55465,   81022,  -38509,   63329,   80858,  -38515,   55572,   80431,  -38634,   54737,   81216,  -38515,   55147
        21,          1000,   92979,  -14613,  -78368,    5362,  -24021,   22069,    3906,  -23496,   22863,   80699,  -35994,   52823,   80800,  -36037,   52408,   80753,  -35927,   61925,   80691,  -35920,   53427,   80989,  -35903,   61678,   80826,  -35909,   53538,   80422,  -36040,   52686,   81184,  -35909,   53112
        22,          1050,   92269,  -12746,  -79525,    5363,  -24003,   22051,    3906,  -23496,   22863,   80694,  -33460,   50818,   80803,  -33507,   50400,   80737,  -33386,   60313,   80673,  -33379,   51430,   80968,  -33360,   60060,   80807,  -33367,   51545,   80424,  -33510,   50680,   81164,  -33367,   51119
        23,          1100,   91526,  -10874,  -80654,    5363,  -23986,   22033,    3906,  -23496,   22863,   80702,  -30989,   48854,   80816,  -31040,   48433,   80733,  -30909,   58732,   80668,  -30900,   49473,   80959,  -30881,   58474,   80799,  -30888,   49592,   80437,  -31042,   48715,   81157,  -30888,   49164
        24,          1150,   90750,   -8998,  -81754,    5362,  -23968,   22016,    3906,  -23496,   22863,   80720,  -28578,   46929,   80840,  -28633,   46507,   80742,  -28492,   57182,   80674,  -28483,   47554,   80963,  -28462,   56920,   80804,  -28469,   47676,   80462,  -28636,   46789,   81161,  -28470,   47248
        25,          1200,   89942,   -7120,  -82825,    5362,  -23950,   21998,    3906,  -23496,   22863,   80750,  -26229,   45042,   80875,  -26287,   44619,   80762,  -26136,   55662,   80693,  -26125,   45671,   80979,  -26103,   55394,   80821,  -26111,   45796,   80498,  -26290,   44902,   81177,  -26112,   45368
        26,          1250,   89102,   -5238,  -83866,    5362,  -23932,   21980,    3906,  -23496,   22863,   80791,  -23937,   43191,   80920,  -24000,   42768,   80794,  -23838,   54169,   80723,  -23827,   43823,   81006,  -23803,   53897,   80849,  -23811,   43951,   80544,  -24003,   43052,   81205,  -23813,   43523
        27,          1300,   88231,   -3355,  -84878,    5362,  -23914,   21962,    3906,  -23496,   22863,   80843,  -21704,   41374,   80976,  -21771,   40953,   80837,  -21598,   52704,   80764,  -21586,   42008,   81045,  -21560,   52426,   80889,  -21569,   42139,   80601,  -21773,   41237,   81244,  -21571,   41712
        28,          1350,   87328,   -1471,  -85859,    5361,  -23896,   21944,    3906,  -23496,   22863,   80905,  -19527,   39590,   81042,  -19598,   39172,   80891,  -19414,   51265,   80816,  -19401,   40226,   81095,  -19374,   50982,   80940,  -19384,   40359,   80668,  -19600,   39455,   81294,  -19385,   39932
        29,          1400,   86394,     414,  -86810,    5360,  -23877,   21926,    3906,  -23496,   22863,   80977,  -17405,   37838,   81118,  -17480,   37423,   80955,  -17286,   49851,   80880,  -17272,   38474,   81155,  -17243,   49562,   81002,  -17253,   38609,   80745,  -17482,   37705,   81355,  -17255,   38183
        30,          1450,   85429,    2299,  -87730,    5360,  -23859,   21908,    3906,  -23496,   22863,   81060,  -15337,   36117,   81203,  -15416,   35706,   81031,  -15212,   48461,   80954,  -15197,   36751,   81227,  -15167,   48166,   81075,  -15177,   36888,   80833,  -15418,   35986,   81426,  -15179,   36464
        31,          1500,   84434,    4183,  -88619,    5359,  -23841,   21890,    3906,  -23496,   22863,   81152,  -13323,   34424,   81299,  -13405,   34018,   81117,  -13190,   47093,   81038,  -13174,   35056,   81309,  -13143,   46793,   81158,  -13154,   35195,   80929,  -13408,   34297,   81508,  -13156,   34772
        32,          1550,   83409,    6066,  -89477,    5358,  -23822,   21872,    3906,  -23496,   22863,   81254,  -11360,   32759,   81403,  -11446,   32359,   81212,  -11221,   45747,   81133,  -11204,   33388,   81401,  -11171,   45442,   81251,  -11183,   33529,   81036,  -11449,   32636,   81599,  -11184,   33107
        33,          1600,   82355,    7946,  -90303,    5357,  -23803,   21854,    3906,  -23496,   22863,   81365,   -9448,   31120,   81517,   -9538,   30727,   81318,   -9303,   44422,   81237,   -9285,   31746,   81503,   -9250,   44111,   81355,   -9262,   31888,   81151,   -9541,   31001,   81701,   -9264,   31468
        34,          1650,   81271,    9823,  -91096,    5355,  -23784,   21836,    3906,  -23496,   22863,   81486,   -7586,   29506,   81639,   -7680,   29120,   81433,   -7434,   43116,   81351,   -7415,   30128,   81614,   -7379,   42800,   81468,   -7392,   30271,   81275,   -7683,   29393,   81812,   -7394,   29853
        35,          1700,   80158,   11697,  -91858,    5354,  -23765,   21818,    3906,  -23496,   22863,   81615,   -5773,   27917,   81770,   -5871,   27539,   81558,   -5615,   41830,   81475,   -5595,   28534,   81735,   -5557,   41508,   81590,   -5570,   28678,   81408,   -5874,   27808,   81932,   -5572,   28262
        36,          1750,   79017,   13567,  -92586,    5352,  -23746,   21800,    3906,  -23496,   22863,   81753,   -4007,   26350,   81910,   -4109,   25981,   81691,   -3843,   40561,   81607,   -3822,   26962,   81865,   -3782,   40234,   81721,   -3796,   27107,   81550,   -4112,   26247,   82061,   -3798,   26693
        37,          1800,   77848,   15432,  -93282,    5350,  -23727,   21782,    3906,  -23496,   22863,   81899,   -2289,   24805,   82057,   -2394,   24445,   81834,   -2118,   39309,   81748,   -2096,   25410,   82004,   -2055,   38977,   81862,   -2069,   25556,   81700,   -2398,   24708,   82199,   -2071,   25145
        38,          1850,   76651,   17292,  -93945,    5348,  -23708,   21764,    3906,  -23496,   22863,   82054,    -616,   23281,   82213,    -724,   22931,   81984,    -439,   38074,   81898,    -416,   23880,   82151,    -373,   37736,   82010,    -388,   24026,   81858,    -729,   23191,   82346,    -389,   23617
        39,          1900,   75427,   19145,  -94574,    5346,  -23689,   21746,    3906,  -23496,   22863,   82216,    1012,   21777,   82376,     900,   21437,   82143,    1195,   36855,   82056,    1219,   22368,   82307,    1264,   36511,   82167,    1248,   22514,   82023,     895,   21693,   82500,    1247,   22108
        40,          1950,   74176,   20992,  -95169,    5343,  -23669,   21729,    3906,  -23496,   22863,   82386,    2596,   20292,   82546,    2481,   19963,   82310,    2785,   35650,   82222,    2810,   20875,   82471,    2856,   35300,   82332,    2840,   21022,   82196,    2475,   20214,   82663,    2840,   20618
        41,          2000,   72898,   22831,  -95731,    5340,  -23649,   21711,    3906,  -23496,   22863,   82563,    4137,   18825,   82724,    4019,   18507,   82485,    4332,   34459,   82396,    4358,   19400,   82642,    4406,   34104,   82505,    4389,   19546,   82376,    4013,   18754,   82833,    4389,   19146
        42,          2050,   71595,   24662,  -96259,    5337,  -23630,   21693,    3906,  -23496,   22863,   82747,    5636,   17375,   82909,    5514,   17068,   82667,    5837,   33282,   82577,    5864,   17940,   82821,    5914,   32921,   82685,    5895,   18087,   82563,    5508,   17311,   83011,    5896,   17690
        43,          2100,   70267,   26484,  -96753,    5334,  -23610,   21676,    3906,  -23496,   22863,   82938,    7094,   15941,   83100,    6969,   15646,   82856,    7301,   32117,   82765,    7328,   16498,   83007,    7380,   31751,   82873,    7361,   16643,   82757,    6962,   15885,   83195,    7362,   16249
        44,          2150,   68913,   28297,  -97212,    5331,  -23590,   21658,    3906,  -23496,   22863,   83136,    8511,   14523,   83297,    8383,   14240,   83052,    8724,   30965,   82960,    8752,   15070,   83200,    8806,   30594,   83067,    8786,   15215,   82958,    8376,   14474,   83387,    8788,   14825
        45,          2200,   67535,   30100,  -97637,    5327,  -23570,   21641,    3906,  -23496,   22863,   83340,    9889,   13119,   83501,    9759,   12849,   83254,   10107,   29824,   83162,   10136,   13656,   83399,   10192,   29447,   83268,   10171,   13801,   83164,    9750,   13079,   83585,   10174,   13414
        46,          2250,   66133,   31892,  -98027,    5323,  -23550,   21624,    3906,  -23496,   22863,   83550,   11229,   11730,   83711,   11095,   11472,   83462,   11452,   28695,   83369,   11482,   12256,   83605,   11539,   28312,   83475,   11518,   12400,   83377,   11086,   11697,   83789,   11521,   12016
        47,          2300,   64707,   33672,  -98382,    5319,  -23529,   21607,    3906,  -23496,   22863,   83765,   12530,   10354,   83926,   12394,   10109,   83677,   12759,   27575,   83583,   12790,   10869,   83816,   12849,   27188,   83688,   12827,   11013,   83594,   12384,   10328,   83999,   12831,   10632
        48,          2350,   63259,   35441,  -98702,    5314,  -23509,   21590,    3906,  -23496,   22863,   83986,   13795,    8990,   84146,   13656,    8758,   83897,   14029,   26466,   83803,   14061,    9495,   84034,   14121,   26073,   83906,   14099,    9637,   83818,   13645,    8973,   84215,   14103,    9261
        49,          2400,   61788,   37197,  -98987,    5309,  -23488,   21573,    3906,  -23496,   22863,   84212,   15024,    7639,   84372,   14882,    7419,   84122,   15263,   25366,   84028,   15295,    8132,   84256,   15358,   24968,   84130,   15334,    8273,   84046,   14870,    7629,   84436,   15340,    7901
        50,          2450,   60295,   38940,  -99237,    5304,  -23468,   21556,    3906,  -23496,   22863,   84443,   16217,    6299,   84602,   16073,    6092,   84353,   16461,   24275,   84258,   16494,    6781,   84484,   16558,   23872,   84359,   16534,    6921,   84280,   16060,    6297,   84662,   16541,    6552
