GTPPLOT creates from lv_network_l3c2b2f1.pl4,999,1999                           
33,33A, 0D
  1,SBUS A          V-node,A, , V,  1.97157835960388, -.125           , 0.0,-99999, 99999,1.0,1.0,P
  2,SBUS B          V-node,B, , V,  1.97156739234924, -.1015625       , 0.0,-99999, 99999,1.0,1.0,P
  3,SBUS C          V-node,C, , V,  1.97154176235199, -.171875        , 0.0,-99999, 99999,1.0,1.0,P
  4,SBUS A 1    A I-branch,A, , A,  .032822955399752, -108.76306152344, 0.0,-99999, 99999,1.0,1.0,P
  5,SBUS B 1    B I-branch,B, , A,  .041107971221209, 920.744995117188, 0.0,-99999, 99999,1.0,1.0,P
  6,SBUS C 1    C I-branch,C, , A,  .040789350867271, -898.20397949219, 0.0,-99999, 99999,1.0,1.0,P
  7,FAULTA        I-branch,A, , A,  .543720662593842, -1904.6484375   , 0.0,-99999, 99999,1.0,1.0,P
  8,FAULTB        I-branch,B, , A,  .681770920753479, 16030.044921875 , 0.0,-99999, 99999,1.0,1.0,P
  9,FAULTC        I-branch,C, , A,  .676348328590393, -15699.109375   , 0.0,-99999, 99999,1.0,1.0,P
 10,TACS   PV001V I-branch,S, , A,  .002573632868007, 257.360717773438, 0.0,-99999, 99999,1.0,1.0,P
 11,TACS   PV001I I-branch,S, , A,  .007317073177546, 731.700012207031, 0.0,-99999, 99999,1.0,1.0,P
 12,TACS   PV001W I-branch,S, , A,  .109251734102E-3, 366.185974121094, 0.0,-99999, 99999,1.0,1.0,P
 13,TACS   PV002V I-branch,S, , A,  .00257387640886 , 257.385070800781, 0.0,-99999, 99999,1.0,1.0,P
 14,TACS   PV002I I-branch,S, , A,  .007317073177546, 731.700012207031, 0.0,-99999, 99999,1.0,1.0,P
 15,TACS   PV002W I-branch,S, , A,  .107294923509E-3, 366.377624511719, 0.0,-99999, 99999,1.0,1.0,P
 16,TACS   PV003V I-branch,S, , A,  .002563840942457, 256.381530761719, 0.0,-99999, 99999,1.0,1.0,P
 17,TACS   PV003I I-branch,S, , A,  .007317073177546, 731.700012207031, 0.0,-99999, 99999,1.0,1.0,P
 18,TACS   PV003W I-branch,S, , A,  .125047634356E-3, 364.67529296875 , 0.0,-99999, 99999,1.0,1.0,P
 19,TACS   PV004V I-branch,S, , A,  .002565982053056, 256.595642089844, 0.0,-99999, 99999,1.0,1.0,P
 20,TACS   PV004I I-branch,S, , A,  .007317073177546, 731.700012207031, 0.0,-99999, 99999,1.0,1.0,P
 21,TACS   PV004W I-branch,S, , A,  .109896725917E-3, 366.081634521484, 0.0,-99999, 99999,1.0,1.0,P
 22,TACS   PV005V I-branch,S, , A,  .002551386132836, 255.13606262207 , 0.0,-99999, 99999,1.0,1.0,P
 23,TACS   PV005I I-branch,S, , A,  .007317073177546, 731.700012207031, 0.0,-99999, 99999,1.0,1.0,P
 24,TACS   PV005W I-branch,S, , A,  .125414313516E-3, 364.688415527344, 0.0,-99999, 99999,1.0,1.0,P
 25,TACS   PV006V I-branch,S, , A,  .002559563145041, 255.953765869141, 0.0,-99999, 99999,1.0,1.0,P
 26,TACS   PV006I I-branch,S, , A,  .007317073177546, 731.700012207031, 0.0,-99999, 99999,1.0,1.0,P
 27,TACS   PV006W I-branch,S, , A,  .110273475002E-3, 366.047058105469, 0.0,-99999, 99999,1.0,1.0,P
 28,TACS   PV007V I-branch,S, , A,  .002591214608401, 259.118865966797, 0.0,-99999, 99999,1.0,1.0,P
 29,TACS   PV007I I-branch,S, , A,  .007317073177546, 731.700012207031, 0.0,-99999, 99999,1.0,1.0,P
 30,TACS   PV007W I-branch,S, , A,  .105175306089E-3, 366.547515869141, 0.0,-99999, 99999,1.0,1.0,P
 31,TACS   PV008V I-branch,S, , A,  .002544410293922, 254.438491821289, 0.0,-99999, 99999,1.0,1.0,P
 32,TACS   PV008I I-branch,S, , A,  .007317073177546, 731.700012207031, 0.0,-99999, 99999,1.0,1.0,P
 33,TACS   PV008W I-branch,S, , A,  .112298177555E-3, 365.923736572266, 0.0,-99999, 99999,1.0,1.0,P
 50
1
     20000,  12001
10/10/2022,21:56:35.000000
10/10/2022,21:56:35.000000
ASCII 
    1.000000
         1,             0,   99998,  -50013,  -49987,    6999,  -25866,   22549,    3502,  -23513,   23211,  -99999,  -99999,   98901,  -99999,  -99999,   98918,  -99999,  -99999,   98488,  -99999,  -99999,   99270,  -99999,  -99999,   98096,  -99999,  -99999,   99244,  -99999,  -99999,   99296,  -99999,  -99999,   98553
         2,            50,   99980,  -48372,  -51611,    7049,  -25832,   22474,    3502,  -23513,   23211,   86507,  -98376,   98901,   86490,  -98376,   98918,   87220,  -98376,   98488,   87063,  -98376,   99270,   88134,  -98376,   98096,   87533,  -98376,   99244,   85242,  -98376,   99296,   88649,  -98376,   98553
         3,           100,   99927,  -46713,  -53216,    7097,  -25797,   22400,    3502,  -23513,   23211,   86329,  -95167,   97410,   86312,  -95167,   97411,   87030,  -95167,   97196,   86879,  -95167,   97791,   87934,  -95167,   96798,   87343,  -95167,   97777,   85082,  -95168,   97775,   88446,  -95167,   97099
         4,           150,   99840,  -45039,  -54804,    7141,  -25761,   22328,    3502,  -23513,   23211,   85960,  -92033,   94474,   85947,  -92033,   94439,   86637,  -92033,   94648,   86494,  -92033,   94877,   87521,  -92032,   94241,   86948,  -92033,   94885,   84758,  -92034,   94776,   88024,  -92032,   94233
         5,           200,   99717,  -43348,  -56372,    7179,  -25723,   22259,    3502,  -23513,   23211,   85588,  -88970,   91615,   85586,  -88970,   91545,   86235,  -88969,   92169,   86099,  -88969,   92040,   87097,  -88968,   91751,   86543,  -88969,   92070,   84438,  -88972,   91856,   87594,  -88967,   91443
         6,           250,   99558,  -41641,  -57919,    7213,  -25684,   22193,    3502,  -23513,   23211,   85252,  -85976,   88821,   85265,  -85977,   88717,   85866,  -85974,   89747,   85734,  -85974,   89269,   86706,  -85972,   89319,   86168,  -85973,   89321,   84151,  -85981,   89007,   87197,  -85971,   88715
         7,           300,   99362,  -39920,  -59445,    7246,  -25645,   22126,    3502,  -23513,   23211,   84944,  -83051,   86091,   84973,  -83052,   85955,   85524,  -83046,   87380,   85396,  -83047,   86561,   86344,  -83043,   86940,   85821,  -83046,   86633,   83884,  -83058,   86228,   86829,  -83042,   86047
         8,           350,   99132,  -38185,  -60950,    7278,  -25604,   22060,    3502,  -23513,   23211,   84660,  -80192,   83423,   84703,  -80194,   83258,   85207,  -80185,   85067,   85082,  -80187,   83915,   86007,  -80180,   84615,   85498,  -80185,   84007,   83636,  -80203,   83514,   86488,  -80179,   83439
         9,           400,   98867,  -36436,  -62434,    7307,  -25563,   21995,    3502,  -23513,   23211,   84396,  -77399,   80816,   84452,  -77403,   80624,   84911,  -77389,   82807,   84789,  -77392,   81328,   85692,  -77383,   82342,   85196,  -77388,   81439,   83404,  -77414,   80866,   86170,  -77381,   80888
        10,           450,   98567,  -34674,  -63895,    7334,  -25520,   21931,    3502,  -23513,   23211,   84151,  -74671,   78268,   84219,  -74675,   78052,   84635,  -74658,   80598,   84515,  -74660,   78801,   85399,  -74649,   80119,   84915,  -74656,   78929,   83189,  -74691,   78281,   85874,  -74646,   78392
        11,           500,   98231,  -32900,  -65334,    7360,  -25477,   21866,    3502,  -23513,   23211,   83925,  -72006,   75777,   84003,  -72012,   75539,   84380,  -71988,   78438,   84261,  -71992,   76329,   85126,  -71977,   77945,   84653,  -71987,   76474,   82991,  -72030,   75755,   85598,  -71974,   75951
        12,           550,   97861,  -31115,  -66749,    7386,  -25433,   21801,    3502,  -23513,   23211,   83716,  -69402,   73342,   83804,  -69410,   73084,   84143,  -69381,   76326,   84026,  -69385,   73912,   84873,  -69367,   75818,   84411,  -69378,   74073,   82810,  -69432,   73289,   85342,  -69363,   73563
        13,           600,   97456,  -29318,  -68141,    7410,  -25388,   21736,    3502,  -23513,   23211,   83524,  -66860,   70960,   83621,  -66869,   70685,   83924,  -66834,   74260,   83809,  -66838,   71548,   84638,  -66817,   73738,   84186,  -66830,   71724,   82643,  -66895,   70879,   85104,  -66813,   71225
        14,           650,   97016,  -27510,  -69508,    7432,  -25343,   21673,    3502,  -23513,   23211,   83348,  -64376,   68631,   83453,  -64388,   68339,   83722,  -64345,   72239,   83608,  -64350,   69235,   84421,  -64326,   71701,   83979,  -64341,   69426,   82491,  -64418,   68524,   84885,  -64321,   68936
        15,           700,   96541,  -25693,  -70851,    7454,  -25297,   21608,    3502,  -23513,   23211,   83188,  -61951,   66352,   83301,  -61965,   66045,   83538,  -61915,   70260,   83425,  -61921,   66971,   84222,  -61892,   69707,   83790,  -61910,   67175,   82355,  -61999,   66221,   84684,  -61887,   66695
        16,           750,   96033,  -23867,  -72168,    7475,  -25249,   21544,    3502,  -23513,   23211,   83044,  -59584,   64121,   83164,  -59599,   63801,   83371,  -59542,   68324,   83259,  -59548,   64755,   84040,  -59515,   67754,   83617,  -59536,   64972,   82233,  -59638,   63969,   84499,  -59509,   64500
        17,           800,   95490,  -22033,  -73460,    7495,  -25202,   21480,    3502,  -23513,   23211,   82915,  -57272,   61937,   83041,  -57290,   61606,   83219,  -57224,   66427,   83109,  -57231,   62584,   83875,  -57194,   65841,   83461,  -57217,   62813,   82126,  -57333,   61766,   84332,  -57187,   62348
        18,           850,   94913,  -20190,  -74726,    7513,  -25153,   21416,    3502,  -23513,   23211,   82801,  -55015,   59798,   82933,  -55035,   59457,   83084,  -54961,   64568,   82975,  -54969,   60456,   83726,  -54928,   63966,   83321,  -54953,   60698,   82032,  -55083,   59610,   84181,  -54920,   60240
        19,           900,   94303,  -18340,  -75965,    7530,  -25104,   21353,    3502,  -23513,   23211,   82701,  -52812,   57702,   82839,  -52834,   57352,   82965,  -52752,   62747,   82856,  -52760,   58372,   83594,  -52714,   62127,   83197,  -52743,   58624,   81953,  -52887,   57499,   84045,  -52706,   58172
        20,           950,   93659,  -16484,  -77178,    7547,  -25054,   21289,    3502,  -23513,   23211,   82617,  -50661,   55647,   82759,  -50686,   55291,   82861,  -50595,   60961,   82753,  -50603,   56327,   83477,  -50553,   60324,   83089,  -50585,   56590,   81887,  -50744,   55432,   83926,  -50544,   56143
        21,          1000,   92982,  -14622,  -78363,    7562,  -25003,   21225,    3502,  -23513,   23211,   82546,  -48563,   53633,   82693,  -48590,   53270,   82773,  -48489,   59209,   82665,  -48498,   54322,   83376,  -48444,   58555,   82996,  -48478,   54595,   81834,  -48652,   53407,   83822,  -48434,   54152
        22,          1050,   92272,  -12755,  -79520,    7576,  -24952,   21162,    3502,  -23513,   23211,   82490,  -46515,   51657,   82640,  -46544,   51290,   82699,  -46434,   57490,   82591,  -46444,   52354,   83290,  -46385,   56818,   82917,  -46422,   52636,   81795,  -46612,   51422,   83733,  -46374,   52198
        23,          1100,   91529,  -10883,  -80648,    7589,  -24899,   21099,    3502,  -23513,   23211,   82447,  -44516,   49717,   82601,  -44548,   49347,   82640,  -44429,   55802,   82532,  -44439,   50422,   83219,  -44375,   55113,   82854,  -44415,   50713,   81768,  -44621,   49475,   83659,  -44363,   50278
        24,          1150,   90753,   -9008,  -81748,    7601,  -24847,   21037,    3502,  -23513,   23211,   82417,  -42567,   47813,   82574,  -42601,   47441,   82595,  -42472,   54144,   82487,  -42483,   48525,   83162,  -42414,   53437,   82804,  -42457,   48823,   81755,  -42679,   47566,   83600,  -42401,   48391
        25,          1200,   89945,   -7129,  -82819,    7612,  -24793,   20974,    3502,  -23513,   23211,   82400,  -40665,   45943,   82560,  -40701,   45570,   82563,  -40563,   52516,   82456,  -40574,   46661,   83119,  -40500,   51790,   82769,  -40546,   46967,   81753,  -40785,   45692,   83554,  -40487,   46537
        26,          1250,   89106,   -5247,  -83861,    7621,  -24739,   20912,    3502,  -23513,   23211,   82396,  -38809,   44105,   82558,  -38848,   43733,   82546,  -38700,   50915,   82438,  -38712,   44828,   83090,  -38633,   50171,   82747,  -38682,   45141,   81764,  -38938,   43852,   83522,  -38619,   44713
        27,          1300,   88234,   -3364,  -84873,    7629,  -24684,   20850,    3502,  -23513,   23211,   82405,  -37000,   42299,   82569,  -37041,   41928,   82541,  -36884,   49340,   82434,  -36896,   43026,   83075,  -36811,   48578,   82739,  -36864,   43346,   81786,  -37136,   42045,   83504,  -36796,   42919
        28,          1350,   87331,   -1480,  -85854,    7637,  -24629,   20788,    3502,  -23513,   23211,   82426,  -35236,   40522,   82591,  -35279,   40154,   82550,  -35112,   47791,   82442,  -35125,   41253,   83073,  -35035,   47010,   82743,  -35091,   41578,   81820,  -35380,   40269,   83499,  -35019,   41152
        29,          1400,   86398,     405,  -86806,    7643,  -24573,   20727,    3502,  -23513,   23211,   82459,  -33515,   38774,   82625,  -33561,   38409,   82571,  -33384,   46266,   82463,  -33398,   39507,   83084,  -33302,   45466,   82761,  -33361,   39838,   81866,  -33668,   38523,   83507,  -33285,   39413
        30,          1450,   85433,    2290,  -87726,    7648,  -24517,   20666,    3502,  -23513,   23211,   82503,  -31838,   37053,   82670,  -31886,   36692,   82605,  -31699,   44763,   82496,  -31713,   37789,   83107,  -31612,   43945,   82790,  -31675,   38125,   81922,  -31999,   36805,   83527,  -31594,   37699
        31,          1500,   84438,    4174,  -88615,    7651,  -24459,   20606,    3502,  -23513,   23211,   82559,  -30203,   35358,   82727,  -30253,   35003,   82650,  -30057,   43284,   82541,  -30072,   36095,   83143,  -29965,   42446,   82832,  -30031,   36436,   81990,  -30372,   35115,   83559,  -29946,   36010
        32,          1550,   83414,    6056,  -89473,    7654,  -24402,   20546,    3502,  -23513,   23211,   82625,  -28610,   33688,   82794,  -28662,   33339,   82707,  -28456,   41825,   82598,  -28471,   34427,   83190,  -28359,   40969,   82886,  -28429,   34771,   82068,  -28787,   33451,   83603,  -28339,   34345
        33,          1600,   82359,    7937,  -90299,    7655,  -24344,   20486,    3502,  -23513,   23211,   82703,  -27057,   32042,   82871,  -27111,   31700,   82776,  -26896,   40386,   82666,  -26911,   32781,   83250,  -26794,   39511,   82951,  -26867,   33129,   82156,  -27242,   31812,   83659,  -26772,   32702
        34,          1650,   81276,    9814,  -91093,    7655,  -24285,   20427,    3502,  -23513,   23211,   82791,  -25544,   30419,   82959,  -25601,   30085,   82856,  -25376,   38967,   82745,  -25391,   31158,   83320,  -25268,   38073,   83027,  -25345,   31509,   82255,  -25738,   30197,   83726,  -25246,   31081
        35,          1700,   80163,   11688,  -91854,    7654,  -24226,   20368,    3502,  -23513,   23211,   82889,  -24071,   28818,   83057,  -24129,   28492,   82946,  -23895,   37566,   82835,  -23911,   29556,   83401,  -23782,   36653,   83114,  -23862,   29909,   82363,  -24272,   28605,   83804,  -23758,   29480
        36,          1750,   79022,   13558,  -92583,    7651,  -24166,   20310,    3502,  -23513,   23211,   82997,  -22635,   27237,   83165,  -22695,   26921,   83047,  -22452,   36183,   82935,  -22468,   27974,   83493,  -22334,   35251,   83211,  -22417,   28330,   82480,  -22844,   27034,   83892,  -22309,   27899
        37,          1800,   77853,   15423,  -93279,    7648,  -24105,   20252,    3502,  -23513,   23211,   83114,  -21237,   25677,   83281,  -21299,   25370,   83158,  -21046,   34817,   83045,  -21063,   26411,   83595,  -20923,   33865,   83318,  -21010,   26769,   82607,  -21454,   25484,   83990,  -20897,   26336
        38,          1850,   76656,   17283,  -93941,    7643,  -24045,   20195,    3502,  -23513,   23211,   83241,  -19876,   24135,   83407,  -19939,   23839,   83279,  -19678,   33466,   83164,  -19695,   24867,   83707,  -19549,   32496,   83435,  -19640,   25227,   82742,  -20101,   23954,   84099,  -19522,   24792
        39,          1900,   75432,   19136,  -94571,    7637,  -23984,   20138,    3502,  -23513,   23211,   83376,  -18550,   22612,   83542,  -18616,   22326,   83409,  -18345,   32131,   83293,  -18363,   23341,   83829,  -18212,   31141,   83562,  -18306,   23701,   82887,  -18784,   22443,   84216,  -18182,   23264
        40,          1950,   74181,   20983,  -95167,    7629,  -23922,   20082,    3502,  -23513,   23211,   83520,  -17260,   21105,   83685,  -17327,   20831,   83548,  -17048,   30810,   83432,  -17066,   21832,   83960,  -16909,   29801,   83698,  -17007,   22192,   83039,  -17501,   20950,   84343,  -16878,   21753
        41,          2000,   72904,   22822,  -95729,    7621,  -23860,   20026,    3502,  -23513,   23211,   83673,  -16004,   19615,   83836,  -16073,   19353,   83696,  -15786,   29502,   83579,  -15803,   20338,   84099,  -15641,   28475,   83842,  -15742,   20699,   83199,  -16254,   19473,   84479,  -15609,   20257
        42,          2050,   71601,   24653,  -96257,    7611,  -23797,   19971,    3502,  -23513,   23211,   83833,  -14783,   18141,   83995,  -14853,   17892,   83852,  -14557,   28208,   83734,  -14575,   18860,   84248,  -14407,   27163,   83995,  -14512,   19221,   83368,  -15040,   18013,   84624,  -14374,   18777
        43,          2100,   70272,   26475,  -96750,    7599,  -23735,   19917,    3502,  -23513,   23211,   84001,  -13594,   16682,   84162,  -13666,   16445,   84016,  -13361,   26927,   83897,  -13380,   17397,   84404,  -13206,   25862,   84156,  -13314,   17757,   83543,  -13859,   16569,   84776,  -13171,   17310
        44,          2150,   68919,   28288,  -97210,    7587,  -23671,   19863,    3502,  -23513,   23211,   84177,  -12438,   15237,   84336,  -12511,   15013,   84188,  -12199,   25658,   84068,  -12217,   15947,   84569,  -12038,   24574,   84325,  -12150,   16307,   83726,  -12710,   15139,   84937,  -12001,   15857
        45,          2200,   67541,   30091,  -97635,    7573,  -23608,   19810,    3502,  -23513,   23211,   84359,  -11313,   13806,   84517,  -11387,   13595,   84368,  -11068,   24399,   84247,  -11086,   14511,   84741,  -10902,   23297,   84501,  -11017,   14869,   83915,  -11593,   13723,   85104,  -10863,   14417
        46,          2250,   66139,   31883,  -98025,    7558,  -23544,   19758,    3502,  -23513,   23211,   84548,  -10220,   12388,   84705,  -10295,   12190,   84554,   -9968,   23152,   84432,   -9986,   13087,   84920,   -9797,   22032,   84684,   -9915,   13444,   84111,  -10507,   12321,   85279,   -9757,   12989
        47,          2300,   64713,   33664,  -98380,    7542,  -23480,   19706,    3502,  -23513,   23211,   84744,   -9156,   10982,   84898,   -9233,   10798,   84748,   -8899,   21915,   84624,   -8917,   11676,   85106,   -8722,   20776,   84875,   -8844,   12031,   84313,   -9452,   10932,   85461,   -8680,   11573
        48,          2350,   63265,   35433,  -98700,    7524,  -23415,   19656,    3502,  -23513,   23211,   84946,   -8123,    9588,   85098,   -8201,    9418,   84947,   -7859,   20688,   84823,   -7878,   10276,   85298,   -7677,   19531,   85071,   -7803,   10629,   84521,   -8426,    9554,   85650,   -7634,   10168
        49,          2400,   61794,   37189,  -98986,    7505,  -23350,   19605,    3502,  -23513,   23211,   85153,   -7119,    8205,   85304,   -7198,    8049,   85153,   -6849,   19471,   85028,   -6868,    8888,   85497,   -6662,   18295,   85274,   -6791,    9238,   84735,   -7429,    8189,   85844,   -6617,    8774
        50,          2450,   60301,   38932,  -99236,    7485,  -23285,   19556,    3502,  -23513,   23211,   85366,   -6143,    6834,   85515,   -6224,    6692,   85365,   -5868,   18262,   85238,   -5886,    7510,   85702,   -5675,   17069,   85482,   -5807,    7858,   84954,   -6461,    6834,   86045,   -5628,    7391
