GTPPLOT creates from lv_network_l1c2b1f2.pl4,999,1999                           
33,33A, 0D
  1,SBUS A          V-node,A, , V,  1.97175717353821, -.1171875       , 0.0,-99999, 99999,1.0,1.0,P
  2,SBUS B          V-node,B, , V,  1.97175061702728, -.09375         , 0.0,-99999, 99999,1.0,1.0,P
  3,SBUS C          V-node,C, , V,  2.0226469039917 , 28.28125        , 0.0,-99999, 99999,1.0,1.0,P
  4,SBUS A 1    A I-branch,A, , A,  .491513812449E-3, 4.85677528381348, 0.0,-99999, 99999,1.0,1.0,P
  5,SBUS B 1    B I-branch,B, , A,  .53020415362E-3 , -4.1343402862549, 0.0,-99999, 99999,1.0,1.0,P
  6,SBUS C 1    C I-branch,C, , A,  .516860454809E-3, -1.7474365234375, 0.0,-99999, 99999,1.0,1.0,P
  7,FAULTA        I-branch,A, , A,  6.20565509796143, -26782.4375     , 0.0,-99999, 99999,1.0,1.0,P
  8,FAULTB        I-branch,B, , A,  0.0             , 0.0             , 0.0,-99999, 99999,1.0,1.0,P
  9,FAULTC        I-branch,C, , A,  0.0             , 0.0             , 0.0,-99999, 99999,1.0,1.0,P
 10,TACS   PV001V I-branch,S, , A,  .00261840946041 , 261.838317871094, 0.0,-99999, 99999,1.0,1.0,P
 11,TACS   PV001I I-branch,S, , A,  .006254175212234, 625.411254882813, 0.0,-99999, 99999,1.0,1.0,P
 12,TACS   PV001W I-branch,S, , A,  .116322880785E-3, 368.16259765625 , 0.0,-99999, 99999,1.0,1.0,P
 13,TACS   PV002V I-branch,S, , A,  .002619569422677, 261.954315185547, 0.0,-99999, 99999,1.0,1.0,P
 14,TACS   PV002I I-branch,S, , A,  .006250930484384, 625.086791992188, 0.0,-99999, 99999,1.0,1.0,P
 15,TACS   PV002W I-branch,S, , A,  .115421687951E-3, 368.309112548828, 0.0,-99999, 99999,1.0,1.0,P
 16,TACS   PV003V I-branch,S, , A,  .002613197313622, 261.317108154297, 0.0,-99999, 99999,1.0,1.0,P
 17,TACS   PV003I I-branch,S, , A,  .006271544843912, 627.148193359375, 0.0,-99999, 99999,1.0,1.0,P
 18,TACS   PV003W I-branch,S, , A,  .116844581498E-3, 368.061706542969, 0.0,-99999, 99999,1.0,1.0,P
 19,TACS   PV004V I-branch,S, , A,  .002613683696836, 261.365753173828, 0.0,-99999, 99999,1.0,1.0,P
 20,TACS   PV004I I-branch,S, , A,  .006271005608141, 627.094299316406, 0.0,-99999, 99999,1.0,1.0,P
 21,TACS   PV004W I-branch,S, , A,  .116955212434E-3, 368.043609619141, 0.0,-99999, 99999,1.0,1.0,P
 22,TACS   PV005V I-branch,S, , A,  .00260808551684 , 260.805938720703, 0.0,-99999, 99999,1.0,1.0,P
 23,TACS   PV005I I-branch,S, , A,  .00628728652373 , 628.722351074219, 0.0,-99999, 99999,1.0,1.0,P
 24,TACS   PV005W I-branch,S, , A,  .117420910101E-3, 368.012603759766, 0.0,-99999, 99999,1.0,1.0,P
 25,TACS   PV006V I-branch,S, , A,  .002610975876451, 261.094970703125, 0.0,-99999, 99999,1.0,1.0,P
 26,TACS   PV006I I-branch,S, , A,  .006278334651142, 627.827209472656, 0.0,-99999, 99999,1.0,1.0,P
 27,TACS   PV006W I-branch,S, , A,  .117089948617E-3, 368.027465820313, 0.0,-99999, 99999,1.0,1.0,P
 28,TACS   PV007V I-branch,S, , A,  .002625544089824, 262.551788330078, 0.0,-99999, 99999,1.0,1.0,P
 29,TACS   PV007I I-branch,S, , A,  .006232848390937, 623.278625488281, 0.0,-99999, 99999,1.0,1.0,P
 30,TACS   PV007W I-branch,S, , A,  .114803391625E-3, 368.318817138672, 0.0,-99999, 99999,1.0,1.0,P
 31,TACS   PV008V I-branch,S, , A,  .002605597022921, 260.557098388672, 0.0,-99999, 99999,1.0,1.0,P
 32,TACS   PV008I I-branch,S, , A,  .006294140126556, 629.40771484375 , 0.0,-99999, 99999,1.0,1.0,P
 33,TACS   PV008W I-branch,S, , A,  .117608447908E-3, 368.011840820313, 0.0,-99999, 99999,1.0,1.0,P
 50
1
     20000,  12001
10/10/2022,21:55:51.000000
10/10/2022,21:55:51.000000
ASCII 
    1.000000
         1,             0,   99998,  -50005,  -48750,   93152,  -99999,   15970,    4315,       0,       0,  -99999,  -99999,   75896,  -99999,  -99999,   75219,  -99999,  -99999,   76420,  -99999,  -99999,   76503,  -99999,  -99999,   76464,  -99999,  -99999,   76553,  -99999,  -99999,   75540,  -99999,  -99999,   76348
         2,            50,   99980,  -48364,  -50333,   94446,  -98843,   13552,    4315,       0,       0,   83318,  -98100,   75896,   83237,  -98099,   75219,   83684,  -98105,   76420,   83649,  -98105,   76503,   84044,  -98110,   76464,   83840,  -98107,   76553,   82820,  -98094,   75540,   84219,  -98112,   76348
         3,           100,   99927,  -46706,  -51898,   95639,  -97649,   11193,    4315,       0,       0,   83184,  -94347,   74532,   83102,  -94344,   73848,   83545,  -94362,   75066,   83512,  -94362,   75147,   83901,  -94376,   75112,   83701,  -94368,   75201,   82693,  -94327,   74168,   84075,  -94382,   74996
         4,           150,   99840,  -45031,  -53446,   96504,  -96417,    9107,    4315,       0,       0,   82909,  -90682,   71845,   82833,  -90677,   71147,   83257,  -90707,   72400,   83227,  -90706,   72477,   83604,  -90730,   72449,   83411,  -90717,   72538,   82439,  -90650,   71466,   83776,  -90740,   72333
         5,           200,   99718,  -43340,  -54975,   96864,  -95152,    7466,    4315,       0,       0,   82638,  -87101,   69230,   82576,  -87095,   68518,   82965,  -87136,   69805,   82935,  -87135,   69879,   83303,  -87168,   69859,   83115,  -87150,   69948,   82193,  -87058,   68836,   83474,  -87182,   69742
         6,           250,   99558,  -41634,  -56483,   96934,  -93865,    6079,    4315,       0,       0,   82402,  -83604,   66678,   82356,  -83597,   65952,   82705,  -83648,   67274,   82673,  -83647,   67344,   83034,  -83688,   67331,   82849,  -83665,   67421,   81974,  -83551,   66273,   83206,  -83705,   67213
         7,           300,   99362,  -39912,  -57970,   97099,  -92570,    4594,    4315,       0,       0,   82187,  -80189,   64188,   82156,  -80180,   63451,   82469,  -80240,   64803,   82435,  -80239,   64869,   82789,  -80288,   64863,   82607,  -80261,   64953,   81774,  -80125,   63773,   82963,  -80309,   64743
         8,           350,   99132,  -38177,  -59437,   97422,  -91274,    2958,    4315,       0,       0,   81990,  -76853,   61759,   81971,  -76844,   61012,   82250,  -76912,   62392,   82214,  -76911,   62455,   82563,  -76968,   62454,   82383,  -76936,   62545,   81589,  -76780,   61336,   82739,  -76993,   62333
         9,           400,   98867,  -36428,  -60883,   97698,  -89974,    1361,    4315,       0,       0,   81805,  -73596,   59389,   81798,  -73587,   58634,   82046,  -73662,   60040,   82007,  -73660,   60100,   82352,  -73725,   60104,   82173,  -73689,   60196,   81414,  -73514,   58960,   82530,  -73753,   59981
        10,           450,   98566,  -34666,  -62308,   97848,  -88657,    -133,    4315,       0,       0,   81634,  -70416,   57078,   81638,  -70406,   56316,   81856,  -70488,   57745,   81815,  -70485,   57802,   82155,  -70557,   57811,   81978,  -70518,   57903,   81254,  -70324,   56643,   82336,  -70589,   57685
        11,           500,   98230,  -32892,  -63710,   97992,  -87321,   -1640,    4315,       0,       0,   81478,  -67310,   54822,   81493,  -67301,   54053,   81682,  -67388,   55505,   81639,  -67385,   55558,   81975,  -67464,   55571,   81799,  -67421,   55664,   81110,  -67211,   54382,   82157,  -67500,   55444
        12,           550,   97859,  -31106,  -65089,   98209,  -85974,   -3228,    4315,       0,       0,   81338,  -64279,   52619,   81363,  -64270,   51845,   81524,  -64362,   53317,   81480,  -64358,   53365,   81811,  -64444,   53384,   81637,  -64397,   53477,   80980,  -64171,   52175,   81995,  -64483,   53255
        13,           600,   97454,  -29309,  -66446,   98436,  -84622,   -4832,    4315,       0,       0,   81211,  -61319,   50468,   81245,  -61310,   49690,   81381,  -61407,   51179,   81334,  -61403,   51224,   81661,  -61495,   51247,   81489,  -61444,   51341,   80863,  -61204,   50020,   81847,  -61537,   51116
        14,           650,   97014,  -27502,  -67779,   98609,  -83261,   -6392,    4315,       0,       0,   81097,  -58430,   48368,   81140,  -58422,   47586,   81251,  -58522,   49091,   81203,  -58517,   49132,   81526,  -58616,   49159,   81354,  -58561,   49253,   80758,  -58307,   47917,   81712,  -58662,   49026
        15,           700,   96540,  -25685,  -69088,   98750,  -81883,   -7940,    4315,       0,       0,   80997,  -55609,   46315,   81048,  -55603,   45531,   81136,  -55705,   47050,   81086,  -55700,   47087,   81405,  -55805,   47118,   81235,  -55747,   47213,   80667,  -55480,   45862,   81593,  -55854,   46983
        16,           750,   96031,  -23859,  -70372,   98910,  -80490,   -9521,    4315,       0,       0,   80910,  -52857,   44308,   80969,  -52851,   43523,   81036,  -52956,   45054,   80984,  -52951,   45087,   81299,  -53061,   45122,   81131,  -53000,   45217,   80590,  -52721,   43854,   81488,  -53114,   44986
        17,           800,   95488,  -22024,  -71631,   99081,  -79089,  -11121,    4315,       0,       0,   80837,  -50171,   42347,   80903,  -50166,   41560,   80949,  -50273,   43103,   80896,  -50267,   43130,   81207,  -50383,   43170,   81040,  -50318,   43264,   80525,  -50029,   41891,   81396,  -50439,   43032
        18,           850,   94911,  -20181,  -72865,   99229,  -77680,  -12707,    4315,       0,       0,   80777,  -47549,   40427,   80849,  -47546,   39642,   80876,  -47654,   41193,   80821,  -47648,   41216,   81128,  -47769,   41260,   80963,  -47701,   41354,   80472,  -47402,   39972,   81319,  -47828,   41120
        19,           900,   94301,  -18332,  -74073,   99351,  -76257,  -14282,    4315,       0,       0,   80729,  -44992,   38550,   80808,  -44990,   37766,   80816,  -45099,   39324,   80760,  -45092,   39343,   81063,  -45218,   39389,   80900,  -45147,   39484,   80432,  -44839,   38096,   81254,  -45280,   39248
        20,           950,   93656,  -16476,  -75254,   99467,  -74821,  -15866,    4315,       0,       0,   80694,  -42496,   36713,   80778,  -42495,   35930,   80769,  -42606,   37493,   80712,  -42597,   37508,   81011,  -42729,   37558,   80850,  -42655,   37652,   80404,  -42338,   36259,   81203,  -42794,   37415
        21,          1000,   92979,  -14613,  -76409,   99583,  -73373,  -17462,    4315,       0,       0,   80671,  -40061,   34913,   80761,  -40063,   34133,   80736,  -40173,   35701,   80677,  -40164,   35710,   80973,  -40301,   35764,   80813,  -40224,   35857,   80389,  -39899,   34461,   81165,  -40369,   35619
        22,          1050,   92269,  -12746,  -77537,   99687,  -71916,  -19055,    4315,       0,       0,   80661,  -37687,   33150,   80756,  -37689,   32374,   80715,  -37800,   33944,   80655,  -37790,   33949,   80947,  -37931,   34005,   80789,  -37852,   34099,   80385,  -37519,   32700,   81140,  -38002,   33859
        23,          1100,   91526,  -10874,  -78637,   99771,  -70449,  -20640,    4315,       0,       0,   80662,  -35371,   31422,   80761,  -35375,   30650,   80707,  -35485,   32222,   80645,  -35475,   32221,   80934,  -35620,   32281,   80778,  -35538,   32374,   80393,  -35199,   30976,   81127,  -35694,   32133
        24,          1150,   90750,   -8999,  -79710,   99840,  -68968,  -22225,    4315,       0,       0,   80675,  -33112,   29728,   80779,  -33118,   28962,   80711,  -33227,   30532,   80648,  -33216,   30527,   80934,  -33366,   30590,   80779,  -33282,   30682,   80412,  -32936,   29285,   81127,  -33443,   30441
        25,          1200,   89942,   -7120,  -80754,   99901,  -67476,  -23814,    4315,       0,       0,   80700,  -30909,   28067,   80807,  -30917,   27306,   80727,  -31025,   28874,   80663,  -31013,   28865,   80945,  -31167,   28930,   80792,  -31081,   29022,   80442,  -30729,   27628,   81138,  -31247,   28780
        26,          1250,   89102,   -5239,  -81769,   99950,  -65973,  -25402,    4315,       0,       0,   80736,  -28761,   26437,   80847,  -28771,   25682,   80755,  -28878,   27247,   80690,  -28866,   27233,   80969,  -29024,   27301,   80817,  -28934,   27392,   80484,  -28578,   26002,   81162,  -29106,   27149
        27,          1300,   88231,   -3355,  -82755,   99982,  -64460,  -26985,    4315,       0,       0,   80783,  -26668,   24836,   80897,  -26679,   24089,   80794,  -26785,   25649,   80728,  -26772,   25630,   81004,  -26933,   25700,   80854,  -26842,   25791,   80536,  -26480,   24406,   81196,  -27018,   25547
        28,          1350,   87328,   -1471,  -83712,   99997,  -62935,  -28563,    4315,       0,       0,   80841,  -24627,   23264,   80958,  -24640,   22524,   80845,  -24744,   24079,   80777,  -24730,   24055,   81050,  -24896,   24127,   80902,  -24802,   24218,   80599,  -24436,   22840,   81243,  -24983,   23974
        29,          1400,   86394,     414,  -84639,   99999,  -61398,  -30141,    4315,       0,       0,   80909,  -22637,   21720,   81029,  -22653,   20988,   80907,  -22755,   22536,   80838,  -22741,   22507,   81108,  -22909,   22582,   80961,  -22814,   22671,   80673,  -22444,   21301,   81300,  -22999,   22427
        30,          1450,   85429,    2299,  -85536,   99986,  -59850,  -31716,    4315,       0,       0,   80988,  -20699,   20201,   81110,  -20716,   19478,   80979,  -20816,   21018,   80910,  -20801,   20984,   81177,  -20973,   21061,   81032,  -20876,   21149,   80756,  -20503,   19789,   81368,  -21065,   20905
        31,          1500,   84434,    4183,  -86403,   99956,  -58293,  -33286,    4315,       0,       0,   81077,  -18810,   18708,   81201,  -18829,   17994,   81062,  -18927,   19525,   80992,  -18912,   19486,   81256,  -19087,   19564,   81112,  -18987,   19652,   80850,  -18611,   18302,   81446,  -19181,   19408
        32,          1550,   83409,    6065,  -87239,   99908,  -56724,  -34850,    4315,       0,       0,   81176,  -16970,   17238,   81301,  -16991,   16534,   81156,  -17087,   18055,   81084,  -17070,   18011,   81345,  -17248,   18091,   81204,  -17147,   18178,   80953,  -16768,   16839,   81535,  -17345,   17933
        33,          1600,   82355,    7945,  -88044,   99843,  -55143,  -36410,    4315,       0,       0,   81284,  -15177,   15792,   81411,  -15200,   15098,   81259,  -15294,   16607,   81186,  -15277,   16558,   81445,  -15457,   16641,   81305,  -15355,   16726,   81065,  -14973,   15399,   81634,  -15556,   16482
        34,          1650,   81271,    9823,  -88817,   99762,  -53552,  -37964,    4315,       0,       0,   81402,  -13431,   14366,   81530,  -13456,   13683,   81372,  -13547,   15180,   81299,  -13529,   15127,   81554,  -13713,   15211,   81416,  -13608,   15295,   81187,  -13225,   13982,   81743,  -13813,   15051
        35,          1700,   80158,   11697,  -89559,   99662,  -51951,  -39512,    4315,       0,       0,   81528,  -11731,   12962,   81658,  -11758,   12290,   81495,  -11847,   13774,   81420,  -11828,   13716,   81673,  -12014,   13801,   81536,  -11908,   13885,   81318,  -11523,   12586,   81861,  -12116,   13641
        36,          1750,   79017,   13567,  -90270,   99543,  -50339,  -41052,    4315,       0,       0,   81664,  -10076,   11578,   81795,  -10104,   10917,   81627,  -10191,   12387,   81551,  -10171,   12325,   81801,  -10360,   12411,   81666,  -10252,   12494,   81457,   -9865,   11209,   81988,  -10464,   12250
        37,          1800,   77848,   15432,  -90948,   99405,  -48717,  -42585,    4315,       0,       0,   81808,   -8464,   10213,   81940,   -8494,    9564,   81767,   -8578,   11018,   81691,   -8558,   10952,   81939,   -8749,   11039,   81805,   -8640,   11121,   81605,   -8252,    9852,   82124,   -8855,   10878
        38,          1850,   76651,   17291,  -91594,   99248,  -47084,  -44111,    4315,       0,       0,   81961,   -6895,    8865,   82093,   -6927,    8228,   81916,   -7009,    9668,   81839,   -6988,    9596,   82084,   -7181,    9685,   81952,   -7071,    9765,   81761,   -6681,    8513,   82269,   -7289,    9523
        39,          1900,   75427,   19145,  -92207,   99072,  -45441,  -45628,    4315,       0,       0,   82121,   -5368,    7535,   82254,   -5402,    6911,   82074,   -5481,    8333,   81996,   -5460,    8258,   82239,   -5655,    8348,   82108,   -5543,    8427,   81924,   -5153,    7192,   82422,   -5764,    8185
        40,          1950,   74176,   20991,  -92788,   98874,  -43788,  -47136,    4315,       0,       0,   82289,   -3883,    6222,   82422,   -3918,    5610,   82240,   -3995,    7015,   82161,   -3972,    6936,   82401,   -4169,    7026,   82272,   -4057,    7104,   82096,   -3666,    5887,   82583,   -4281,    6863
        41,          2000,   72899,   22830,  -93336,   98656,  -42126,  -48634,    4315,       0,       0,   82465,   -2437,    4924,   82598,   -2474,    4325,   82413,   -2549,    5712,   82334,   -2526,    5629,   82571,   -2724,    5720,   82444,   -2611,    5796,   82275,   -2219,    4598,   82752,   -2837,    5556
        42,          2050,   71595,   24661,  -93850,   98417,  -40453,  -50123,    4315,       0,       0,   82648,   -1032,    3640,   82781,   -1070,    3054,   82594,   -1142,    4424,   82514,   -1118,    4336,   82749,   -1319,    4428,   82623,   -1204,    4503,   82461,    -812,    3324,   82929,   -1433,    4264
        43,          2100,   70267,   26484,  -94331,   98157,  -38771,  -51601,    4315,       0,       0,   82838,     336,    2371,   82971,     296,    1798,   82782,     226,    3149,   82701,     251,    3058,   82934,      49,    3150,   82810,     164,    3224,   82654,     556,    2065,   83112,     -67,    2986
        44,          2150,   68913,   28296,  -94779,   97875,  -37080,  -53067,    4315,       0,       0,   83035,    1665,    1116,   83168,    1624,     556,   82977,    1557,    1888,   82896,    1582,    1792,   83126,    1378,    1885,   83003,    1495,    1958,   82853,    1886,     819,   83303,    1261,    1720
        45,          2200,   67535,   30099,  -95193,   97570,  -35380,  -54521,    4315,       0,       0,   83238,    2958,    -127,   83370,    2915,    -673,   83179,    2850,     639,   83096,    2876,     539,   83325,    2671,     633,   83203,    2788,     704,   83059,    3180,    -415,   83500,    2552,     468
        46,          2250,   66133,   31891,  -95573,   97243,  -33670,  -55963,    4315,       0,       0,   83447,    4214,   -1358,   83579,    4169,   -1890,   83386,    4107,    -598,   83304,    4134,    -701,   83530,    3927,    -608,   83410,    4046,    -538,   83270,    4437,   -1636,   83703,    3808,    -773
        47,          2300,   64707,   33672,  -95919,   96893,  -31953,  -57393,    4315,       0,       0,   83662,    5435,   -2577,   83794,    5389,   -3095,   83600,    5329,   -1824,   83517,    5356,   -1931,   83741,    5149,   -1837,   83622,    5268,   -1768,   83488,    5659,   -2845,   83913,    5028,   -2002
        48,          2350,   63259,   35441,  -96232,   96519,  -30227,  -58808,    4315,       0,       0,   83882,    6621,   -3785,   84014,    6574,   -4289,   83820,    6516,   -3039,   83736,    6544,   -3149,   83958,    6335,   -3055,   83841,    6455,   -2988,   83711,    6846,   -4043,   84128,    6213,   -3221
        49,          2400,   61788,   37197,  -96510,   96122,  -28492,  -60209,    4315,       0,       0,   84108,    7773,   -4982,   84239,    7725,   -5473,   84045,    7669,   -4244,   83961,    7698,   -4357,   84180,    7488,   -4263,   84064,    7608,   -4197,   83939,    7999,   -5231,   84348,    7365,   -4429
        50,          2450,   60295,   38940,  -96753,   95702,  -26751,  -61596,    4315,       0,       0,   84339,    8893,   -6170,   84469,    8843,   -6646,   84275,    8790,   -5439,   84190,    8819,   -5555,   84407,    8608,   -5461,   84293,    8729,   -5397,   84172,    9118,   -6408,   84574,    8484,   -5628
