GTPPLOT creates from lv_network_l1c1b2f1.pl4,999,1999                           
33,33A, 0D
  1,SBUS A          V-node,A, , V,  1.97175288200378, -.09375         , 0.0,-99999, 99999,1.0,1.0,P
  2,SBUS B          V-node,B, , V,  1.97174656391144, -.0703125       , 0.0,-99999, 99999,1.0,1.0,P
  3,SBUS C          V-node,C, , V,  1.97173547744751, -.125           , 0.0,-99999, 99999,1.0,1.0,P
  4,SBUS A 1    A I-branch,A, , A,  .032842189073563, -121.93957519531, 0.0,-99999, 99999,1.0,1.0,P
  5,SBUS B 1    B I-branch,B, , A,  .041189339011908, 945.244018554688, 0.0,-99999, 99999,1.0,1.0,P
  6,SBUS C 1    C I-branch,C, , A,  .040722716599703, -909.09973144531, 0.0,-99999, 99999,1.0,1.0,P
  7,FAULTA        I-branch,A, , A,  .547842085361481, -2107.275390625 , 0.0,-99999, 99999,1.0,1.0,P
  8,FAULTB        I-branch,B, , A,  .686143219470978, 16104.05078125  , 0.0,-99999, 99999,1.0,1.0,P
  9,FAULTC        I-branch,C, , A,  .67856103181839 , -15521.662109375, 0.0,-99999, 99999,1.0,1.0,P
 10,TACS   PV001V I-branch,S, , A,  .002616245299578, 261.621917724609, 0.0,-99999, 99999,1.0,1.0,P
 11,TACS   PV001I I-branch,S, , A,  .007317073177546, 731.700012207031, 0.0,-99999, 99999,1.0,1.0,P
 12,TACS   PV001W I-branch,S, , A,  .103220023448E-3, 366.712524414063, 0.0,-99999, 99999,1.0,1.0,P
 13,TACS   PV002V I-branch,S, , A,  .002616916084662, 261.688995361328, 0.0,-99999, 99999,1.0,1.0,P
 14,TACS   PV002I I-branch,S, , A,  .007317073177546, 731.700012207031, 0.0,-99999, 99999,1.0,1.0,P
 15,TACS   PV002W I-branch,S, , A,  .102199657704E-3, 366.812622070313, 0.0,-99999, 99999,1.0,1.0,P
 16,TACS   PV003V I-branch,S, , A,  .002611531643197, 261.150543212891, 0.0,-99999, 99999,1.0,1.0,P
 17,TACS   PV003I I-branch,S, , A,  .007317073177546, 731.700012207031, 0.0,-99999, 99999,1.0,1.0,P
 18,TACS   PV003W I-branch,S, , A,  .127345323563E-3, 364.332946777344, 0.0,-99999, 99999,1.0,1.0,P
 19,TACS   PV004V I-branch,S, , A,  .002612216863781, 261.219085693359, 0.0,-99999, 99999,1.0,1.0,P
 20,TACS   PV004I I-branch,S, , A,  .007294327020645, 729.425415039063, 0.0,-99999, 99999,1.0,1.0,P
 21,TACS   PV004W I-branch,S, , A,  .103801547084E-3, 366.63623046875 , 0.0,-99999, 99999,1.0,1.0,P
 22,TACS   PV005V I-branch,S, , A,  .002606407972053, 260.63818359375 , 0.0,-99999, 99999,1.0,1.0,P
 23,TACS   PV005I I-branch,S, , A,  .007317073177546, 731.700012207031, 0.0,-99999, 99999,1.0,1.0,P
 24,TACS   PV005W I-branch,S, , A,  .127714287373E-3, 364.320404052734, 0.0,-99999, 99999,1.0,1.0,P
 25,TACS   PV006V I-branch,S, , A,  .002609509974718, 260.948394775391, 0.0,-99999, 99999,1.0,1.0,P
 26,TACS   PV006I I-branch,S, , A,  .007288520224392, 728.8447265625  , 0.0,-99999, 99999,1.0,1.0,P
 27,TACS   PV006W I-branch,S, , A,  .103957492684E-3, 366.622253417969, 0.0,-99999, 99999,1.0,1.0,P
 28,TACS   PV007V I-branch,S, , A,  .00262340856716 , 262.338226318359, 0.0,-99999, 99999,1.0,1.0,P
 29,TACS   PV007I I-branch,S, , A,  .007317073177546, 731.700012207031, 0.0,-99999, 99999,1.0,1.0,P
 30,TACS   PV007W I-branch,S, , A,  .101574347354E-3, 366.856018066406, 0.0,-99999, 99999,1.0,1.0,P
 31,TACS   PV008V I-branch,S, , A,  .002603726228699, 260.370025634766, 0.0,-99999, 99999,1.0,1.0,P
 32,TACS   PV008I I-branch,S, , A,  .007317073177546, 731.700012207031, 0.0,-99999, 99999,1.0,1.0,P
 33,TACS   PV008W I-branch,S, , A,  .104621409264E-3, 366.593780517578, 0.0,-99999, 99999,1.0,1.0,P
 50
1
     20000,  12001
10/10/2022,21:54:56.000000
10/10/2022,21:54:56.000000
ASCII 
    1.000000
         1,             0,   99998,  -50005,  -49995,    5254,  -24337,   22483,    3846,  -23471,   22874,  -99999,  -99999,   99579,  -99999,  -99999,   99593,  -99999,  -99999,   99400,  -99999,  -99999,   99756,  -99999,  -99999,   99211,  -99999,  -99999,   99740,  -99999,  -99999,   99779,  -99999,  -99999,   99380
         2,            50,   99980,  -48364,  -51618,    5274,  -24322,   22453,    3846,  -23471,   22874,   83470,  -98782,   99579,   83423,  -98782,   99593,   83801,  -98782,   99400,   83752,  -98778,   99756,   84162,  -98782,   99211,   83943,  -98777,   99740,   82969,  -98782,   99779,   84352,  -98782,   99380
         3,           100,   99927,  -46706,  -53223,    5292,  -24307,   22423,    3846,  -23471,   22874,   83335,  -96376,   98041,   83288,  -96376,   98045,   83662,  -96376,   98157,   83615,  -96364,   98228,   84019,  -96376,   97968,   83804,  -96361,   98218,   82841,  -96376,   98229,   84207,  -96376,   97860
         4,           150,   99840,  -45031,  -54811,    5306,  -24291,   22395,    3846,  -23471,   22874,   83057,  -94026,   95013,   83014,  -94026,   94995,   83372,  -94026,   95710,   83328,  -94007,   95220,   83721,  -94026,   95520,   83513,  -94003,   95219,   82583,  -94026,   95175,   83906,  -94026,   94867
         5,           200,   99717,  -43340,  -56379,    5315,  -24274,   22372,    3846,  -23471,   22874,   82777,  -91731,   92067,   82744,  -91731,   92027,   83074,  -91731,   93330,   83031,  -91705,   92293,   83414,  -91730,   93139,   83211,  -91698,   92302,   82325,  -91732,   92205,   83598,  -91730,   91954
         6,           250,   99557,  -41634,  -57926,    5320,  -24258,   22351,    3846,  -23471,   22874,   82527,  -89489,   89192,   82507,  -89489,   89131,   82805,  -89488,   91008,   82761,  -89455,   89437,   83136,  -89487,   90815,   82938,  -89447,   89456,   82092,  -89490,   89308,   83320,  -89487,   89112
         7,           300,   99362,  -39913,  -59451,    5326,  -24241,   22329,    3846,  -23471,   22874,   82299,  -87299,   86387,   82289,  -87300,   86306,   82558,  -87297,   88741,   82513,  -87258,   86650,   82880,  -87296,   88546,   82686,  -87247,   86677,   81878,  -87301,   86483,   83065,  -87296,   86336
         8,           350,   99131,  -38177,  -60956,    5333,  -24224,   22306,    3846,  -23471,   22874,   82087,  -85160,   83649,   82087,  -85162,   83551,   82328,  -85157,   86530,   82283,  -85111,   83930,   82644,  -85156,   86332,   82452,  -85099,   83965,   81678,  -85164,   83728,   82829,  -85156,   83627
         9,           400,   98866,  -36428,  -62440,    5340,  -24207,   22283,    3846,  -23471,   22874,   81890,  -83071,   80978,   81898,  -83073,   80864,   82114,  -83067,   84371,   82068,  -83015,   81276,   82423,  -83065,   84171,   82234,  -83000,   81319,   81492,  -83076,   81041,   82609,  -83065,   80982
        10,           450,   98566,  -34666,  -63901,    5346,  -24190,   22261,    3846,  -23471,   22874,   81707,  -81032,   78372,   81723,  -81034,   78243,   81915,  -81026,   82265,   81868,  -80967,   78685,   82217,  -81023,   82062,   82031,  -80951,   78735,   81320,  -81038,   78420,   82404,  -81023,   78401
        11,           500,   98230,  -32892,  -65339,    5351,  -24172,   22239,    3846,  -23471,   22874,   81539,  -79040,   75827,   81564,  -79044,   75685,   81732,  -79033,   80207,   81684,  -78968,   76155,   82028,  -79029,   80002,   81845,  -78949,   76212,   81164,  -79047,   75861,   82215,  -79029,   75880
        12,           550,   97859,  -31106,  -66755,    5357,  -24154,   22216,    3846,  -23471,   22874,   81388,  -77095,   73341,   81420,  -77100,   73187,   81566,  -77086,   78198,   81517,  -77015,   73683,   81855,  -77082,   77989,   81675,  -76995,   73747,   81023,  -77104,   73363,   82043,  -77082,   73417
        13,           600,   97454,  -29309,  -68146,    5362,  -24136,   22193,    3846,  -23471,   22874,   81250,  -75197,   70914,   81289,  -75202,   70748,   81414,  -75186,   76234,   81365,  -75109,   71268,   81697,  -75181,   76022,   81519,  -75087,   71338,   80895,  -75207,   70923,   81886,  -75180,   71010
        14,           650,   97014,  -27502,  -69514,    5367,  -24118,   22171,    3846,  -23471,   22874,   81126,  -73343,   68542,   81171,  -73350,   68366,   81277,  -73330,   74316,   81227,  -73247,   68908,   81554,  -73324,   74100,   81379,  -73223,   68984,   80781,  -73355,   68541,   81743,  -73324,   68657
        15,           700,   96539,  -25685,  -70856,    5372,  -24099,   22148,    3846,  -23471,   22874,   81017,  -71534,   66224,   81068,  -71541,   66038,   81155,  -71519,   72440,   81104,  -71430,   66601,   81426,  -71512,   72221,   81253,  -71404,   66683,   80681,  -71548,   66213,   81615,  -71511,   66357
        16,           750,   96030,  -23859,  -72174,    5376,  -24081,   22126,    3846,  -23471,   22874,   80921,  -69768,   63957,   80978,  -69776,   63763,   81048,  -69750,   70606,   80996,  -69656,   64344,   81313,  -69742,   70382,   81143,  -69628,   64431,   80595,  -69783,   63937,   81502,  -69742,   64107
        17,           800,   95488,  -22024,  -73465,    5381,  -24062,   22103,    3846,  -23471,   22874,   80840,  -68044,   61739,   80901,  -68054,   61538,   80955,  -68024,   68811,   80902,  -67925,   62135,   81214,  -68015,   68583,   81046,  -67895,   62228,   80521,  -68062,   61712,   81404,  -68015,   61905
        18,           850,   94911,  -20182,  -74731,    5385,  -24043,   22080,    3846,  -23471,   22874,   80771,  -66362,   59570,   80838,  -66373,   59363,   80875,  -66340,   67054,   80821,  -66235,   59974,   81130,  -66329,   66823,   80964,  -66203,   60072,   80461,  -66381,   59536,   81319,  -66329,   59749
        19,           900,   94300,  -18332,  -75970,    5389,  -24023,   22058,    3846,  -23471,   22874,   80716,  -64720,   57447,   80787,  -64733,   57234,   80810,  -64695,   65335,   80755,  -64585,   57858,   81059,  -64684,   65099,   80896,  -64552,   57960,   80413,  -64742,   57406,   81248,  -64684,   57639
        20,           950,   93656,  -16476,  -77182,    5392,  -24004,   22035,    3846,  -23471,   22874,   80674,  -63118,   55368,   80749,  -63132,   55150,   80758,  -63091,   63651,   80702,  -62976,   55786,   81002,  -63079,   63410,   80841,  -62941,   55892,   80379,  -63143,   55322,   81191,  -63079,   55572
        21,          1000,   92979,  -14614,  -78367,    5395,  -23984,   22013,    3846,  -23471,   22874,   80644,  -61556,   53331,   80723,  -61571,   53110,   80719,  -61526,   62001,   80663,  -61406,   53755,   80958,  -61512,   61756,   80800,  -61369,   53866,   80357,  -61582,   53281,   81147,  -61512,   53547
        22,          1050,   92269,  -12747,  -79524,    5398,  -23964,   21990,    3846,  -23471,   22874,   80628,  -60032,   51335,   80710,  -60048,   51111,   80693,  -59999,   60383,   80637,  -59874,   51764,   80927,  -59984,   60133,   80771,  -59835,   51879,   80346,  -60060,   51281,   81116,  -59984,   51560
        23,          1100,   91525,  -10875,  -80653,    5401,  -23944,   21968,    3846,  -23471,   22874,   80623,  -58545,   49378,   80708,  -58563,   49153,   80680,  -58509,   58797,   80623,  -58379,   49812,   80910,  -58493,   58542,   80756,  -58339,   49930,   80348,  -58575,   49322,   81098,  -58493,   49613
        24,          1150,   90750,   -8999,  -81753,    5403,  -23924,   21945,    3846,  -23471,   22874,   80630,  -57095,   47459,   80719,  -57114,   47232,   80680,  -57056,   57240,   80622,  -56922,   47896,   80905,  -57038,   56981,   80753,  -56879,   48018,   80362,  -57128,   47400,   81093,  -57039,   47702
        25,          1200,   89942,   -7120,  -82824,    5405,  -23903,   21923,    3846,  -23471,   22874,   80650,  -55681,   45576,   80741,  -55701,   45349,   80692,  -55639,   55713,   80634,  -55500,   46016,   80912,  -55620,   55449,   80763,  -55456,   46141,   80388,  -55716,   45516,   81100,  -55620,   45826
        26,          1250,   89102,   -5239,  -83865,    5407,  -23882,   21901,    3846,  -23471,   22874,   80681,  -54302,   43728,   80774,  -54324,   43500,   80716,  -54258,   54213,   80657,  -54114,   44170,   80932,  -54237,   53944,   80785,  -54068,   44298,   80424,  -54339,   43667,   81119,  -54237,   43983
        27,          1300,   88231,   -3356,  -84877,    5408,  -23862,   21879,    3846,  -23471,   22874,   80723,  -52958,   41913,   80819,  -52981,   41686,   80752,  -52910,   52740,   80692,  -52762,   42357,   80964,  -52888,   52466,   80819,  -52715,   42487,   80472,  -52997,   41851,   81150,  -52888,   42173
        28,          1350,   87328,   -1472,  -85858,    5409,  -23840,   21856,    3846,  -23471,   22874,   80777,  -51647,   40129,   80874,  -51672,   39904,   80800,  -51597,   51292,   80739,  -51445,   40574,   81007,  -51573,   51013,   80864,  -51396,   40707,   80531,  -51689,   40068,   81192,  -51574,   40394
        29,          1400,   86394,     413,  -86809,    5410,  -23819,   21834,    3846,  -23471,   22874,   80841,  -50370,   38376,   80940,  -50396,   38153,   80858,  -50317,   49869,   80797,  -50160,   38822,   81061,  -50292,   49584,   80920,  -50110,   38957,   80601,  -50415,   38316,   81246,  -50292,   38645
        30,          1450,   85429,    2298,  -87730,    5410,  -23798,   21812,    3846,  -23471,   22874,   80916,  -49125,   36652,   81017,  -49153,   36432,   80928,  -49069,   48468,   80866,  -48909,   37098,   81127,  -49043,   48178,   80988,  -48856,   37235,   80680,  -49172,   36593,   81310,  -49043,   36923
        31,          1500,   84434,    4182,  -88619,    5410,  -23776,   21791,    3846,  -23471,   22874,   81002,  -47912,   34956,   81103,  -47941,   34739,   81008,  -47853,   47090,   80946,  -47689,   35401,   81203,  -47825,   46794,   81067,  -47635,   35540,   80770,  -47962,   34899,   81386,  -47825,   35230
        32,          1550,   83409,    6065,  -89476,    5410,  -23754,   21769,    3846,  -23471,   22874,   81097,  -46730,   33286,   81200,  -46761,   33073,   81099,  -46668,   45732,   81036,  -46500,   33730,   81290,  -46639,   45432,   81155,  -46445,   33871,   80870,  -46782,   33232,   81472,  -46639,   33561
        33,          1600,   82355,    7945,  -90302,    5409,  -23732,   21747,    3846,  -23471,   22874,   81202,  -45579,   31642,   81306,  -45611,   31433,   81200,  -45514,   44396,   81136,  -45342,   32085,   81387,  -45483,   44089,   81255,  -45285,   32227,   80980,  -45633,   31591,   81568,  -45483,   31918
        34,          1650,   81271,    9822,  -91096,    5408,  -23710,   21726,    3846,  -23471,   22874,   81317,  -44458,   30022,   81422,  -44491,   29818,   81311,  -44390,   43078,   81246,  -44214,   30463,   81495,  -44357,   42766,   81364,  -44156,   30606,   81099,  -44514,   29974,   81674,  -44357,   30298
        35,          1700,   80158,   11696,  -91857,    5407,  -23688,   21704,    3846,  -23471,   22874,   81441,  -43366,   28425,   81547,  -43400,   28226,   81432,  -43295,   41779,   81366,  -43116,   28864,   81612,  -43261,   41462,   81483,  -43056,   29008,   81227,  -43425,   28381,   81790,  -43261,   28701
        36,          1750,   79017,   13566,  -92586,    5405,  -23666,   21683,    3846,  -23471,   22874,   81575,  -42302,   26850,   81680,  -42338,   26657,   81562,  -42229,   40497,   81496,  -42046,   27286,   81738,  -42193,   40175,   81611,  -41985,   27431,   81364,  -42364,   26810,   81915,  -42193,   27125
        37,          1800,   77848,   15431,  -93281,    5403,  -23643,   21662,    3846,  -23471,   22874,   81717,  -41267,   25297,   81823,  -41304,   25110,   81701,  -41191,   39233,   81634,  -41005,   25730,   81873,  -41154,   38904,   81748,  -40942,   25876,   81510,  -41331,   25261,   82049,  -41153,   25570
        38,          1850,   76651,   17291,  -93944,    5400,  -23620,   21641,    3846,  -23471,   22874,   81867,  -40260,   23763,   81973,  -40297,   23583,   81848,  -40181,   37984,   81781,  -39991,   24193,   82018,  -40142,   37650,   81894,  -39927,   24339,   81664,  -40326,   23732,   82192,  -40141,   24034
        39,          1900,   75427,   19144,  -94573,    5397,  -23597,   21620,    3846,  -23471,   22874,   82026,  -39279,   22249,   82132,  -39318,   22075,   82004,  -39197,   36751,   81936,  -39004,   22675,   82171,  -39157,   36411,   82049,  -38939,   22821,   81826,  -39348,   22223,   82344,  -39156,   22517
        40,          1950,   74176,   20991,  -95169,    5394,  -23574,   21600,    3846,  -23471,   22874,   82193,  -38325,   20753,   82299,  -38365,   20586,   82169,  -38240,   35532,   82100,  -38044,   21175,   82332,  -38198,   35187,   82212,  -37977,   21322,   81996,  -38396,   20733,   82504,  -38197,   21018
        41,          2000,   72899,   22830,  -95731,    5390,  -23551,   21580,    3846,  -23471,   22874,   82367,  -37396,   19275,   82473,  -37437,   19115,   82341,  -37309,   34327,   82272,  -37110,   19692,   82501,  -37265,   33976,   82382,  -37042,   19839,   82174,  -37470,   19260,   82671,  -37264,   19536
        42,          2050,   71596,   24661,  -96259,    5386,  -23528,   21559,    3846,  -23471,   22874,   82549,  -36493,   17813,   82655,  -36535,   17660,   82521,  -36404,   33135,   82451,  -36201,   18225,   82677,  -36358,   32779,   82561,  -36131,   18372,   82358,  -36569,   17804,   82846,  -36357,   18070
        43,          2100,   70267,   26483,  -96752,    5381,  -23504,   21539,    3846,  -23471,   22874,   82738,  -35615,   16367,   82843,  -35658,   16222,   82708,  -35523,   31955,   82638,  -35318,   16774,   82862,  -35476,   31594,   82746,  -35246,   16921,   82550,  -35693,   16364,   83029,  -35474,   16619
        44,          2150,   68913,   28296,  -97211,    5376,  -23481,   21519,    3846,  -23471,   22874,   82933,  -34761,   14935,   83039,  -34805,   14799,   82902,  -34666,   30788,   82831,  -34458,   15338,   83053,  -34617,   30422,   82939,  -34386,   15484,   82749,  -34841,   14939,   83219,  -34615,   15184
        45,          2200,   67535,   30099,  -97636,    5371,  -23457,   21500,    3846,  -23471,   22874,   83135,  -33931,   13519,   83240,  -33976,   13390,   83103,  -33833,   29632,   83032,  -33623,   13916,   83251,  -33783,   29260,   83139,  -33549,   14061,   82953,  -34013,   13529,   83415,  -33781,   13762
        46,          2250,   66133,   31891,  -98026,    5365,  -23433,   21480,    3846,  -23471,   22874,   83344,  -33124,   12116,   83448,  -33169,   11995,   83310,  -33024,   28487,   83238,  -32810,   12507,   83455,  -32972,   28110,   83344,  -32735,   12652,   83165,  -33208,   12133,   83618,  -32969,   12353
        47,          2300,   64708,   33671,  -98381,    5359,  -23409,   21461,    3846,  -23471,   22874,   83558,  -32339,   10726,   83662,  -32386,   10613,   83524,  -32237,   27353,   83451,  -32021,   11112,   83665,  -32184,   26970,   83557,  -31945,   11255,   83381,  -32426,   10749,   83827,  -32181,   10958
        48,          2350,   63259,   35440,  -98702,    5352,  -23385,   21442,    3846,  -23471,   22874,   83778,  -31577,    9348,   83881,  -31625,    9244,   83743,  -31473,   26228,   83670,  -31254,    9728,   83882,  -31418,   25840,   83774,  -31177,    9871,   83604,  -31666,    9378,   84041,  -31415,    9574
        49,          2400,   61788,   37196,  -98987,    5345,  -23361,   21424,    3846,  -23471,   22874,   84003,  -30837,    7982,   84106,  -30885,    7887,   83968,  -30730,   25112,   83894,  -30509,    8356,   84104,  -30673,   24719,   83998,  -30430,    8498,   83832,  -30928,    8019,   84261,  -30670,    8203
        50,          2450,   60295,   38939,  -99237,    5337,  -23337,   21405,    3846,  -23471,   22874,   84234,  -30118,    6628,   84335,  -30167,    6541,   84198,  -30009,   24006,   84124,  -29785,    6996,   84331,  -29951,   23607,   84227,  -29705,    7136,   84064,  -30211,    6672,   84487,  -29947,    6842
