GTPPLOT creates from ieee13_pv_l3c1b1f2.pl4,999,1999                            
24,24A, 0D
  1,SBUS A          V-node,A, , V,  .938864946365356, 0.0             , 0.0,-99999, 99999,1.0,1.0,P
  2,SBUS B          V-node,B, , V,  .938883006572723, -.00390625      , 0.0,-99999, 99999,1.0,1.0,P
  3,SBUS C          V-node,C, , V,  .939439058303833, 59.51953125     , 0.0,-99999, 99999,1.0,1.0,P
  4,SBUS A 22   A I-branch,A, , A,  .248568539973E-3, .71274471282959 , 0.0,-99999, 99999,1.0,1.0,P
  5,SBUS B 22   B I-branch,B, , A,  .267557159532E-3, .062755584716797, 0.0,-99999, 99999,1.0,1.0,P
  6,SBUS C 22   C I-branch,C, , A,  .301585707348E-3, -.19399070739746, 0.0,-99999, 99999,1.0,1.0,P
  7,FAULTA        I-branch,A, , A,  1.11827111244202, -14297.45703125 , 0.0,-99999, 99999,1.0,1.0,P
  8,FAULTB        I-branch,B, , A,  0.0             , 0.0             , 0.0,-99999, 99999,1.0,1.0,P
  9,FAULTC        I-branch,C, , A,  0.0             , 0.0             , 0.0,-99999, 99999,1.0,1.0,P
 10,TACS   PV001V I-branch,S, , A,  .001350520993583, 135.050750732422, 0.0,-99999, 99999,1.0,1.0,P
 11,TACS   PV001I I-branch,S, , A,  .111705398012E-3, 11.170428276062 , 0.0,-99999, 99999,1.0,1.0,P
 12,TACS   PV001W I-branch,S, , A,  .00231462251395 , 231.459945678711, 0.0,-99999, 99999,1.0,1.0,P
 13,TACS   PV002V I-branch,S, , A,  .002461063442752, 246.103881835938, 0.0,-99999, 99999,1.0,1.0,P
 14,TACS   PV002I I-branch,S, , A,  .365896325093E-3, 36.5892677307129, 0.0,-99999, 99999,1.0,1.0,P
 15,TACS   PV002W I-branch,S, , A,  .279418691207E-4, 377.253295898438, 0.0,-99999, 99999,1.0,1.0,P
 16,TACS   ST001V I-branch,S, , A,  .002461063442752, 246.103881835938, 0.0,-99999, 99999,1.0,1.0,P
 17,TACS   ST001I I-branch,S, , A,  .668256659992E-3, 66.8249969482422, 0.0,-99999, 99999,1.0,1.0,P
 18,TACS   ST001W I-branch,S, , A,  .279418691207E-4, 377.253295898438, 0.0,-99999, 99999,1.0,1.0,P
 19,TACS   ST002V I-branch,S, , A,  .001350520993583, 135.050750732422, 0.0,-99999, 99999,1.0,1.0,P
 20,TACS   ST002I I-branch,S, , A,  .133483568789E-3, 13.3482236862183, 0.0,-99999, 99999,1.0,1.0,P
 21,TACS   ST002W I-branch,S, , A,  .00231462251395 , 231.459945678711, 0.0,-99999, 99999,1.0,1.0,P
 22,TACS   ST003V I-branch,S, , A,  .002461063442752, 246.103881835938, 0.0,-99999, 99999,1.0,1.0,P
 23,TACS   ST003I I-branch,S, , A,  .60982722789E-3 , 60.9821128845215, 0.0,-99999, 99999,1.0,1.0,P
 24,TACS   ST003W I-branch,S, , A,  .279418691207E-4, 377.253295898438, 0.0,-99999, 99999,1.0,1.0,P
 50
1
     20000,  12001
06/10/2022,20:28:13.000000
06/10/2022,20:28:13.000000
ASCII 
    1.000000
         1,             0,   86607,     -17,  -86602,   99999,  -34372,  -53855,   12785,       0,       0,  -99999,  -99999,  -99999,  -99999,  -99999,   -9385,  -99999,  -99999,   -9385,  -99999,  -99999,  -99999,  -99999,  -99999,   -9385
         2,            50,   85650,    1868,  -87529,   99980,  -32479,  -55519,   12785,       0,       0,  -99983,  -97048,   62874,   95038,  -98051,   -9385,   95038,  -97777,   -9385,  -99983,  -97529,   62874,   95038,  -98051,   -9385
         3,           100,   84662,    3752,  -88425,   99914,  -30573,  -57155,   12785,       0,       0,  -99643,  -91217,   62874,   95030,  -94203,   -9602,   95030,  -93388,   -9602,  -99643,  -92650,   62874,   95030,  -94203,   -9602
         4,           150,   83644,    5635,  -89289,   99784,  -28657,  -58748,   12785,       0,       0,  -98929,  -85530,   62684,   95050,  -90450,   -9932,   95050,  -89107,   -9932,  -98929,  -87891,   62684,   95050,  -90450,   -9932
         5,           200,   82597,    7515,  -90122,   99594,  -26731,  -60300,   12785,       0,       0,  -98210,  -79983,   62392,   95093,  -86791,  -10151,   95093,  -84932,  -10151,  -98210,  -83249,   62392,   95093,  -86791,  -10151
         6,           250,   81519,    9394,  -90923,   99358,  -24796,  -61822,   12785,       0,       0,  -97497,  -74574,   62198,   95148,  -83223,  -10362,   95148,  -80862,  -10362,  -97497,  -78722,   62198,   95148,  -83223,  -10362
         7,           300,   80413,   11268,  -91691,   99082,  -22854,  -63318,   12785,       0,       0,  -96808,  -69298,   62021,   95209,  -79744,  -10562,   95209,  -76893,  -10562,  -96808,  -74307,   62021,   95209,  -79744,  -10562
         8,           350,   79279,   13139,  -92427,   98768,  -20906,  -64788,   12785,       0,       0,  -96147,  -64152,   61852,   95271,  -76352,  -10751,   95271,  -73024,  -10751,  -96147,  -70001,   61852,   95271,  -76352,  -10751
         9,           400,   78116,   15005,  -93129,   98416,  -18952,  -66231,   12785,       0,       0,  -95516,  -59134,   61690,   95335,  -73045,  -10927,   95335,  -69252,  -10927,  -95516,  -65801,   61690,   95335,  -73045,  -10927
        10,           450,   76925,   16866,  -93799,   98028,  -16993,  -67649,   12785,       0,       0,  -94914,  -54239,   61533,   95398,  -69821,  -11091,   95398,  -65574,  -11091,  -94914,  -61705,   61533,   95398,  -69821,  -11091
        11,           500,   75707,   18721,  -94436,   97601,  -15031,  -69038,   12785,       0,       0,  -94343,  -49465,   61381,   95461,  -66678,  -11242,   95461,  -61989,  -11242,  -94343,  -57710,   61381,   95461,  -66678,  -11242
        12,           550,   74462,   20569,  -95039,   97137,  -13065,  -70400,   12785,       0,       0,  -93802,  -44809,   61233,   95525,  -63613,  -11384,   95525,  -58494,  -11384,  -93802,  -53813,   61233,   95525,  -63613,  -11384
        13,           600,   73191,   22410,  -95608,   96636,  -11096,  -71733,   12785,       0,       0,  -93291,  -40268,   61091,   95589,  -60626,  -11515,   95589,  -55086,  -11515,  -93291,  -50013,   61091,   95589,  -60626,  -11515
        14,           650,   71894,   24243,  -96144,   96097,   -9126,  -73037,   12785,       0,       0,  -92810,  -35839,   60953,   95653,  -57714,  -11638,   95653,  -51764,  -11638,  -92810,  -46307,   60953,   95653,  -57714,  -11638
        15,           700,   70571,   26067,  -96645,   95521,   -7154,  -74311,   12785,       0,       0,  -92358,  -31519,   60820,   95717,  -54875,  -11752,   95717,  -48525,  -11752,  -92358,  -42692,   60820,   95717,  -54875,  -11752
        16,           750,   69223,   27882,  -97112,   94909,   -5183,  -75556,   12785,       0,       0,  -91936,  -27307,   60693,   95781,  -52107,  -11858,   95781,  -45368,  -11858,  -91936,  -39167,   60693,   95781,  -52107,  -11858
        17,           800,   67851,   29688,  -97544,   94260,   -3212,  -76770,   12785,       0,       0,  -91543,  -23198,   60571,   95846,  -49409,  -11958,   95846,  -42291,  -11958,  -91543,  -35728,   60571,   95846,  -49409,  -11958
        18,           850,   66454,   31482,  -97942,   93577,   -1242,  -77954,   12785,       0,       0,  -91179,  -19190,   60455,   95910,  -46779,  -12049,   95910,  -39290,  -12049,  -91179,  -32375,   60455,   95910,  -46779,  -12049
        19,           900,   65034,   33266,  -98305,   92859,     724,  -79107,   12785,       0,       0,  -90845,  -15282,   60346,   95975,  -44215,  -12137,   95975,  -36365,  -12137,  -90845,  -29104,   60346,   95975,  -44215,  -12137
        20,           950,   63590,   35037,  -98633,   92108,    2688,  -80230,   12785,       0,       0,  -90539,  -11470,   60243,   96040,  -41715,  -12218,   96040,  -33514,  -12218,  -90539,  -25914,   60243,   96040,  -41715,  -12218
        21,          1000,   62124,   36796,  -98926,   91325,    4646,  -81322,   12785,       0,       0,  -90262,   -7752,   60147,   96105,  -39279,  -12294,   96105,  -30735,  -12294,  -90262,  -22802,   60147,   96105,  -39279,  -12294
        22,          1050,   60636,   38542,  -99184,   90510,    6600,  -82383,   12785,       0,       0,  -90014,   -4126,   60059,   96170,  -36904,  -12365,   96170,  -28026,  -12365,  -90014,  -19768,   60059,   96170,  -36904,  -12365
        23,          1100,   59127,   40275,  -99406,   89664,    8547,  -83414,   12785,       0,       0,  -89793,    -589,   59979,   96236,  -34589,  -12433,   96236,  -25385,  -12433,  -89793,  -16808,   59979,   96236,  -34589,  -12433
        24,          1150,   57596,   41993,  -99594,   88789,   10487,  -84414,   12785,       0,       0,  -89601,    2860,   59908,   96301,  -32332,  -12495,   96301,  -22811,  -12495,  -89601,  -13922,   59908,   96301,  -32332,  -12495
        25,          1200,   56045,   43696,  -99746,   87886,   12418,  -85383,   12785,       0,       0,  -89437,    6224,   59846,   96366,  -30133,  -12555,   96366,  -20302,  -12555,  -89437,  -11107,   59846,   96366,  -30133,  -12555
        26,          1250,   54474,   45384,  -99863,   86955,   14341,  -86321,   12785,       0,       0,  -89300,    9505,   59795,   96431,  -27989,  -12611,   96431,  -17857,  -12611,  -89300,   -8361,   59795,   96431,  -27989,  -12611
        27,          1300,   52884,   47055,  -99944,   85997,   16255,  -87229,   12785,       0,       0,  -89190,   12705,   59755,   96497,  -25899,  -12663,   96497,  -15473,  -12663,  -89190,   -5683,   59755,   96497,  -25899,  -12663
        28,          1350,   51275,   48710,  -99989,   85013,   18157,  -88107,   12785,       0,       0,  -89107,   15826,   59727,   96562,  -23862,  -12713,   96562,  -13149,  -12713,  -89107,   -3072,   59727,   96562,  -23862,  -12713
        29,          1400,   49647,   50347,  -99999,   84005,   20049,  -88954,   12785,       0,       0,  -89051,   18869,   59712,   96627,  -21877,  -12760,   96627,  -10885,  -12760,  -89051,    -524,   59712,   96627,  -21877,  -12760
        30,          1450,   48002,   51967,  -99974,   82972,   21929,  -89770,   12785,       0,       0,  -89020,   21838,   59712,   96691,  -19942,  -12805,   96691,   -8677,  -12805,  -89020,    1960,   59712,   96691,  -19942,  -12805
        31,          1500,   46340,   53568,  -99913,   81915,   23797,  -90556,   12785,       0,       0,  -89016,   24734,   59728,   96756,  -18056,  -12848,   96756,   -6526,  -12848,  -89016,    4383,   59728,   96756,  -18056,  -12848
        32,          1550,   44662,   55150,  -99817,   80835,   25652,  -91312,   12785,       0,       0,  -89037,   27558,   59761,   96820,  -16218,  -12888,   96820,   -4429,  -12888,  -89037,    6746,   59761,   96820,  -16218,  -12888
        33,          1600,   42967,   56713,  -99685,   79732,   27494,  -92037,   12785,       0,       0,  -89083,   30312,   59813,   96884,  -14426,  -12928,   96884,   -2386,  -12928,  -89083,    9051,   59813,   96884,  -14426,  -12928
        34,          1650,   41258,   58255,  -99518,   78607,   29322,  -92731,   12785,       0,       0,  -89153,   32998,   59887,   96948,  -12680,  -12966,   96948,    -394,  -12966,  -89153,   11299,   59887,   96948,  -12680,  -12966
        35,          1700,   39533,   59777,  -99315,   77460,   31136,  -93395,   12785,       0,       0,  -89246,   35618,   59984,   97012,  -10979,  -13003,   97012,    1547,  -13003,  -89246,   13491,   59984,   97012,  -10979,  -13003
        36,          1750,   37795,   61277,  -99078,   76292,   32935,  -94029,   12785,       0,       0,  -89363,   38173,   60108,   97075,   -9320,  -13039,   97075,    3439,  -13039,  -89363,   15630,   60108,   97075,   -9320,  -13039
        37,          1800,   36043,   62756,  -98805,   75102,   34719,  -94631,   12785,       0,       0,  -89502,   40665,   60262,   97138,   -7704,  -13076,   97138,    5282,  -13076,  -89502,   17715,   60262,   97138,   -7704,  -13076
        38,          1850,   34279,   64212,  -98497,   73892,   36488,  -95202,   12785,       0,       0,  -89663,   43096,   60449,   97201,   -6129,  -13112,   97201,    7079,  -13112,  -89663,   19749,   60449,   97201,   -6129,  -13112
        39,          1900,   32502,   65646,  -98154,   72661,   38241,  -95743,   12785,       0,       0,  -89844,   45466,   60675,   97263,   -4594,  -13149,   97263,    8830,  -13149,  -89844,   21733,   60675,   97263,   -4594,  -13149
        40,          1950,   30714,   67056,  -97776,   71409,   39978,  -96252,   12785,       0,       0,  -90044,   47778,   60944,   97325,   -3098,  -13186,   97325,   10536,  -13186,  -90044,   23668,   60944,   97325,   -3098,  -13186
        41,          2000,   28914,   68442,  -97363,   70136,   41698,  -96729,   12785,       0,       0,  -90262,   50033,   61264,   97387,   -1641,  -13226,   97387,   12199,  -13226,  -90262,   25555,   61264,   97387,   -1641,  -13226
        42,          2050,   27105,   69804,  -96916,   68844,   43401,  -97175,   12785,       0,       0,  -90497,   52232,   61641,   97448,    -220,  -13266,   97448,   13819,  -13266,  -90497,   27395,   61641,   97448,    -220,  -13266
        43,          2100,   25286,   71141,  -96434,   67531,   45088,  -97589,   12785,       0,       0,  -90746,   54377,   62086,   97508,    1164,  -13309,   97508,   15398,  -13309,  -90746,   29190,   62086,   97508,    1164,  -13309
        44,          2150,   23458,   72453,  -95919,   66198,   46756,  -97971,   12785,       0,       0,  -91007,   56469,   62611,   97569,    2513,  -13354,   97569,   16937,  -13354,  -91007,   30941,   62611,   97569,    2513,  -13354
        45,          2200,   21621,   73740,  -95369,   64846,   48407,  -98321,   12785,       0,       0,  -91276,   58510,   63228,   97629,    3827,  -13400,   97629,   18436,  -13400,  -91276,   32648,   63228,   97629,    3827,  -13400
        46,          2250,   19777,   75000,  -94785,   63474,   50039,  -98638,   12785,       0,       0,  -91551,   60500,   63958,   97688,    5108,  -13451,   97688,   19897,  -13451,  -91551,   34314,   63958,   97688,    5108,  -13451
        47,          2300,   17926,   76233,  -94168,   62084,   51652,  -98923,   12785,       0,       0,  -91825,   62440,   64820,   97747,    6356,  -13504,   97747,   21321,  -13504,  -91825,   35938,   64820,   97747,    6356,  -13504
        48,          2350,   16068,   77439,  -93517,   60674,   53245,  -99175,   12785,       0,       0,  -92091,   64333,   65843,   97806,    7572,  -13560,   97806,   22708,  -13560,  -92091,   37522,   65843,   97806,    7572,  -13560
        49,          2400,   14205,   78618,  -92833,   59247,   54817,  -99394,   12785,       0,       0,  -92341,   66179,   67058,   97864,    8757,  -13620,   97864,   24060,  -13620,  -92341,   39067,   67058,   97864,    8757,  -13620
        50,          2450,   12337,   79769,  -92116,   57803,   56368,  -99579,   12785,       0,       0,  -92560,   67980,   68502,   97922,    9912,  -13683,   97922,   25377,  -13683,  -92560,   40574,   68502,   97922,    9912,  -13683
        51,          2500,   10464,   80891,  -91366,   56342,   57897,  -99731,   12785,       0,       0,  -92732,   69736,   70214,   97979,   11037,  -13751,   97979,   26660,  -13751,  -92732,   42043,   70214,   97979,   11037,  -13751
        52,          2550,    8588,   81985,  -90584,   54865,   59402,  -99849,   12785,       0,       0,  -92836,   71449,   72224,   98035,   12133,  -13821,   98035,   27910,  -13821,  -92836,   43477,   72224,   98035,   12133,  -13821
        53,          2600,    6708,   83050,  -89770,   53373,   60883,  -99933,   12785,       0,       0,  -92844,   73119,   74541,   98092,   13200,  -13895,   98092,   29128,  -13895,  -92844,   44875,   74541,   98092,   13200,  -13895
        54,          2650,    4827,   84085,  -88924,   51867,   62338,  -99983,   12785,       0,       0,  -92729,   74749,   77126,   98147,   14241,  -13972,   98147,   30315,  -13972,  -92729,   46238,   77126,   98147,   14241,  -13972
        55,          2700,    2943,   85090,  -88046,   50347,   63769,  -99999,   12785,       0,       0,  -92470,   76338,   79879,   98202,   15254,  -14053,   98202,   31471,  -14053,  -92470,   47568,   79879,   98202,   15254,  -14053
        56,          2750,    1058,   86065,  -87137,   48812,   65174,  -99981,   12785,       0,       0,  -92059,   77887,   82647,   98257,   16242,  -14137,   98257,   32598,  -14137,  -92059,   48865,   82647,   98257,   16242,  -14137
        57,          2800,    -826,   87010,  -86197,   47262,   66555,  -99928,   12785,       0,       0,  -91508,   79399,   85265,   98311,   17204,  -14224,   98311,   33695,  -14224,  -91508,   50130,   85265,   98311,   17204,  -14224
        58,          2850,   -2711,   87923,  -85227,   45696,   67911,  -99841,   12785,       0,       0,  -90844,   80873,   87611,   98365,   18142,  -14316,   98365,   34765,  -14316,  -90844,   51363,   87611,   98365,   18142,  -14316
        59,          2900,   -4595,   88806,  -84226,   44115,   69243,  -99719,   12785,       0,       0,  -90100,   82311,   89636,   98418,   19055,  -14413,   98418,   35806,  -14413,  -90100,   52566,   89636,   98418,   19055,  -14413
        60,          2950,   -6477,   89656,  -83195,   42517,   70550,  -99563,   12785,       0,       0,  -89302,   83713,   91347,   98471,   19944,  -14514,   98471,   36821,  -14514,  -89302,   53740,   91347,   98471,   19944,  -14514
        61,          3000,   -8357,   90475,  -82135,   40905,   71833,  -99371,   12785,       0,       0,  -88467,   85081,   92783,   98522,   20811,  -14623,   98522,   37810,  -14623,  -88467,   54884,   92783,   98522,   20811,  -14623
        62,          3050,  -10233,   91262,  -81046,   39278,   73090,  -99146,   12785,       0,       0,  -87604,   86415,   93990,   98574,   21655,  -14737,   98574,   38773,  -14737,  -87604,   56001,   93990,   98574,   21655,  -14737
        63,          3100,  -12106,   92016,  -79928,   37637,   74321,  -98885,   12785,       0,       0,  -86717,   87715,   95007,   98624,   22477,  -14856,   98624,   39711,  -14856,  -86717,   57089,   95007,   98624,   22477,  -14856
        64,          3150,  -13975,   92738,  -78781,   35983,   75525,  -98591,   12785,       0,       0,  -85808,   88984,   95867,   98674,   23279,  -14982,   98674,   40625,  -14982,  -85808,   58151,   95867,   98674,   23279,  -14982
        65,          3200,  -15839,   93426,  -77607,   34316,   76703,  -98262,   12785,       0,       0,  -84877,   90222,   96598,   98723,   24059,  -15113,   98723,   41515,  -15113,  -84877,   59187,   96598,   98723,   24059,  -15113
        66,          3250,  -17697,   94082,  -76404,   32637,   77854,  -97899,   12785,       0,       0,  -83926,   91429,   97219,   98771,   24819,  -15250,   98771,   42382,  -15250,  -83926,   60197,   97219,   98771,   24819,  -15250
        67,          3300,  -19549,   94704,  -75175,   30945,   78978,  -97502,   12785,       0,       0,  -82955,   92606,   97747,   98819,   25560,  -15392,   98819,   43227,  -15392,  -82955,   61182,   97747,   98819,   25560,  -15392
        68,          3350,  -21394,   95292,  -73920,   29242,   80076,  -97071,   12785,       0,       0,  -81965,   93754,   98195,   98865,   26281,  -15539,   98865,   44049,  -15539,  -81965,   62143,   98195,   98865,   26281,  -15539
        69,          3400,  -23232,   95847,  -72637,   27526,   81146,  -96607,   12785,       0,       0,  -80957,   94874,   98574,   98911,   26984,  -15692,   98911,   44851,  -15692,  -80957,   63080,   98574,   98911,   26984,  -15692
        70,          3450,  -25061,   96367,  -71330,   25799,   82190,  -96110,   12785,       0,       0,  -79932,   95966,   98893,   98956,   27668,  -15849,   98956,   45632,  -15849,  -79932,   63994,   98893,   98956,   27668,  -15849
        71,          3500,  -26881,   96853,  -69996,   24061,   83207,  -95579,   12785,       0,       0,  -78891,   97031,   99158,   99000,   28335,  -16013,   99000,   46392,  -16013,  -78891,   64885,   99158,   99000,   28335,  -16013
