GTPPLOT creates from ieee13_pv_l1c1b3f2.pl4,999,1999                            
24,24A, 0D
  1,SBUS A          V-node,A, , V,  .93895149230957 , 0.0             , 0.0,-99999, 99999,1.0,1.0,P
  2,SBUS B          V-node,B, , V,  .938975274562836, -.36328125      , 0.0,-99999, 99999,1.0,1.0,P
  3,SBUS C          V-node,C, , V,  .938949346542358, -.18359375      , 0.0,-99999, 99999,1.0,1.0,P
  4,SBUS A 22   A I-branch,A, , A,  .001531183719635, -5.2317581176758, 0.0,-99999, 99999,1.0,1.0,P
  5,SBUS B 22   B I-branch,B, , A,  .995342052192E-4, .691345691680908, 0.0,-99999, 99999,1.0,1.0,P
  6,SBUS C 22   C I-branch,C, , A,  .001613017055206, 5.21424102783203, 0.0,-99999, 99999,1.0,1.0,P
  7,FAULTA        I-branch,A, , A,  .069253154098988, -230.63989257813, 0.0,-99999, 99999,1.0,1.0,P
  8,FAULTB        I-branch,B, , A,  0.0             , 0.0             , 0.0,-99999, 99999,1.0,1.0,P
  9,FAULTC        I-branch,C, , A,  0.0             , 0.0             , 0.0,-99999, 99999,1.0,1.0,P
 10,TACS   PV001V I-branch,S, , A,  .001629069680348, 162.905334472656, 0.0,-99999, 99999,1.0,1.0,P
 11,TACS   PV001I I-branch,S, , A,  .110815213702E-3, 11.08141040802  , 0.0,-99999, 99999,1.0,1.0,P
 12,TACS   PV001W I-branch,S, , A,  .002324556233361, 232.453308105469, 0.0,-99999, 99999,1.0,1.0,P
 13,TACS   PV002V I-branch,S, , A,  .00255189766176 , 255.187210083008, 0.0,-99999, 99999,1.0,1.0,P
 14,TACS   PV002I I-branch,S, , A,  .342143612215E-3, 34.2140197753906, 0.0,-99999, 99999,1.0,1.0,P
 15,TACS   PV002W I-branch,S, , A,  .133595085572E-4, 377.666687011719, 0.0,-99999, 99999,1.0,1.0,P
 16,TACS   ST001V I-branch,S, , A,  .00255189766176 , 255.187210083008, 0.0,-99999, 99999,1.0,1.0,P
 17,TACS   ST001I I-branch,S, , A,  .668256659992E-3, 66.8249969482422, 0.0,-99999, 99999,1.0,1.0,P
 18,TACS   ST001W I-branch,S, , A,  .133595085572E-4, 377.666687011719, 0.0,-99999, 99999,1.0,1.0,P
 19,TACS   ST002V I-branch,S, , A,  .001629069680348, 162.905334472656, 0.0,-99999, 99999,1.0,1.0,P
 20,TACS   ST002I I-branch,S, , A,  .133463705424E-3, 13.3462371826172, 0.0,-99999, 99999,1.0,1.0,P
 21,TACS   ST002W I-branch,S, , A,  .002324556233361, 232.453308105469, 0.0,-99999, 99999,1.0,1.0,P
 22,TACS   ST003V I-branch,S, , A,  .00255189766176 , 255.187210083008, 0.0,-99999, 99999,1.0,1.0,P
 23,TACS   ST003I I-branch,S, , A,  .570239324588E-3, 57.023365020752 , 0.0,-99999, 99999,1.0,1.0,P
 24,TACS   ST003W I-branch,S, , A,  .133595085572E-4, 377.666687011719, 0.0,-99999, 99999,1.0,1.0,P
 50
1
     20000,  12001
06/10/2022,20:28:08.000000
06/10/2022,20:28:08.000000
ASCII 
    1.000000
         1,             0,   86604,      -8,  -86598,    9587,   -5327,   -9191,    3330,       0,       0,  -99999,  -99999,  -99999,  -99999,  -99999,  -50571,  -99999,  -99999,  -50571,  -99999,  -99999,  -99999,  -99999,  -99999,  -50571
         2,            50,   85646,    1877,  -87525,    9552,   -3263,   -9285,    3330,       0,       0,  -99986,  -97024,   62178,   88096,  -97916,  -50571,   88096,  -97777,  -50571,  -99986,  -97529,   62178,   88096,  -97916,  -50571
         3,           100,   84659,    3761,  -88421,    9511,   -1199,   -9373,    3330,       0,       0,  -99702,  -91146,   62178,   88143,  -93802,  -50477,   88143,  -93389,  -50477,  -99702,  -92649,   62178,   88143,  -93802,  -50477
         4,           150,   83641,    5644,  -89286,    9461,     866,   -9453,    3330,       0,       0,  -99099,  -85414,   61984,   88280,  -89791,  -50082,   88280,  -89110,  -50082,  -99099,  -87889,   61984,   88280,  -89791,  -50082
         5,           200,   82593,    7525,  -90119,    9406,    2929,   -9528,    3330,       0,       0,  -98484,  -79823,   61689,   88444,  -85882,  -49488,   88444,  -84941,  -49488,  -98484,  -83247,   61689,   88444,  -85882,  -49488
         6,           250,   81516,    9403,  -90920,    9348,    4983,   -9600,    3330,       0,       0,  -97881,  -74370,   61499,   88616,  -82074,  -48908,   88616,  -80879,  -48908,  -97881,  -78719,   61499,   88616,  -82074,  -48908
         7,           300,   80409,   11278,  -91689,    9289,    7026,   -9670,    3330,       0,       0,  -97307,  -69051,   61327,   88784,  -78363,  -48328,   88784,  -76921,  -48328,  -97307,  -74303,   61327,   88784,  -78363,  -48328
         8,           350,   79275,   13149,  -92425,    9227,    9058,   -9737,    3330,       0,       0,  -96758,  -63864,   61162,   88949,  -74748,  -47745,   88949,  -73065,  -47745,  -96758,  -69996,   61162,   88949,  -74748,  -47745
         9,           400,   78112,   15015,  -93128,    9163,   11078,   -9801,    3330,       0,       0,  -96235,  -58805,   61003,   89110,  -71225,  -47163,   89110,  -69307,  -47163,  -96235,  -65796,   61003,   89110,  -71225,  -47163
        10,           450,   76921,   16876,  -93798,    9097,   13087,   -9862,    3330,       0,       0,  -95738,  -53871,   60849,   89269,  -67793,  -46583,   89269,  -65647,  -46583,  -95738,  -61699,   60849,   89269,  -67793,  -46583
        11,           500,   75703,   18730,  -94435,    9028,   15084,   -9919,    3330,       0,       0,  -95267,  -49059,   60700,   89425,  -64450,  -46000,   89425,  -62080,  -46000,  -95267,  -57704,   60700,   89425,  -64450,  -46000
        12,           550,   74458,   20579,  -95038,    8956,   17068,   -9974,    3330,       0,       0,  -94821,  -44366,   60555,   89578,  -61192,  -45420,   89578,  -58605,  -45420,  -94821,  -53807,   60555,   89578,  -61192,  -45420
        13,           600,   73187,   22419,  -95608,    8882,   19037,  -10025,    3330,       0,       0,  -94401,  -39788,   60415,   89728,  -58018,  -44842,   89728,  -55219,  -44842,  -94401,  -50006,   60415,   89728,  -58018,  -44842
        14,           650,   71889,   24252,  -96143,    8806,   20991,  -10073,    3330,       0,       0,  -94007,  -35324,   60280,   89876,  -54925,  -44264,   89876,  -51921,  -44264,  -94007,  -46299,   60280,   89876,  -54925,  -44264
        15,           700,   70566,   26076,  -96645,    8727,   22929,  -10118,    3330,       0,       0,  -93638,  -30969,   60151,   90022,  -51912,  -43688,   90022,  -48707,  -43688,  -93638,  -42684,   60151,   90022,  -51912,  -43688
        16,           750,   69218,   27891,  -97112,    8646,   24849,  -10160,    3330,       0,       0,  -93294,  -26723,   60026,   90165,  -48977,  -43113,   90165,  -45576,  -43113,  -93294,  -39158,   60026,   90165,  -48977,  -43113
        17,           800,   67846,   29697,  -97544,    8563,   26750,  -10198,    3330,       0,       0,  -92975,  -22581,   59908,   90306,  -46117,  -42539,   90306,  -42525,  -42539,  -92975,  -35719,   59908,   90306,  -46117,  -42539
        18,           850,   66449,   31491,  -97942,    8478,   28630,  -10233,    3330,       0,       0,  -92681,  -18541,   59795,   90445,  -43331,  -41966,   90445,  -39553,  -41966,  -92681,  -32364,   59795,   90445,  -43331,  -41966
        19,           900,   65029,   33274,  -98305,    8390,   30487,  -10265,    3330,       0,       0,  -92412,  -14601,   59690,   90581,  -40616,  -41395,   90581,  -36658,  -41395,  -92412,  -29093,   59690,   90581,  -40616,  -41395
        20,           950,   63585,   35046,  -98633,    8301,   32321,  -10293,    3330,       0,       0,  -92167,  -10759,   59591,   90715,  -37972,  -40824,   90715,  -33837,  -40824,  -92167,  -25903,   59591,   90715,  -37972,  -40824
        21,          1000,   62119,   36805,  -98926,    8211,   34129,  -10319,    3330,       0,       0,  -91948,   -7011,   59500,   90847,  -35395,  -40253,   90847,  -31089,  -40253,  -91948,  -22791,   59500,   90847,  -35395,  -40253
        22,          1050,   60631,   38551,  -99184,    8119,   35910,  -10342,    3330,       0,       0,  -91752,   -3356,   59417,   90977,  -32885,  -39682,   90977,  -28412,  -39682,  -91752,  -19756,   59417,   90977,  -32885,  -39682
        23,          1100,   59122,   40283,  -99407,    8026,   37663,  -10362,    3330,       0,       0,  -91581,     209,   59342,   91104,  -30440,  -39108,   91104,  -25804,  -39108,  -91581,  -16796,   59342,   91104,  -30440,  -39108
        24,          1150,   57591,   42001,  -99594,    7933,   39387,  -10379,    3330,       0,       0,  -91433,    3686,   59277,   91230,  -28058,  -38533,   91230,  -23263,  -38533,  -91433,  -13909,   59277,   91230,  -28058,  -38533
        25,          1200,   56040,   43704,  -99746,    7838,   41080,  -10394,    3330,       0,       0,  -91310,    7077,   59223,   91354,  -25738,  -37957,   91354,  -20788,  -37957,  -91310,  -11094,   59223,   91354,  -25738,  -37957
        26,          1250,   54469,   45392,  -99863,    7743,   42741,  -10406,    3330,       0,       0,  -91209,   10384,   59179,   91475,  -23477,  -37377,   91475,  -18376,  -37377,  -91209,   -8348,   59179,   91475,  -23477,  -37377
        27,          1300,   52878,   47063,  -99944,    7648,   44370,  -10416,    3330,       0,       0,  -91132,   13610,   59148,   91594,  -21275,  -36794,   91594,  -16027,  -36794,  -91132,   -5669,   59148,   91594,  -21275,  -36794
        28,          1350,   51269,   48718,  -99990,    7552,   45966,  -10424,    3330,       0,       0,  -91079,   16756,   59129,   91712,  -19129,  -36207,   91712,  -13739,  -36207,  -91079,   -3057,   59129,   91712,  -19129,  -36207
        29,          1400,   49642,   50355,  -99999,    7456,   47529,  -10429,    3330,       0,       0,  -91047,   19824,   59125,   91827,  -17039,  -35618,   91827,  -11510,  -35618,  -91047,    -510,   59125,   91827,  -17039,  -35618
        30,          1450,   47997,   51975,  -99974,    7360,   49059,  -10433,    3330,       0,       0,  -91038,   22817,   59137,   91941,  -15003,  -35022,   91941,   -9338,  -35022,  -91038,    1975,   59137,   91941,  -15003,  -35022
        31,          1500,   46334,   53576,  -99913,    7265,   50554,  -10434,    3330,       0,       0,  -91051,   25736,   59167,   92052,  -13020,  -34423,   92052,   -7223,  -34423,  -91051,    4399,   59167,   92052,  -13020,  -34423
        32,          1550,   44656,   55158,  -99816,    7169,   52016,  -10434,    3330,       0,       0,  -91086,   28582,   59215,   92162,  -11088,  -33818,   92162,   -5162,  -33818,  -91086,    6762,   59215,   92162,  -11088,  -33818
        33,          1600,   42961,   56720,  -99684,    7074,   53444,  -10432,    3330,       0,       0,  -91142,   31359,   59286,   92270,   -9206,  -33210,   92270,   -3155,  -33210,  -91142,    9067,   59286,   92270,   -9206,  -33210
        34,          1650,   41252,   58263,  -99517,    6979,   54839,  -10428,    3330,       0,       0,  -91218,   34066,   59380,   92376,   -7373,  -32596,   92376,   -1199,  -32596,  -91218,   11316,   59380,   92376,   -7373,  -32596
        35,          1700,   39527,   59784,  -99314,    6885,   56201,  -10422,    3330,       0,       0,  -91315,   36707,   59502,   92480,   -5588,  -31979,   92480,     706,  -31979,  -91315,   13508,   59502,   92480,   -5588,  -31979
        36,          1750,   37789,   61284,  -99076,    6791,   57531,  -10415,    3330,       0,       0,  -91431,   39283,   59653,   92583,   -3848,  -31355,   92583,    2561,  -31355,  -91431,   15647,   59653,   92583,   -3848,  -31355
        37,          1800,   36037,   62763,  -98803,    6697,   58829,  -10406,    3330,       0,       0,  -91566,   41795,   59840,   92684,   -2154,  -30729,   92684,    4368,  -30729,  -91566,   17733,   59840,   92684,   -2154,  -30729
        38,          1850,   34272,   64219,  -98494,    6604,   60096,  -10396,    3330,       0,       0,  -91720,   44245,   60065,   92783,    -503,  -30099,   92783,    6128,  -30099,  -91720,   19767,   60065,   92783,    -503,  -30099
        39,          1900,   32495,   65653,  -98151,    6511,   61333,  -10384,    3330,       0,       0,  -91890,   46635,   60336,   92881,    1104,  -29468,   92881,    7843,  -29468,  -91890,   21751,   60336,   92881,    1104,  -29468
        40,          1950,   30707,   67063,  -97772,    6418,   62540,  -10371,    3330,       0,       0,  -92076,   48965,   60659,   92977,    2670,  -28833,   92977,    9513,  -28833,  -92076,   23686,   60659,   92977,    2670,  -28833
        41,          2000,   28908,   68449,  -97359,    6326,   63718,  -10355,    3330,       0,       0,  -92278,   51238,   61043,   93072,    4195,  -28196,   93072,   11140,  -28196,  -92278,   25574,   61043,   93072,    4195,  -28196
        42,          2050,   27098,   69811,  -96912,    6233,   64867,  -10339,    3330,       0,       0,  -92492,   53455,   61499,   93165,    5680,  -27559,   93165,   12725,  -27559,  -92492,   27414,   61499,   93165,    5680,  -27559
        43,          2100,   25279,   71148,  -96430,    6141,   65988,  -10320,    3330,       0,       0,  -92717,   55617,   62040,   93257,    7127,  -26921,   93257,   14268,  -26921,  -92717,   29210,   62040,   93257,    7127,  -26921
        44,          2150,   23451,   72460,  -95913,    6049,   67081,  -10300,    3330,       0,       0,  -92951,   57726,   62682,   93348,    8536,  -26286,   93348,   15771,  -26286,  -92951,   30961,   62682,   93348,    8536,  -26286
        45,          2200,   21614,   73746,  -95363,    5957,   68146,  -10278,    3330,       0,       0,  -93190,   59783,   63447,   93438,    9909,  -25651,   93438,   17235,  -25651,  -93190,   32668,   63447,   93438,    9909,  -25651
        46,          2250,   19770,   75006,  -94779,    5864,   69182,  -10255,    3330,       0,       0,  -93429,   61789,   64361,   93526,   11246,  -25019,   93526,   18661,  -25019,  -93429,   34334,   64361,   93526,   11246,  -25019
        47,          2300,   17919,   76239,  -94161,    5772,   70190,  -10229,    3330,       0,       0,  -93662,   63745,   65459,   93613,   12548,  -24388,   93613,   20050,  -24388,  -93662,   35958,   65459,   93613,   12548,  -24388
        48,          2350,   16061,   77445,  -93510,    5679,   71168,  -10202,    3330,       0,       0,  -93879,   65653,   66782,   93699,   13816,  -23760,   93699,   21402,  -23760,  -93879,   37542,   66782,   93699,   13816,  -23760
        49,          2400,   14198,   78624,  -92825,    5587,   72114,  -10172,    3330,       0,       0,  -94068,   67514,   68380,   93784,   15051,  -23136,   93784,   22719,  -23136,  -94068,   39088,   68380,   93784,   15051,  -23136
        50,          2450,   12330,   79774,  -92107,    5495,   73026,  -10141,    3330,       0,       0,  -94212,   69329,   70304,   93869,   16253,  -22517,   93869,   24002,  -22517,  -94212,   40595,   70304,   93869,   16253,  -22517
        51,          2500,   10457,   80897,  -91357,    5402,   73903,  -10107,    3330,       0,       0,  -94285,   71100,   72593,   93952,   17424,  -21900,   93952,   25251,  -21900,  -94285,   42064,   72593,   93952,   17424,  -21900
        52,          2550,    8581,   81990,  -90574,    5310,   74743,  -10072,    3330,       0,       0,  -94261,   72826,   75243,   94034,   18565,  -21288,   94034,   26468,  -21288,  -94261,   43498,   75243,   94034,   18565,  -21288
        53,          2600,    6701,   83055,  -89759,    5218,   75546,  -10034,    3330,       0,       0,  -94110,   74510,   78169,   94116,   19676,  -20681,   94116,   27652,  -20681,  -94110,   44896,   78169,   94116,   19676,  -20681
        54,          2650,    4820,   84090,  -88913,    5126,   76316,   -9993,    3330,       0,       0,  -93817,   76152,   81193,   94197,   20757,  -20075,   94197,   28806,  -20075,  -93817,   46260,   81193,   94197,   20757,  -20075
        55,          2700,    2936,   85095,  -88034,    5033,   77055,   -9951,    3330,       0,       0,  -93389,   77754,   84091,   94277,   21810,  -19479,   94277,   29929,  -19479,  -93389,   47590,   84091,   94277,   21810,  -19479
        56,          2750,    1052,   86070,  -87125,    4939,   77767,   -9906,    3330,       0,       0,  -92852,   79316,   86686,   94357,   22836,  -18892,   94357,   31023,  -18892,  -92852,   48887,   86686,   94357,   22836,  -18892
        57,          2800,    -833,   87014,  -86184,    4845,   78453,   -9859,    3330,       0,       0,  -92243,   80840,   88905,   94436,   23834,  -18314,   94436,   32088,  -18314,  -92243,   50152,   88905,   94436,   23834,  -18314
        58,          2850,   -2718,   87927,  -85213,    4750,   79112,   -9809,    3330,       0,       0,  -91588,   82326,   90763,   94514,   24807,  -17750,   94514,   33125,  -17750,  -91588,   51386,   90763,   94514,   24807,  -17750
        59,          2900,   -4602,   88809,  -84211,    4654,   79741,   -9757,    3330,       0,       0,  -90903,   83775,   92313,   94591,   25753,  -17199,   94591,   34135,  -17199,  -90903,   52589,   92313,   94591,   25753,  -17199
        60,          2950,   -6484,   89660,  -83180,    4557,   80340,   -9703,    3330,       0,       0,  -90194,   85189,   93611,   94668,   26675,  -16660,   94668,   35118,  -16660,  -90194,   53763,   93611,   94668,   26675,  -16660
        61,          3000,   -8363,   90479,  -82119,    4461,   80908,   -9646,    3330,       0,       0,  -89461,   86567,   94703,   94744,   27572,  -16135,   94744,   36075,  -16135,  -89461,   54907,   94703,   94744,   27572,  -16135
        62,          3050,  -10240,   91265,  -81029,    4363,   81444,   -9586,    3330,       0,       0,  -88707,   87912,   95626,   94819,   28446,  -15621,   94819,   37007,  -15621,  -88707,   56024,   95626,   94819,   28446,  -15621
        63,          3100,  -12113,   92019,  -79910,    4265,   81950,   -9525,    3330,       0,       0,  -87933,   89223,   96408,   94894,   29296,  -15121,   94894,   37914,  -15121,  -87933,   57113,   96408,   94894,   29296,  -15121
        64,          3150,  -13982,   92741,  -78762,    4167,   82424,   -9461,    3330,       0,       0,  -87138,   90502,   97071,   94968,   30124,  -14629,   94968,   38798,  -14629,  -87138,   58175,   97071,   94968,   30124,  -14629
        65,          3200,  -15846,   93429,  -77587,    4069,   82869,   -9394,    3330,       0,       0,  -86324,   91750,   97633,   95041,   30930,  -14152,   95041,   39657,  -14152,  -86324,   59210,   97633,   95041,   30930,  -14152
        66,          3250,  -17704,   94085,  -76384,    3969,   83284,   -9326,    3330,       0,       0,  -85493,   92966,   98108,   95114,   31715,  -13688,   95114,   40494,  -13688,  -85493,   60221,   98108,   95114,   31715,  -13688
        67,          3300,  -19556,   94706,  -75154,    3870,   83672,   -9255,    3330,       0,       0,  -84644,   94153,   98509,   95186,   32479,  -13238,   95186,   41309,  -13238,  -84644,   61206,   98509,   95186,   32479,  -13238
        68,          3350,  -21401,   95295,  -73897,    3770,   84034,   -9183,    3330,       0,       0,  -83780,   95310,   98845,   95257,   33222,  -12800,   95257,   42102,  -12800,  -83780,   62167,   98845,   95257,   33222,  -12800
        69,          3400,  -23238,   95849,  -72614,    3669,   84369,   -9108,    3330,       0,       0,  -82901,   96439,   99124,   95328,   33946,  -12375,   95328,   42874,  -12375,  -82901,   63104,   99124,   95328,   33946,  -12375
        70,          3450,  -25067,   96369,  -71305,    3568,   84680,   -9031,    3330,       0,       0,  -82009,   97540,   99355,   95398,   34650,  -11964,   95398,   43625,  -11964,  -82009,   64018,   99355,   95398,   34650,  -11964
        71,          3500,  -26887,   96855,  -69971,    3467,   84968,   -8953,    3330,       0,       0,  -81103,   98533,   99542,   95467,   35335,  -11564,   95467,   44356,  -11564,  -81103,   64909,   99542,   95467,   35335,  -11564
