GTPPLOT creates from ieee13_pv_l2c2b3f1.pl4,999,1999                            
24,24A, 0D
  1,SBUS A          V-node,A, , V,  .938910245895386, -.0078125       , 0.0,-99999, 99999,1.0,1.0,P
  2,SBUS B          V-node,B, , V,  .938927888870239, -.00390625      , 0.0,-99999, 99999,1.0,1.0,P
  3,SBUS C          V-node,C, , V,  .938901901245117, -.49609375      , 0.0,-99999, 99999,1.0,1.0,P
  4,SBUS A 22   A I-branch,A, , A,  .004248297773302, -32.639099121094, 0.0,-99999, 99999,1.0,1.0,P
  5,SBUS B 22   B I-branch,B, , A,  .005059387069196, 58.8675231933594, 0.0,-99999, 99999,1.0,1.0,P
  6,SBUS C 22   C I-branch,C, , A,  .004623609595001, -11.648315429688, 0.0,-99999, 99999,1.0,1.0,P
  7,FAULTA        I-branch,A, , A,  .111939892172813, -368.28173828125, 0.0,-99999, 99999,1.0,1.0,P
  8,FAULTB        I-branch,B, , A,  .119945988059044, 1517.78759765625, 0.0,-99999, 99999,1.0,1.0,P
  9,FAULTC        I-branch,C, , A,  .131560727953911, -1381.1791992188, 0.0,-99999, 99999,1.0,1.0,P
 10,TACS   PV001V I-branch,S, , A,  .001382754417136, 138.274063110352, 0.0,-99999, 99999,1.0,1.0,P
 11,TACS   PV001I I-branch,S, , A,  .133546331199E-3, 13.3544998168945, 0.0,-99999, 99999,1.0,1.0,P
 12,TACS   PV001W I-branch,S, , A,  .002319967607036, 231.994445800781, 0.0,-99999, 99999,1.0,1.0,P
 13,TACS   PV002V I-branch,S, , A,  .002515684813261, 251.565963745117, 0.0,-99999, 99999,1.0,1.0,P
 14,TACS   PV002I I-branch,S, , A,  .001991082215682, 199.106231689453, 0.0,-99999, 99999,1.0,1.0,P
 15,TACS   PV002W I-branch,S, , A,  .001759386621416, 201.42414855957 , 0.0,-99999, 99999,1.0,1.0,P
 16,TACS   ST001V I-branch,S, , A,  .002515684813261, 251.565963745117, 0.0,-99999, 99999,1.0,1.0,P
 17,TACS   ST001I I-branch,S, , A,  .666750071105E-3, 66.6743392944336, 0.0,-99999, 99999,1.0,1.0,P
 18,TACS   ST001W I-branch,S, , A,  .001759386621416, 201.42414855957 , 0.0,-99999, 99999,1.0,1.0,P
 19,TACS   ST002V I-branch,S, , A,  .001382754417136, 138.274063110352, 0.0,-99999, 99999,1.0,1.0,P
 20,TACS   ST002I I-branch,S, , A,  .133546331199E-3, 13.3544998168945, 0.0,-99999, 99999,1.0,1.0,P
 21,TACS   ST002W I-branch,S, , A,  .002319967607036, 231.994445800781, 0.0,-99999, 99999,1.0,1.0,P
 22,TACS   ST003V I-branch,S, , A,  .002515684813261, 251.565963745117, 0.0,-99999, 99999,1.0,1.0,P
 23,TACS   ST003I I-branch,S, , A,  .663710176013E-3, 66.3703536987305, 0.0,-99999, 99999,1.0,1.0,P
 24,TACS   ST003W I-branch,S, , A,  .001759386621416, 201.42414855957 , 0.0,-99999, 99999,1.0,1.0,P
 50
1
     20000,  12001
06/10/2022,20:28:22.000000
06/10/2022,20:28:22.000000
ASCII 
    1.000000
         1,             0,   86606,     -13,  -86595,   11857,  -12515,    -355,    3289,  -12654,   10498,  -99999,  -99999,  -99999,  -99999,  -99999,   99788,  -99999,  -99999,   99788,  -99999,  -99999,  -99999,  -99999,  -99999,   99788
         2,            50,   85648,    1872,  -87522,   11850,  -12444,    -426,    3289,  -12654,   10498,  -99983,  -97530,   62499,   90803,  -98210,   99788,   90803,  -97772,   99788,  -99983,  -97530,   62499,   90803,  -98210,   99788
         3,           100,   84660,    3756,  -88418,   11839,  -12372,    -495,    3289,  -12654,   10498,  -99650,  -92653,   62499,   90823,  -94674,   99787,   90823,  -93373,   99787,  -99650,  -92653,   62499,   90823,  -94674,   99787
         4,           150,   83643,    5639,  -89284,   11824,  -12301,    -559,    3289,  -12654,   10498,  -98947,  -87896,   62307,   90907,  -91227,   99785,   90907,  -89084,   99785,  -98947,  -87896,   62307,   90907,  -91227,   99785
         5,           200,   82595,    7520,  -90117,   11805,  -12229,    -620,    3289,  -12654,   10498,  -98235,  -83257,   62013,   91029,  -87867,   99786,   91029,  -84903,   99786,  -98235,  -83257,   62013,   91029,  -87867,   99786
         6,           250,   81518,    9398,  -90918,   11784,  -12157,    -679,    3289,  -12654,   10498,  -97531,  -78732,   61820,   91171,  -84592,   99786,   91171,  -80828,   99786,  -97531,  -78732,   61820,   91171,  -84592,   99786
         7,           300,   80412,   11273,  -91687,   11761,  -12085,    -737,    3289,  -12654,   10498,  -96853,  -74319,   61645,   91315,  -81401,   99786,   91315,  -76858,   99786,  -96853,  -74319,   61645,   91315,  -81401,   99786
         8,           350,   79277,   13144,  -92423,   11736,  -12013,    -793,    3289,  -12654,   10498,  -96206,  -70015,   61478,   91458,  -78291,   99787,   91458,  -72988,   99787,  -96206,  -70015,   61478,   91458,  -78292,   99787
         9,           400,   78114,   15010,  -93126,   11711,  -11941,    -848,    3289,  -12654,   10498,  -95589,  -65817,   61318,   91599,  -75261,   99788,   91599,  -69218,   99788,  -95589,  -65817,   61318,   91599,  -75261,   99788
        10,           450,   76924,   16871,  -93796,   11683,  -11870,    -901,    3289,  -12654,   10498,  -95002,  -61723,   61162,   91738,  -72308,   99789,   91738,  -65544,   99789,  -95002,  -61723,   61162,   91738,  -72309,   99789
        11,           500,   75706,   18726,  -94433,   11654,  -11798,    -953,    3289,  -12654,   10498,  -94444,  -57730,   61011,   91874,  -69431,   99790,   91874,  -61963,   99790,  -94444,  -57730,   61011,   91874,  -69431,   99790
        12,           550,   74461,   20574,  -95037,   11623,  -11727,   -1002,    3289,  -12654,   10498,  -93917,  -53835,   60865,   92008,  -66627,   99791,   92008,  -58475,   99791,  -93917,  -53835,   60865,   92008,  -66627,   99791
        13,           600,   73189,   22415,  -95606,   11591,  -11656,   -1050,    3289,  -12654,   10498,  -93419,  -50037,   60724,   92140,  -63895,   99792,   92140,  -55075,   99792,  -93419,  -50037,   60724,   92140,  -63895,   99792
        14,           650,   71892,   24248,  -96142,   11557,  -11585,   -1097,    3289,  -12654,   10498,  -92950,  -46332,   60587,   92270,  -61232,   99794,   92270,  -51763,   99794,  -92950,  -46332,   60587,   92270,  -61233,   99794
        15,           700,   70569,   26072,  -96643,   11521,  -11515,   -1141,    3289,  -12654,   10498,  -92511,  -42719,   60456,   92398,  -58638,   99796,   92398,  -48535,   99796,  -92511,  -42719,   60456,   92398,  -58639,   99796
        16,           750,   69221,   27887,  -97111,   11484,  -11444,   -1184,    3289,  -12654,   10498,  -92101,  -39195,   60330,   92524,  -56110,   99798,   92524,  -45389,   99798,  -92101,  -39195,   60330,   92524,  -56111,   99798
        17,           800,   67849,   29692,  -97543,   11446,  -11374,   -1225,    3289,  -12654,   10498,  -91720,  -35758,   60210,   92649,  -53647,   99799,   92649,  -42325,   99799,  -91720,  -35758,   60210,   92649,  -53648,   99799
        18,           850,   66452,   31487,  -97941,   11406,  -11305,   -1264,    3289,  -12654,   10498,  -91369,  -32406,   60096,   92772,  -51247,   99802,   92772,  -39339,   99802,  -91369,  -32406,   60096,   92772,  -51249,   99802
        19,           900,   65032,   33270,  -98304,   11364,  -11236,   -1302,    3289,  -12654,   10498,  -91046,  -29137,   59988,   92894,  -48909,   99804,   92894,  -36429,   99804,  -91046,  -29137,   59988,   92894,  -48910,   99804
        20,           950,   63588,   35042,  -98633,   11322,  -11167,   -1338,    3289,  -12654,   10498,  -90751,  -25949,   59887,   93013,  -46630,   99806,   93013,  -33594,   99806,  -90751,  -25949,   59887,   93013,  -46632,   99806
        21,          1000,   62122,   36801,  -98926,   11278,  -11099,   -1372,    3289,  -12654,   10498,  -90486,  -22839,   59793,   93132,  -44410,   99808,   93132,  -30832,   99808,  -90486,  -22839,   59793,   93132,  -44412,   99808
        22,          1050,   60634,   38547,  -99184,   11233,  -11032,   -1405,    3289,  -12654,   10498,  -90248,  -19806,   59707,   93248,  -42247,   99811,   93248,  -28140,   99811,  -90248,  -19806,   59707,   93248,  -42249,   99811
        23,          1100,   59125,   40279,  -99407,   11188,  -10965,   -1436,    3289,  -12654,   10498,  -90039,  -16848,   59630,   93363,  -40140,   99813,   93363,  -25518,   99813,  -90039,  -16848,   59630,   93363,  -40141,   99813
        24,          1150,   57594,   41997,  -99594,   11141,  -10899,   -1465,    3289,  -12654,   10498,  -89857,  -13962,   59562,   93477,  -38086,   99816,   93477,  -22963,   99816,  -89857,  -13962,   59562,   93477,  -38088,   99816
        25,          1200,   56043,   43701,  -99746,   11094,  -10834,   -1494,    3289,  -12654,   10498,  -89703,  -11149,   59504,   93588,  -36086,   99819,   93588,  -20474,   99819,  -89703,  -11149,   59504,   93588,  -36087,   99819
        26,          1250,   54472,   45388,  -99863,   11046,  -10769,   -1520,    3289,  -12654,   10498,  -89577,   -8404,   59456,   93698,  -34137,   99821,   93698,  -18048,   99821,  -89577,   -8404,   59456,   93698,  -34138,   99821
        27,          1300,   52881,   47060,  -99944,   10998,  -10705,   -1546,    3289,  -12654,   10498,  -89477,   -5728,   59420,   93807,  -32237,   99824,   93807,  -15685,   99824,  -89477,   -5728,   59420,   93807,  -32239,   99824
        28,          1350,   51272,   48714,  -99989,   10949,  -10642,   -1570,    3289,  -12654,   10498,  -89405,   -3117,   59397,   93913,  -30387,   99827,   93913,  -13383,   99827,  -89405,   -3117,   59397,   93913,  -30389,   99827
        29,          1400,   49645,   50352,  -99999,   10900,  -10580,   -1593,    3289,  -12654,   10498,  -89359,    -571,   59388,   94018,  -28584,   99831,   94018,  -11140,   99831,  -89359,    -571,   59388,   94018,  -28586,   99831
        30,          1450,   48000,   51971,  -99974,   10850,  -10519,   -1614,    3289,  -12654,   10498,  -89339,    1912,   59393,   94122,  -26828,   99834,   94122,   -8955,   99834,  -89339,    1912,   59393,   94122,  -26830,   99834
        31,          1500,   46338,   53573,  -99913,   10800,  -10458,   -1635,    3289,  -12654,   10498,  -89344,    4334,   59416,   94224,  -25117,   99837,   94224,   -6826,   99837,  -89344,    4334,   59416,   94224,  -25119,   99837
        32,          1550,   44659,   55155,  -99817,   10750,  -10398,   -1654,    3289,  -12654,   10498,  -89375,    6696,   59457,   94324,  -23450,   99841,   94324,   -4751,   99841,  -89375,    6696,   59457,   94324,  -23452,   99841
        33,          1600,   42964,   56717,  -99685,   10699,  -10339,   -1672,    3289,  -12654,   10498,  -89431,    9000,   59519,   94422,  -21826,   99844,   94422,   -2731,   99844,  -89431,    9000,   59519,   94422,  -21828,   99844
        34,          1650,   41255,   58259,  -99517,   10649,  -10281,   -1689,    3289,  -12654,   10498,  -89511,   11247,   59603,   94519,  -20244,   99848,   94519,    -762,   99848,  -89511,   11247,   59603,   94519,  -20246,   99848
        35,          1700,   39530,   59781,  -99314,   10598,  -10224,   -1705,    3289,  -12654,   10498,  -89615,   13438,   59713,   94615,  -18703,   99851,   94615,    1156,   99851,  -89615,   13438,   59713,   94615,  -18705,   99851
        36,          1750,   37792,   61281,  -99076,   10547,  -10167,   -1720,    3289,  -12654,   10498,  -89741,   15575,   59851,   94709,  -17201,   99855,   94709,    3024,   99855,  -89741,   15575,   59851,   94709,  -17203,   99855
        37,          1800,   36040,   62760,  -98803,   10495,  -10111,   -1734,    3289,  -12654,   10498,  -89890,   17660,   60021,   94801,  -15738,   99859,   94801,    4844,   99859,  -89890,   17660,   60021,   94801,  -15740,   99859
        38,          1850,   34275,   64216,  -98495,   10444,  -10056,   -1747,    3289,  -12654,   10498,  -90060,   19693,   60228,   94892,  -14313,   99863,   94892,    6617,   99863,  -90060,   19693,   60228,   94892,  -14315,   99863
        39,          1900,   32498,   65650,  -98151,   10392,  -10002,   -1759,    3289,  -12654,   10498,  -90250,   21676,   60477,   94982,  -12925,   99867,   94982,    8345,   99867,  -90250,   21676,   60477,   94982,  -12927,   99867
        40,          1950,   30710,   67060,  -97773,   10340,   -9948,   -1770,    3289,  -12654,   10498,  -90459,   23610,   60774,   95070,  -11573,   99871,   95070,   10027,   99871,  -90459,   23610,   60774,   95070,  -11575,   99871
        41,          2000,   28911,   68446,  -97360,   10288,   -9896,   -1779,    3289,  -12654,   10498,  -90685,   25496,   61126,   95157,  -10255,   99875,   95157,   11667,   99875,  -90685,   25496,   61126,   95157,  -10257,   99875
        42,          2050,   27101,   69808,  -96913,   10235,   -9843,   -1788,    3289,  -12654,   10498,  -90928,   27335,   61544,   95242,   -8972,   99879,   95242,   13263,   99879,  -90928,   27335,   61544,   95242,   -8974,   99879
        43,          2100,   25282,   71145,  -96431,   10182,   -9792,   -1796,    3289,  -12654,   10498,  -91184,   29130,   62037,   95327,   -7722,   99883,   95327,   14819,   99883,  -91184,   29130,   62037,   95327,   -7724,   99883
        44,          2150,   23454,   72457,  -95914,   10129,   -9742,   -1802,    3289,  -12654,   10498,  -91450,   30879,   62620,   95410,   -6504,   99887,   95410,   16334,   99887,  -91450,   30879,   62620,   95410,   -6506,   99887
        45,          2200,   21617,   73743,  -95364,   10075,   -9692,   -1807,    3289,  -12654,   10498,  -91724,   32586,   63310,   95492,   -5318,   99891,   95492,   17810,   99891,  -91724,   32586,   63310,   95492,   -5320,   99891
        46,          2250,   19773,   75003,  -94780,   10021,   -9642,   -1812,    3289,  -12654,   10498,  -92001,   34251,   64130,   95573,   -4162,   99895,   95573,   19248,   99895,  -92001,   34251,   64130,   95573,   -4165,   99895
        47,          2300,   17922,   76237,  -94162,    9967,   -9594,   -1815,    3289,  -12654,   10498,  -92274,   35874,   65107,   95653,   -3037,   99899,   95653,   20648,   99899,  -92274,   35874,   65107,   95653,   -3039,   99899
        48,          2350,   16064,   77443,  -93511,    9912,   -9546,   -1816,    3289,  -12654,   10498,  -92534,   37457,   66274,   95731,   -1941,   99903,   95731,   22012,   99903,  -92534,   37457,   66274,   95731,   -1943,   99903
        49,          2400,   14201,   78622,  -92826,    9856,   -9499,   -1817,    3289,  -12654,   10498,  -92770,   39002,   67671,   95809,    -873,   99907,   95809,   23341,   99907,  -92770,   39002,   67671,   95809,    -875,   99907
        50,          2450,   12333,   79772,  -92109,    9801,   -9453,   -1816,    3289,  -12654,   10498,  -92965,   40508,   69343,   95886,     167,   99911,   95886,   24635,   99911,  -92965,   40508,   69343,   95886,     165,   99911
        51,          2500,   10460,   80895,  -91358,    9744,   -9407,   -1814,    3289,  -12654,   10498,  -93098,   41977,   71332,   95962,    1180,   99915,   95962,   25896,   99915,  -93098,   41977,   71332,   95962,    1178,   99915
        52,          2550,    8584,   81988,  -90576,    9688,   -9363,   -1811,    3289,  -12654,   10498,  -93141,   43409,   73658,   96037,    2167,   99919,   96037,   27123,   99919,  -93141,   43409,   73658,   96037,    2164,   99919
        53,          2600,    6704,   83053,  -89761,    9631,   -9319,   -1806,    3289,  -12654,   10498,  -93064,   44806,   76297,   96111,    3128,   99923,   96111,   28319,   99923,  -93064,   44806,   76297,   96111,    3125,   99923
        54,          2650,    4823,   84088,  -88914,    9574,   -9277,   -1800,    3289,  -12654,   10498,  -92840,   46169,   79151,   96184,    4064,   99927,   96184,   29484,   99927,  -92840,   46169,   79151,   96184,    4061,   99927
        55,          2700,    2939,   85093,  -88036,    9516,   -9235,   -1793,    3289,  -12654,   10498,  -92457,   47498,   82050,   96257,    4975,   99931,   96257,   30618,   99931,  -92457,   47498,   82050,   96257,    4973,   99931
        56,          2750,    1054,   86068,  -87126,    9458,   -9194,   -1784,    3289,  -12654,   10498,  -91927,   48795,   84802,   96329,    5863,   99934,   96329,   31722,   99934,  -91927,   48795,   84802,   96329,    5861,   99934
        57,          2800,    -830,   87012,  -86185,    9399,   -9154,   -1774,    3289,  -12654,   10498,  -91279,   50059,   87262,   96400,    6728,   99938,   96400,   32798,   99938,  -91279,   50059,   87262,   96400,    6725,   99938
        58,          2850,   -2715,   87926,  -85214,    9339,   -9115,   -1762,    3289,  -12654,   10498,  -90551,   51292,   89371,   96470,    7570,   99941,   96470,   33846,   99941,  -90551,   51292,   89371,   96470,    7567,   99941
        59,          2900,   -4599,   88808,  -84213,    9279,   -9076,   -1749,    3289,  -12654,   10498,  -89770,   52495,   91143,   96540,    8390,   99945,   96540,   34866,   99945,  -89770,   52495,   91143,   96540,    8387,   99945
        60,          2950,   -6481,   89659,  -83181,    9219,   -9039,   -1735,    3289,  -12654,   10498,  -88953,   53668,   92623,   96609,    9188,   99948,   96609,   35860,   99948,  -88953,   53668,   92623,   96609,    9186,   99948
        61,          3000,   -8360,   90477,  -82120,    9158,   -9002,   -1719,    3289,  -12654,   10498,  -88110,   54812,   93864,   96677,    9966,   99951,   96677,   36827,   99951,  -88110,   54812,   93864,   96677,    9963,   99951
        62,          3050,  -10237,   91264,  -81030,    9096,   -8966,   -1701,    3289,  -12654,   10498,  -87242,   55927,   94909,   96744,   10723,   99954,   96744,   37769,   99954,  -87242,   55927,   94909,   96744,   10720,   99954
        63,          3100,  -12110,   92018,  -79911,    9034,   -8931,   -1683,    3289,  -12654,   10498,  -86350,   57015,   95793,   96811,   11460,   99957,   96811,   38687,   99957,  -86350,   57015,   95793,   96811,   11458,   99957
        64,          3150,  -13979,   92740,  -78764,    8971,   -8897,   -1662,    3289,  -12654,   10498,  -85436,   58077,   96542,   96876,   12178,   99960,   96876,   39580,   99960,  -85436,   58077,   96542,   96876,   12175,   99960
        65,          3200,  -15843,   93428,  -77589,    8908,   -8864,   -1641,    3289,  -12654,   10498,  -84500,   59112,   97178,   96942,   12877,   99963,   96942,   40450,   99963,  -84500,   59112,   97178,   96942,   12874,   99963
        66,          3250,  -17701,   94084,  -76386,    8845,   -8832,   -1617,    3289,  -12654,   10498,  -83543,   60121,   97718,   97006,   13558,   99965,   97006,   41297,   99965,  -83543,   60121,   97718,   97006,   13555,   99965
        67,          3300,  -19553,   94706,  -75156,    8781,   -8801,   -1593,    3289,  -12654,   10498,  -82567,   61106,   98175,   97069,   14221,   99968,   97069,   42121,   99968,  -82567,   61106,   98175,   97069,   14218,   99968
        68,          3350,  -21398,   95294,  -73899,    8717,   -8771,   -1567,    3289,  -12654,   10498,  -81571,   62066,   98561,   97132,   14866,   99970,   97132,   42924,   99970,  -81571,   62066,   98561,   97132,   14863,   99970
        69,          3400,  -23235,   95848,  -72616,    8653,   -8742,   -1540,    3289,  -12654,   10498,  -80558,   63003,   98885,   97194,   15494,   99973,   97194,   43706,   99973,  -80558,   63003,   98885,   97194,   15491,   99973
        70,          3450,  -25065,   96369,  -71308,    8588,   -8713,   -1511,    3289,  -12654,   10498,  -79529,   63916,   99155,   97255,   16106,   99975,   97255,   44467,   99975,  -79529,   63916,   99155,   97255,   16103,   99975
        71,          3500,  -26885,   96855,  -69973,    8522,   -8686,   -1481,    3289,  -12654,   10498,  -78484,   64807,   99377,   97315,   16701,   99977,   97315,   45208,   99977,  -78484,   64807,   99377,   97315,   16698,   99977
